Freq.	V(vout)
Step Information: Run=5  (Run: 5/15)
1.00000000000000e+003	(5.11603727072155e+001dB,1.79514247521639e+002°)
1.00770481413610e+003	(5.11603697720361e+001dB,1.79510504967722e+002°)
1.01546899243308e+003	(5.11603667914543e+001dB,1.79506733579955e+002°)
1.02329299228075e+003	(5.11603637647677e+001dB,1.79502933136220e+002°)
1.03117727459306e+003	(5.11603606912632e+001dB,1.79499103412690e+002°)
1.03912230383517e+003	(5.11603575702166e+001dB,1.79495244183816e+002°)
1.04712854805090e+003	(5.11603544008927e+001dB,1.79491355222309e+002°)
1.05519647889024e+003	(5.11603511825444e+001dB,1.79487436299131e+002°)
1.06332657163716e+003	(5.11603479144139e+001dB,1.79483487183482e+002°)
1.07151930523761e+003	(5.11603445957308e+001dB,1.79479507642784e+002°)
1.07977516232771e+003	(5.11603412257132e+001dB,1.79475497442666e+002°)
1.08809462926223e+003	(5.11603378035671e+001dB,1.79471456346955e+002°)
1.09647819614319e+003	(5.11603343284861e+001dB,1.79467384117659e+002°)
1.10492635684876e+003	(5.11603307996519e+001dB,1.79463280514952e+002°)
1.11343960906236e+003	(5.11603272162328e+001dB,1.79459145297165e+002°)
1.12201845430197e+003	(5.11603235773845e+001dB,1.79454978220764e+002°)
1.13066339794964e+003	(5.11603198822493e+001dB,1.79450779040342e+002°)
1.13937494928134e+003	(5.11603161299569e+001dB,1.79446547508603e+002°)
1.14815362149688e+003	(5.11603123196235e+001dB,1.79442283376346e+002°)
1.15699993175021e+003	(5.11603084503510e+001dB,1.79437986392453e+002°)
1.16591440117983e+003	(5.11603045212277e+001dB,1.79433656303869e+002°)
1.17489755493953e+003	(5.11603005313277e+001dB,1.79429292855595e+002°)
1.18394992222930e+003	(5.11602964797115e+001dB,1.79424895790666e+002°)
1.19307203632654e+003	(5.11602923654245e+001dB,1.79420464850139e+002°)
1.20226443461742e+003	(5.11602881874972e+001dB,1.79415999773080e+002°)
1.21152765862859e+003	(5.11602839449448e+001dB,1.79411500296542e+002°)
1.22086225405907e+003	(5.11602796367683e+001dB,1.79406966155557e+002°)
1.23026877081238e+003	(5.11602752619522e+001dB,1.79402397083116e+002°)
1.23974776302895e+003	(5.11602708194662e+001dB,1.79397792810155e+002°)
1.24929978911874e+003	(5.11602663082636e+001dB,1.79393153065536e+002°)
1.25892541179417e+003	(5.11602617272812e+001dB,1.79388477576038e+002°)
1.26862519810326e+003	(5.11602570754402e+001dB,1.79383766066334e+002°)
1.27839971946303e+003	(5.11602523516441e+001dB,1.79379018258979e+002°)
1.28824955169314e+003	(5.11602475547805e+001dB,1.79374233874390e+002°)
1.29817527504985e+003	(5.11602426837184e+001dB,1.79369412630833e+002°)
1.30817747426020e+003	(5.11602377373115e+001dB,1.79364554244408e+002°)
1.31825673855641e+003	(5.11602327143932e+001dB,1.79359658429026e+002°)
1.32841366171065e+003	(5.11602276137809e+001dB,1.79354724896396e+002°)
1.33864884207000e+003	(5.11602224342724e+001dB,1.79349753356011e+002°)
1.34896288259166e+003	(5.11602171746480e+001dB,1.79344743515125e+002°)
1.35935639087853e+003	(5.11602118336679e+001dB,1.79339695078740e+002°)
1.36982997921497e+003	(5.11602064100741e+001dB,1.79334607749588e+002°)
1.38038426460289e+003	(5.11602009025886e+001dB,1.79329481228111e+002°)
1.39101986879806e+003	(5.11601953099144e+001dB,1.79324315212447e+002°)
1.40173741834677e+003	(5.11601896307334e+001dB,1.79319109398410e+002°)
1.41253754462276e+003	(5.11601838637081e+001dB,1.79313863479473e+002°)
1.42342088386435e+003	(5.11601780074794e+001dB,1.79308577146751e+002°)
1.43438807721197e+003	(5.11601720606680e+001dB,1.79303250088981e+002°)
1.44543977074593e+003	(5.11601660218722e+001dB,1.79297881992503e+002°)
1.45657661552446e+003	(5.11601598896706e+001dB,1.79292472541244e+002°)
1.46779926762207e+003	(5.11601536626169e+001dB,1.79287021416701e+002°)
1.47910838816821e+003	(5.11601473392454e+001dB,1.79281528297917e+002°)
1.49050464338620e+003	(5.11601409180658e+001dB,1.79275992861466e+002°)
1.50198870463249e+003	(5.11601343975655e+001dB,1.79270414781432e+002°)
1.51356124843621e+003	(5.11601277762087e+001dB,1.79264793729394e+002°)
1.52522295653902e+003	(5.11601210524351e+001dB,1.79259129374401e+002°)
1.53697451593528e+003	(5.11601142246604e+001dB,1.79253421382957e+002°)
1.54881661891249e+003	(5.11601072912769e+001dB,1.79247669418998e+002°)
1.56074996309212e+003	(5.11601002506504e+001dB,1.79241873143876e+002°)
1.57277525147067e+003	(5.11600931011229e+001dB,1.79236032216336e+002°)
1.58489319246112e+003	(5.11600858410101e+001dB,1.79230146292500e+002°)
1.59710449993461e+003	(5.11600784686012e+001dB,1.79224215025839e+002°)
1.60940989326254e+003	(5.11600709821600e+001dB,1.79218238067163e+002°)
1.62181009735894e+003	(5.11600633799227e+001dB,1.79212215064593e+002°)
1.63430584272314e+003	(5.11600556600981e+001dB,1.79206145663543e+002°)
1.64689786548288e+003	(5.11600478208679e+001dB,1.79200029506699e+002°)
1.65958690743757e+003	(5.11600398603856e+001dB,1.79193866233999e+002°)
1.67237371610209e+003	(5.11600317767755e+001dB,1.79187655482609e+002°)
1.68525904475076e+003	(5.11600235681333e+001dB,1.79181396886905e+002°)
1.69824365246175e+003	(5.11600152325258e+001dB,1.79175090078452e+002°)
1.71132830416179e+003	(5.11600067679891e+001dB,1.79168734685978e+002°)
1.72451377067121e+003	(5.11599981725296e+001dB,1.79162330335357e+002°)
1.73780082874938e+003	(5.11599894441217e+001dB,1.79155876649584e+002°)
1.75119026114047e+003	(5.11599805807097e+001dB,1.79149373248755e+002°)
1.76468285661951e+003	(5.11599715802064e+001dB,1.79142819750043e+002°)
1.77827941003893e+003	(5.11599624404906e+001dB,1.79136215767677e+002°)
1.79198072237534e+003	(5.11599531594099e+001dB,1.79129560912920e+002°)
1.80578760077673e+003	(5.11599437347781e+001dB,1.79122854794043e+002°)
1.81970085860999e+003	(5.11599341643746e+001dB,1.79116097016305e+002°)
1.83372131550889e+003	(5.11599244459459e+001dB,1.79109287181930e+002°)
1.84784979742230e+003	(5.11599145772023e+001dB,1.79102424890083e+002°)
1.86208713666288e+003	(5.11599045558188e+001dB,1.79095509736845e+002°)
1.87643417195610e+003	(5.11598943794358e+001dB,1.79088541315193e+002°)
1.89089174848965e+003	(5.11598840456551e+001dB,1.79081519214972e+002°)
1.90546071796326e+003	(5.11598735520437e+001dB,1.79074443022874e+002°)
1.92014193863881e+003	(5.11598628961291e+001dB,1.79067312322413e+002°)
1.93493627539096e+003	(5.11598520754017e+001dB,1.79060126693900e+002°)
1.94984459975806e+003	(5.11598410873125e+001dB,1.79052885714421e+002°)
1.96486778999348e+003	(5.11598299292736e+001dB,1.79045588957808e+002°)
1.98000673111740e+003	(5.11598185986567e+001dB,1.79038235994618e+002°)
1.99526231496889e+003	(5.11598070927929e+001dB,1.79030826392106e+002°)
2.01063544025850e+003	(5.11597954089724e+001dB,1.79023359714199e+002°)
2.02612701262116e+003	(5.11597835444428e+001dB,1.79015835521474e+002°)
2.04173794466954e+003	(5.11597714964098e+001dB,1.79008253371129e+002°)
2.05746915604785e+003	(5.11597592620359e+001dB,1.79000612816957e+002°)
2.07332157348597e+003	(5.11597468384392e+001dB,1.78992913409322e+002°)
2.08929613085405e+003	(5.11597342226936e+001dB,1.78985154695133e+002°)
2.10539376921757e+003	(5.11597214118282e+001dB,1.78977336217814e+002°)
2.12161543689270e+003	(5.11597084028252e+001dB,1.78969457517283e+002°)
2.13796208950225e+003	(5.11596951926209e+001dB,1.78961518129919e+002°)
2.15443469003190e+003	(5.11596817781040e+001dB,1.78953517588540e+002°)
2.17103420888697e+003	(5.11596681561152e+001dB,1.78945455422373e+002°)
2.18776162394957e+003	(5.11596543234461e+001dB,1.78937331157026e+002°)
2.20461792063620e+003	(5.11596402768388e+001dB,1.78929144314464e+002°)
2.22160409195583e+003	(5.11596260129846e+001dB,1.78920894412978e+002°)
2.23872113856835e+003	(5.11596115285255e+001dB,1.78912580967155e+002°)
2.25597006884359e+003	(5.11595968200497e+001dB,1.78904203487857e+002°)
2.27335189892065e+003	(5.11595818840928e+001dB,1.78895761482184e+002°)
2.29086765276779e+003	(5.11595667171377e+001dB,1.78887254453452e+002°)
2.30851836224278e+003	(5.11595513156120e+001dB,1.78878681901159e+002°)
2.32630506715364e+003	(5.11595356758893e+001dB,1.78870043320960e+002°)
2.34422881531994e+003	(5.11595197942861e+001dB,1.78861338204634e+002°)
2.36229066263448e+003	(5.11595036670623e+001dB,1.78852566040058e+002°)
2.38049167312553e+003	(5.11594872904205e+001dB,1.78843726311173e+002°)
2.39883291901951e+003	(5.11594706605033e+001dB,1.78834818497960e+002°)
2.41731548080412e+003	(5.11594537733952e+001dB,1.78825842076402e+002°)
2.43594044729204e+003	(5.11594366251192e+001dB,1.78816796518461e+002°)
2.45470891568505e+003	(5.11594192116368e+001dB,1.78807681292043e+002°)
2.47362199163864e+003	(5.11594015288480e+001dB,1.78798495860965e+002°)
2.49268078932720e+003	(5.11593835725883e+001dB,1.78789239684932e+002°)
2.51188643150960e+003	(5.11593653386300e+001dB,1.78779912219497e+002°)
2.53124004959538e+003	(5.11593468226791e+001dB,1.78770512916034e+002°)
2.55074278371138e+003	(5.11593280203757e+001dB,1.78761041221705e+002°)
2.57039578276888e+003	(5.11593089272919e+001dB,1.78751496579426e+002°)
2.59020020453134e+003	(5.11592895389329e+001dB,1.78741878427840e+002°)
2.61015721568256e+003	(5.11592698507322e+001dB,1.78732186201277e+002°)
2.63026799189540e+003	(5.11592498580552e+001dB,1.78722419329729e+002°)
2.65053371790110e+003	(5.11592295561935e+001dB,1.78712577238811e+002°)
2.67095558755901e+003	(5.11592089403676e+001dB,1.78702659349728e+002°)
2.69153480392694e+003	(5.11591880057224e+001dB,1.78692665079246e+002°)
2.71227257933205e+003	(5.11591667473300e+001dB,1.78682593839655e+002°)
2.73317013544226e+003	(5.11591451601842e+001dB,1.78672445038735e+002°)
2.75422870333819e+003	(5.11591232392033e+001dB,1.78662218079719e+002°)
2.77544952358573e+003	(5.11591009792256e+001dB,1.78651912361267e+002°)
2.79683384630910e+003	(5.11590783750105e+001dB,1.78641527277421e+002°)
2.81838293126448e+003	(5.11590554212356e+001dB,1.78631062217576e+002°)
2.84009804791424e+003	(5.11590321124980e+001dB,1.78620516566443e+002°)
2.86198047550173e+003	(5.11590084433088e+001dB,1.78609889704014e+002°)
2.88403150312663e+003	(5.11589844080969e+001dB,1.78599181005526e+002°)
2.90625242982089e+003	(5.11589600012028e+001dB,1.78588389841422e+002°)
2.92864456462526e+003	(5.11589352168815e+001dB,1.78577515577321e+002°)
2.95120922666641e+003	(5.11589100492981e+001dB,1.78566557573975e+002°)
2.97394774523463e+003	(5.11588844925275e+001dB,1.78555515187234e+002°)
2.99686145986215e+003	(5.11588585405541e+001dB,1.78544387768011e+002°)
3.01995172040204e+003	(5.11588321872682e+001dB,1.78533174662241e+002°)
3.04321988710775e+003	(5.11588054264661e+001dB,1.78521875210848e+002°)
3.06666733071321e+003	(5.11587782518490e+001dB,1.78510488749700e+002°)
3.09029543251362e+003	(5.11587506570198e+001dB,1.78499014609578e+002°)
3.11410558444679e+003	(5.11587226354828e+001dB,1.78487452116133e+002°)
3.13809918917516e+003	(5.11586941806428e+001dB,1.78475800589848e+002°)
3.16227766016841e+003	(5.11586652858013e+001dB,1.78464059345999e+002°)
3.18664242178676e+003	(5.11586359441576e+001dB,1.78452227694616e+002°)
3.21119490936485e+003	(5.11586061488048e+001dB,1.78440304940443e+002°)
3.23593656929631e+003	(5.11585758927312e+001dB,1.78428290382897e+002°)
3.26086885911896e+003	(5.11585451688147e+001dB,1.78416183316029e+002°)
3.28599324760069e+003	(5.11585139698241e+001dB,1.78403983028482e+002°)
3.31131121482594e+003	(5.11584822884170e+001dB,1.78391688803454e+002°)
3.33682425228297e+003	(5.11584501171367e+001dB,1.78379299918650e+002°)
3.36253386295166e+003	(5.11584174484123e+001dB,1.78366815646246e+002°)
3.38844156139206e+003	(5.11583842745547e+001dB,1.78354235252845e+002°)
3.41454887383364e+003	(5.11583505877574e+001dB,1.78341557999437e+002°)
3.44085733826517e+003	(5.11583163800930e+001dB,1.78328783141352e+002°)
3.46736850452535e+003	(5.11582816435113e+001dB,1.78315909928222e+002°)
3.49408393439410e+003	(5.11582463698374e+001dB,1.78302937603936e+002°)
3.52100520168456e+003	(5.11582105507715e+001dB,1.78289865406597e+002°)
3.54813389233579e+003	(5.11581741778844e+001dB,1.78276692568476e+002°)
3.57547160450625e+003	(5.11581372426175e+001dB,1.78263418315973e+002°)
3.60301994866789e+003	(5.11580997362796e+001dB,1.78250041869569e+002°)
3.63078054770105e+003	(5.11580616500464e+001dB,1.78236562443780e+002°)
3.65875503699007e+003	(5.11580229749557e+001dB,1.78222979247118e+002°)
3.68694506451962e+003	(5.11579837019078e+001dB,1.78209291482039e+002°)
3.71535229097177e+003	(5.11579438216627e+001dB,1.78195498344901e+002°)
3.74397838982385e+003	(5.11579033248375e+001dB,1.78181599025919e+002°)
3.77282504744704e+003	(5.11578622019047e+001dB,1.78167592709116e+002°)
3.80189396320565e+003	(5.11578204431890e+001dB,1.78153478572278e+002°)
3.83118684955733e+003	(5.11577780388670e+001dB,1.78139255786907e+002°)
3.86070543215386e+003	(5.11577349789627e+001dB,1.78124923518173e+002°)
3.89045144994285e+003	(5.11576912533464e+001dB,1.78110480924867e+002°)
3.92042665527020e+003	(5.11576468517319e+001dB,1.78095927159355e+002°)
3.95063281398328e+003	(5.11576017636748e+001dB,1.78081261367525e+002°)
3.98107170553502e+003	(5.11575559785691e+001dB,1.78066482688742e+002°)
4.01174512308867e+003	(5.11575094856448e+001dB,1.78051590255801e+002°)
4.04265487362349e+003	(5.11574622739669e+001dB,1.78036583194871e+002°)
4.07380277804117e+003	(5.11574143324296e+001dB,1.78021460625451e+002°)
4.10519067127313e+003	(5.11573656497583e+001dB,1.78006221660321e+002°)
4.13682040238856e+003	(5.11573162145025e+001dB,1.77990865405484e+002°)
4.16869383470340e+003	(5.11572660150357e+001dB,1.77975390960124e+002°)
4.20081284589012e+003	(5.11572150395519e+001dB,1.77959797416550e+002°)
4.23317932808826e+003	(5.11571632760632e+001dB,1.77944083860147e+002°)
4.26579518801598e+003	(5.11571107123966e+001dB,1.77928249369322e+002°)
4.29866234708233e+003	(5.11570573361914e+001dB,1.77912293015453e+002°)
4.33178274150047e+003	(5.11570031348961e+001dB,1.77896213862838e+002°)
4.36515832240171e+003	(5.11569480957655e+001dB,1.77880010968639e+002°)
4.39879105595049e+003	(5.11568922058579e+001dB,1.77863683382830e+002°)
4.43268292346014e+003	(5.11568354520322e+001dB,1.77847230148147e+002°)
4.46683592150969e+003	(5.11567778209447e+001dB,1.77830650300027e+002°)
4.50125206206139e+003	(5.11567192990450e+001dB,1.77813942866561e+002°)
4.53593337257933e+003	(5.11566598725754e+001dB,1.77797106868432e+002°)
4.57088189614881e+003	(5.11565995275640e+001dB,1.77780141318868e+002°)
4.60609969159672e+003	(5.11565382498252e+001dB,1.77763045223579e+002°)
4.64158883361284e+003	(5.11564760249543e+001dB,1.77745817580705e+002°)
4.67735141287204e+003	(5.11564128383229e+001dB,1.77728457380762e+002°)
4.71338953615747e+003	(5.11563486750794e+001dB,1.77710963606578e+002°)
4.74970532648462e+003	(5.11562835201421e+001dB,1.77693335233244e+002°)
4.78630092322645e+003	(5.11562173581963e+001dB,1.77675571228052e+002°)
4.82317848223937e+003	(5.11561501736924e+001dB,1.77657670550439e+002°)
4.86034017599028e+003	(5.11560819508402e+001dB,1.77639632151926e+002°)
4.89778819368453e+003	(5.11560126736062e+001dB,1.77621454976065e+002°)
4.93552474139487e+003	(5.11559423257104e+001dB,1.77603137958373e+002°)
4.97355204219146e+003	(5.11558708906215e+001dB,1.77584680026280e+002°)
5.01187233627279e+003	(5.11557983515530e+001dB,1.77566080099063e+002°)
5.05048788109766e+003	(5.11557246914605e+001dB,1.77547337087790e+002°)
5.08940095151816e+003	(5.11556498930365e+001dB,1.77528449895255e+002°)
5.12861383991372e+003	(5.11555739387066e+001dB,1.77509417415923e+002°)
5.16812885632611e+003	(5.11554968106267e+001dB,1.77490238535864e+002°)
5.20794832859554e+003	(5.11554184906760e+001dB,1.77470912132694e+002°)
5.24807460249780e+003	(5.11553389604565e+001dB,1.77451437075508e+002°)
5.28851004188245e+003	(5.11552582012852e+001dB,1.77431812224825e+002°)
5.32925702881208e+003	(5.11551761941921e+001dB,1.77412036432519e+002°)
5.37031796370260e+003	(5.11550929199154e+001dB,1.77392108541757e+002°)
5.41169526546471e+003	(5.11550083588953e+001dB,1.77372027386936e+002°)
5.45339137164635e+003	(5.11549224912722e+001dB,1.77351791793619e+002°)
5.49540873857633e+003	(5.11548352968799e+001dB,1.77331400578469e+002°)
5.53774984150898e+003	(5.11547467552415e+001dB,1.77310852549184e+002°)
5.58041717477005e+003	(5.11546568455657e+001dB,1.77290146504433e+002°)
5.62341325190357e+003	(5.11545655467400e+001dB,1.77269281233789e+002°)
5.66674060582000e+003	(5.11544728373280e+001dB,1.77248255517662e+002°)
5.71040178894535e+003	(5.11543786955620e+001dB,1.77227068127233e+002°)
5.75439937337165e+003	(5.11542830993407e+001dB,1.77205717824387e+002°)
5.79873595100840e+003	(5.11541860262214e+001dB,1.77184203361645e+002°)
5.84341413373526e+003	(5.11540874534169e+001dB,1.77162523482097e+002°)
5.88843655355598e+003	(5.11539873577883e+001dB,1.77140676919329e+002°)
5.93380586275337e+003	(5.11538857158420e+001dB,1.77118662397362e+002°)
5.97952473404561e+003	(5.11537825037212e+001dB,1.77096478630575e+002°)
6.02559586074367e+003	(5.11536776972043e+001dB,1.77074124323639e+002°)
6.07202195690998e+003	(5.11535712716947e+001dB,1.77051598171446e+002°)
6.11880575751831e+003	(5.11534632022190e+001dB,1.77028898859040e+002°)
6.16595001861492e+003	(5.11533534634194e+001dB,1.77006025061542e+002°)
6.21345751748085e+003	(5.11532420295470e+001dB,1.76982975444081e+002°)
6.26133105279562e+003	(5.11531288744589e+001dB,1.76959748661724e+002°)
6.30957344480203e+003	(5.11530139716087e+001dB,1.76936343359398e+002°)
6.35818753547233e+003	(5.11528972940420e+001dB,1.76912758171822e+002°)
6.40717618867564e+003	(5.11527788143906e+001dB,1.76888991723433e+002°)
6.45654229034666e+003	(5.11526585048653e+001dB,1.76865042628311e+002°)
6.50628874865568e+003	(5.11525363372489e+001dB,1.76840909490102e+002°)
6.55641849417989e+003	(5.11524122828919e+001dB,1.76816590901951e+002°)
6.60693448007607e+003	(5.11522863127037e+001dB,1.76792085446420e+002°)
6.65783968225447e+003	(5.11521583971469e+001dB,1.76767391695415e+002°)
6.70913709955422e+003	(5.11520285062302e+001dB,1.76742508210110e+002°)
6.76082975391993e+003	(5.11518966095007e+001dB,1.76717433540872e+002°)
6.81292069057972e+003	(5.11517626760396e+001dB,1.76692166227179e+002°)
6.86541297822466e+003	(5.11516266744515e+001dB,1.76666704797551e+002°)
6.91830970918948e+003	(5.11514885728592e+001dB,1.76641047769463e+002°)
6.97161399963479e+003	(5.11513483388963e+001dB,1.76615193649275e+002°)
7.02532898973064e+003	(5.11512059396994e+001dB,1.76589140932147e+002°)
7.07945784384150e+003	(5.11510613418998e+001dB,1.76562888101966e+002°)
7.13400375071268e+003	(5.11509145116174e+001dB,1.76536433631259e+002°)
7.18896992365819e+003	(5.11507654144516e+001dB,1.76509775981120e+002°)
7.24435960075002e+003	(5.11506140154743e+001dB,1.76482913601127e+002°)
7.30017604500890e+003	(5.11504602792204e+001dB,1.76455844929258e+002°)
7.35642254459654e+003	(5.11503041696816e+001dB,1.76428568391815e+002°)
7.41310241300930e+003	(5.11501456502964e+001dB,1.76401082403340e+002°)
7.47021898927344e+003	(5.11499846839433e+001dB,1.76373385366532e+002°)
7.52777563814179e+003	(5.11498212329308e+001dB,1.76345475672165e+002°)
7.58577575029197e+003	(5.11496552589889e+001dB,1.76317351699004e+002°)
7.64422274252613e+003	(5.11494867232616e+001dB,1.76289011813725e+002°)
7.70312005797228e+003	(5.11493155862974e+001dB,1.76260454370826e+002°)
7.76247116628705e+003	(5.11491418080387e+001dB,1.76231677712547e+002°)
7.82227956386016e+003	(5.11489653478146e+001dB,1.76202680168783e+002°)
7.88254877402035e+003	(5.11487861643314e+001dB,1.76173460056999e+002°)
7.94328234724295e+003	(5.11486042156616e+001dB,1.76144015682144e+002°)
8.00448386135906e+003	(5.11484194592365e+001dB,1.76114345336565e+002°)
8.06615692176628e+003	(5.11482318518340e+001dB,1.76084447299924e+002°)
8.12830516164114e+003	(5.11480413495708e+001dB,1.76054319839105e+002°)
8.19093224215312e+003	(5.11478479078913e+001dB,1.76023961208130e+002°)
8.25404185268033e+003	(5.11476514815581e+001dB,1.75993369648072e+002°)
8.31763771102686e+003	(5.11474520246402e+001dB,1.75962543386965e+002°)
8.38172356364177e+003	(5.11472494905044e+001dB,1.75931480639715e+002°)
8.44630318583984e+003	(5.11470438318034e+001dB,1.75900179608014e+002°)
8.51138038202392e+003	(5.11468350004656e+001dB,1.75868638480248e+002°)
