Freq.	V(vout)
Step Information: Run=15  (Run: 15/15)
1.00000000000000e+003	(5.10378992776336e+001dB,1.79519070195721e+002°)
1.00770481413610e+003	(5.10378964059031e+001dB,1.79515364797247e+002°)
1.01546899243308e+003	(5.10378934897518e+001dB,1.79511630851143e+002°)
1.02329299228075e+003	(5.10378905284923e+001dB,1.79507868137496e+002°)
1.03117727459306e+003	(5.10378875214270e+001dB,1.79504076434700e+002°)
1.03912230383517e+003	(5.10378844678471e+001dB,1.79500255519443e+002°)
1.04712854805090e+003	(5.10378813670333e+001dB,1.79496405166692e+002°)
1.05519647889024e+003	(5.10378782182552e+001dB,1.79492525149683e+002°)
1.06332657163716e+003	(5.10378750207706e+001dB,1.79488615239903e+002°)
1.07151930523761e+003	(5.10378717738264e+001dB,1.79484675207083e+002°)
1.07977516232771e+003	(5.10378684766573e+001dB,1.79480704819178e+002°)
1.08809462926223e+003	(5.10378651284867e+001dB,1.79476703842358e+002°)
1.09647819614319e+003	(5.10378617285253e+001dB,1.79472672040992e+002°)
1.10492635684876e+003	(5.10378582759726e+001dB,1.79468609177635e+002°)
1.11343960906236e+003	(5.10378547700147e+001dB,1.79464515013013e+002°)
1.12201845430197e+003	(5.10378512098258e+001dB,1.79460389306010e+002°)
1.13066339794964e+003	(5.10378475945669e+001dB,1.79456231813654e+002°)
1.13937494928134e+003	(5.10378439233864e+001dB,1.79452042291102e+002°)
1.14815362149688e+003	(5.10378401954191e+001dB,1.79447820491625e+002°)
1.15699993175021e+003	(5.10378364097868e+001dB,1.79443566166596e+002°)
1.16591440117983e+003	(5.10378325655980e+001dB,1.79439279065473e+002°)
1.17489755493953e+003	(5.10378286619458e+001dB,1.79434958935784e+002°)
1.18394992222930e+003	(5.10378246979116e+001dB,1.79430605523114e+002°)
1.19307203632654e+003	(5.10378206725611e+001dB,1.79426218571091e+002°)
1.20226443461742e+003	(5.10378165849456e+001dB,1.79421797821366e+002°)
1.21152765862859e+003	(5.10378124341023e+001dB,1.79417343013603e+002°)
1.22086225405907e+003	(5.10378082190535e+001dB,1.79412853885462e+002°)
1.23026877081238e+003	(5.10378039388053e+001dB,1.79408330172582e+002°)
1.23974776302895e+003	(5.10377995923503e+001dB,1.79403771608569e+002°)
1.24929978911874e+003	(5.10377951786635e+001dB,1.79399177924975e+002°)
1.25892541179417e+003	(5.10377906967059e+001dB,1.79394548851288e+002°)
1.26862519810326e+003	(5.10377861454208e+001dB,1.79389884114914e+002°)
1.27839971946303e+003	(5.10377815237363e+001dB,1.79385183441157e+002°)
1.28824955169314e+003	(5.10377768305632e+001dB,1.79380446553210e+002°)
1.29817527504985e+003	(5.10377720647963e+001dB,1.79375673172134e+002°)
1.30817747426020e+003	(5.10377672253122e+001dB,1.79370863016842e+002°)
1.31825673855641e+003	(5.10377623109714e+001dB,1.79366015804085e+002°)
1.32841366171065e+003	(5.10377573206153e+001dB,1.79361131248431e+002°)
1.33864884207000e+003	(5.10377522530687e+001dB,1.79356209062254e+002°)
1.34896288259166e+003	(5.10377471071376e+001dB,1.79351248955713e+002°)
1.35935639087853e+003	(5.10377418816097e+001dB,1.79346250636734e+002°)
1.36982997921497e+003	(5.10377365752535e+001dB,1.79341213810998e+002°)
1.38038426460289e+003	(5.10377311868195e+001dB,1.79336138181918e+002°)
1.39101986879806e+003	(5.10377257150379e+001dB,1.79331023450625e+002°)
1.40173741834677e+003	(5.10377201586194e+001dB,1.79325869315952e+002°)
1.41253754462276e+003	(5.10377145162550e+001dB,1.79320675474411e+002°)
1.42342088386435e+003	(5.10377087866155e+001dB,1.79315441620180e+002°)
1.43438807721197e+003	(5.10377029683512e+001dB,1.79310167445081e+002°)
1.44543977074593e+003	(5.10376970600912e+001dB,1.79304852638568e+002°)
1.45657661552446e+003	(5.10376910604436e+001dB,1.79299496887701e+002°)
1.46779926762207e+003	(5.10376849679948e+001dB,1.79294099877134e+002°)
1.47910838816821e+003	(5.10376787813098e+001dB,1.79288661289094e+002°)
1.49050464338620e+003	(5.10376724989308e+001dB,1.79283180803362e+002°)
1.50198870463249e+003	(5.10376661193781e+001dB,1.79277658097255e+002°)
1.51356124843621e+003	(5.10376596411484e+001dB,1.79272092845607e+002°)
1.52522295653902e+003	(5.10376530627157e+001dB,1.79266484720748e+002°)
1.53697451593528e+003	(5.10376463825305e+001dB,1.79260833392490e+002°)
1.54881661891249e+003	(5.10376395990185e+001dB,1.79255138528102e+002°)
1.56074996309212e+003	(5.10376327105820e+001dB,1.79249399792292e+002°)
1.57277525147067e+003	(5.10376257155983e+001dB,1.79243616847190e+002°)
1.58489319246112e+003	(5.10376186124191e+001dB,1.79237789352325e+002°)
1.59710449993461e+003	(5.10376113993715e+001dB,1.79231916964606e+002°)
1.60940989326254e+003	(5.10376040747563e+001dB,1.79225999338304e+002°)
1.62181009735894e+003	(5.10375966368477e+001dB,1.79220036125029e+002°)
1.63430584272314e+003	(5.10375890838933e+001dB,1.79214026973709e+002°)
1.64689786548288e+003	(5.10375814141142e+001dB,1.79207971530573e+002°)
1.65958690743757e+003	(5.10375736257037e+001dB,1.79201869439128e+002°)
1.67237371610209e+003	(5.10375657168270e+001dB,1.79195720340138e+002°)
1.68525904475076e+003	(5.10375576856206e+001dB,1.79189523871603e+002°)
1.69824365246175e+003	(5.10375495301930e+001dB,1.79183279668739e+002°)
1.71132830416179e+003	(5.10375412486228e+001dB,1.79176987363956e+002°)
1.72451377067121e+003	(5.10375328389596e+001dB,1.79170646586834e+002°)
1.73780082874938e+003	(5.10375242992217e+001dB,1.79164256964106e+002°)
1.75119026114047e+003	(5.10375156273981e+001dB,1.79157818119633e+002°)
1.76468285661951e+003	(5.10375068214453e+001dB,1.79151329674384e+002°)
1.77827941003893e+003	(5.10374978792895e+001dB,1.79144791246410e+002°)
1.79198072237534e+003	(5.10374887988241e+001dB,1.79138202450826e+002°)
1.80578760077673e+003	(5.10374795779102e+001dB,1.79131562899786e+002°)
1.81970085860999e+003	(5.10374702143755e+001dB,1.79124872202461e+002°)
1.83372131550889e+003	(5.10374607060149e+001dB,1.79118129965018e+002°)
1.84784979742230e+003	(5.10374510505879e+001dB,1.79111335790591e+002°)
1.86208713666288e+003	(5.10374412458204e+001dB,1.79104489279267e+002°)
1.87643417195610e+003	(5.10374312894030e+001dB,1.79097590028054e+002°)
1.89089174848965e+003	(5.10374211789907e+001dB,1.79090637630862e+002°)
1.90546071796326e+003	(5.10374109122014e+001dB,1.79083631678478e+002°)
1.92014193863881e+003	(5.10374004866170e+001dB,1.79076571758543e+002°)
1.93493627539096e+003	(5.10373898997819e+001dB,1.79069457455527e+002°)
1.94984459975806e+003	(5.10373791492023e+001dB,1.79062288350703e+002°)
1.96486778999348e+003	(5.10373682323460e+001dB,1.79055064022128e+002°)
1.98000673111740e+003	(5.10373571466417e+001dB,1.79047784044612e+002°)
1.99526231496889e+003	(5.10373458894781e+001dB,1.79040447989697e+002°)
2.01063544025850e+003	(5.10373344582037e+001dB,1.79033055425631e+002°)
2.02612701262116e+003	(5.10373228501262e+001dB,1.79025605917342e+002°)
2.04173794466954e+003	(5.10373110625112e+001dB,1.79018099026415e+002°)
2.05746915604785e+003	(5.10372990925828e+001dB,1.79010534311063e+002°)
2.07332157348597e+003	(5.10372869375207e+001dB,1.79002911326104e+002°)
2.08929613085405e+003	(5.10372745944633e+001dB,1.78995229622934e+002°)
2.10539376921757e+003	(5.10372620605026e+001dB,1.78987488749499e+002°)
2.12161543689270e+003	(5.10372493326865e+001dB,1.78979688250273e+002°)
2.13796208950225e+003	(5.10372364080173e+001dB,1.78971827666227e+002°)
2.15443469003190e+003	(5.10372232834513e+001dB,1.78963906534804e+002°)
2.17103420888697e+003	(5.10372099558971e+001dB,1.78955924389894e+002°)
2.18776162394957e+003	(5.10371964222159e+001dB,1.78947880761804e+002°)
2.20461792063620e+003	(5.10371826792202e+001dB,1.78939775177229e+002°)
2.22160409195583e+003	(5.10371687236733e+001dB,1.78931607159231e+002°)
2.23872113856835e+003	(5.10371545522883e+001dB,1.78923376227205e+002°)
2.25597006884359e+003	(5.10371401617282e+001dB,1.78915081896852e+002°)
2.27335189892065e+003	(5.10371255486032e+001dB,1.78906723680155e+002°)
2.29086765276779e+003	(5.10371107094724e+001dB,1.78898301085344e+002°)
2.30851836224278e+003	(5.10370956408405e+001dB,1.78889813616873e+002°)
2.32630506715364e+003	(5.10370803391592e+001dB,1.78881260775389e+002°)
2.34422881531994e+003	(5.10370648008247e+001dB,1.78872642057702e+002°)
2.36229066263448e+003	(5.10370490221778e+001dB,1.78863956956757e+002°)
2.38049167312553e+003	(5.10370329995030e+001dB,1.78855204961604e+002°)
2.39883291901951e+003	(5.10370167290264e+001dB,1.78846385557368e+002°)
2.41731548080412e+003	(5.10370002069170e+001dB,1.78837498225220e+002°)
2.43594044729204e+003	(5.10369834292832e+001dB,1.78828542442346e+002°)
2.45470891568505e+003	(5.10369663921753e+001dB,1.78819517681917e+002°)
2.47362199163864e+003	(5.10369490915800e+001dB,1.78810423413058e+002°)
2.49268078932720e+003	(5.10369315234240e+001dB,1.78801259100816e+002°)
2.51188643150960e+003	(5.10369136835707e+001dB,1.78792024206133e+002°)
2.53124004959538e+003	(5.10368955678184e+001dB,1.78782718185809e+002°)
2.55074278371138e+003	(5.10368771719016e+001dB,1.78773340492475e+002°)
2.57039578276888e+003	(5.10368584914885e+001dB,1.78763890574560e+002°)
2.59020020453134e+003	(5.10368395221806e+001dB,1.78754367876257e+002°)
2.61015721568256e+003	(5.10368202595111e+001dB,1.78744771837494e+002°)
2.63026799189540e+003	(5.10368006989445e+001dB,1.78735101893897e+002°)
2.65053371790110e+003	(5.10367808358748e+001dB,1.78725357476762e+002°)
2.67095558755901e+003	(5.10367606656249e+001dB,1.78715538013020e+002°)
2.69153480392694e+003	(5.10367401834458e+001dB,1.78705642925204e+002°)
2.71227257933205e+003	(5.10367193845154e+001dB,1.78695671631413e+002°)
2.73317013544226e+003	(5.10366982639353e+001dB,1.78685623545282e+002°)
2.75422870333819e+003	(5.10366768167341e+001dB,1.78675498075948e+002°)
2.77544952358573e+003	(5.10366550378612e+001dB,1.78665294628012e+002°)
2.79683384630910e+003	(5.10366329221897e+001dB,1.78655012601508e+002°)
2.81838293126448e+003	(5.10366104645120e+001dB,1.78644651391865e+002°)
2.84009804791424e+003	(5.10365876595409e+001dB,1.78634210389878e+002°)
2.86198047550173e+003	(5.10365645019080e+001dB,1.78623688981664e+002°)
2.88403150312663e+003	(5.10365409861605e+001dB,1.78613086548636e+002°)
2.90625242982089e+003	(5.10365171067629e+001dB,1.78602402467457e+002°)
2.92864456462526e+003	(5.10364928580928e+001dB,1.78591636110015e+002°)
2.95120922666641e+003	(5.10364682344422e+001dB,1.78580786843377e+002°)
2.97394774523463e+003	(5.10364432300141e+001dB,1.78569854029758e+002°)
2.99686145986215e+003	(5.10364178389222e+001dB,1.78558837026483e+002°)
3.01995172040204e+003	(5.10363920551889e+001dB,1.78547735185949e+002°)
3.04321988710775e+003	(5.10363658727450e+001dB,1.78536547855587e+002°)
3.06666733071321e+003	(5.10363392854269e+001dB,1.78525274377828e+002°)
3.09029543251362e+003	(5.10363122869763e+001dB,1.78513914090059e+002°)
3.11410558444679e+003	(5.10362848710378e+001dB,1.78502466324591e+002°)
3.13809918917516e+003	(5.10362570311579e+001dB,1.78490930408617e+002°)
3.16227766016841e+003	(5.10362287607838e+001dB,1.78479305664174e+002°)
3.18664242178676e+003	(5.10362000532609e+001dB,1.78467591408102e+002°)
3.21119490936485e+003	(5.10361709018317e+001dB,1.78455786952008e+002°)
3.23593656929631e+003	(5.10361412996358e+001dB,1.78443891602226e+002°)
3.26086885911896e+003	(5.10361112397053e+001dB,1.78431904659774e+002°)
3.28599324760069e+003	(5.10360807149643e+001dB,1.78419825420315e+002°)
3.31131121482594e+003	(5.10360497182298e+001dB,1.78407653174120e+002°)
3.33682425228297e+003	(5.10360182422060e+001dB,1.78395387206020e+002°)
3.36253386295166e+003	(5.10359862794847e+001dB,1.78383026795374e+002°)
3.38844156139206e+003	(5.10359538225442e+001dB,1.78370571216019e+002°)
3.41454887383364e+003	(5.10359208637452e+001dB,1.78358019736233e+002°)
3.44085733826517e+003	(5.10358873953321e+001dB,1.78345371618693e+002°)
3.46736850452535e+003	(5.10358534094279e+001dB,1.78332626120431e+002°)
3.49408393439410e+003	(5.10358188980354e+001dB,1.78319782492790e+002°)
3.52100520168456e+003	(5.10357838530331e+001dB,1.78306839981386e+002°)
3.54813389233579e+003	(5.10357482661740e+001dB,1.78293797826060e+002°)
3.57547160450625e+003	(5.10357121290843e+001dB,1.78280655260838e+002°)
3.60301994866789e+003	(5.10356754332611e+001dB,1.78267411513882e+002°)
3.63078054770105e+003	(5.10356381700685e+001dB,1.78254065807453e+002°)
3.65875503699007e+003	(5.10356003307399e+001dB,1.78240617357860e+002°)
3.68694506451962e+003	(5.10355619063712e+001dB,1.78227065375418e+002°)
3.71535229097177e+003	(5.10355228879220e+001dB,1.78213409064405e+002°)
3.74397838982385e+003	(5.10354832662120e+001dB,1.78199647623010e+002°)
3.77282504744704e+003	(5.10354430319189e+001dB,1.78185780243294e+002°)
3.80189396320565e+003	(5.10354021755771e+001dB,1.78171806111141e+002°)
3.83118684955733e+003	(5.10353606875747e+001dB,1.78157724406212e+002°)
3.86070543215386e+003	(5.10353185581509e+001dB,1.78143534301896e+002°)
3.89045144994285e+003	(5.10352757773947e+001dB,1.78129234965267e+002°)
3.92042665527020e+003	(5.10352323352423e+001dB,1.78114825557031e+002°)
3.95063281398328e+003	(5.10351882214745e+001dB,1.78100305231486e+002°)
3.98107170553502e+003	(5.10351434257141e+001dB,1.78085673136466e+002°)
4.01174512308867e+003	(5.10350979374236e+001dB,1.78070928413297e+002°)
4.04265487362349e+003	(5.10350517459035e+001dB,1.78056070196746e+002°)
4.07380277804117e+003	(5.10350048402891e+001dB,1.78041097614974e+002°)
4.10519067127313e+003	(5.10349572095475e+001dB,1.78026009789484e+002°)
4.13682040238856e+003	(5.10349088424760e+001dB,1.78010805835074e+002°)
4.16869383470340e+003	(5.10348597276991e+001dB,1.77995484859783e+002°)
4.20081284589012e+003	(5.10348098536656e+001dB,1.77980045964845e+002°)
4.23317932808826e+003	(5.10347592086461e+001dB,1.77964488244633e+002°)
4.26579518801598e+003	(5.10347077807297e+001dB,1.77948810786613e+002°)
4.29866234708233e+003	(5.10346555578234e+001dB,1.77933012671287e+002°)
4.33178274150047e+003	(5.10346025276458e+001dB,1.77917092972146e+002°)
4.36515832240171e+003	(5.10345486777271e+001dB,1.77901050755614e+002°)
4.39879105595049e+003	(5.10344939954047e+001dB,1.77884885080996e+002°)
4.43268292346014e+003	(5.10344384678210e+001dB,1.77868595000427e+002°)
4.46683592150969e+003	(5.10343820819198e+001dB,1.77852179558815e+002°)
4.50125206206139e+003	(5.10343248244438e+001dB,1.77835637793790e+002°)
4.53593337257933e+003	(5.10342666819312e+001dB,1.77818968735650e+002°)
4.57088189614881e+003	(5.10342076407121e+001dB,1.77802171407302e+002°)
4.60609969159672e+003	(5.10341476869070e+001dB,1.77785244824215e+002°)
4.64158883361284e+003	(5.10340868064210e+001dB,1.77768187994354e+002°)
4.67735141287204e+003	(5.10340249849424e+001dB,1.77750999918136e+002°)
4.71338953615747e+003	(5.10339622079392e+001dB,1.77733679588363e+002°)
4.74970532648462e+003	(5.10338984606549e+001dB,1.77716225990174e+002°)
4.78630092322645e+003	(5.10338337281059e+001dB,1.77698638100983e+002°)
4.82317848223937e+003	(5.10337679950769e+001dB,1.77680914890424e+002°)
4.86034017599028e+003	(5.10337012461186e+001dB,1.77663055320292e+002°)
4.89778819368453e+003	(5.10336334655438e+001dB,1.77645058344486e+002°)
4.93552474139487e+003	(5.10335646374229e+001dB,1.77626922908950e+002°)
4.97355204219146e+003	(5.10334947455811e+001dB,1.77608647951615e+002°)
5.01187233627279e+003	(5.10334237735941e+001dB,1.77590232402337e+002°)
5.05048788109766e+003	(5.10333517047849e+001dB,1.77571675182842e+002°)
5.08940095151816e+003	(5.10332785222193e+001dB,1.77552975206662e+002°)
5.12861383991372e+003	(5.10332042087020e+001dB,1.77534131379076e+002°)
5.16812885632611e+003	(5.10331287467726e+001dB,1.77515142597049e+002°)
5.20794832859554e+003	(5.10330521187020e+001dB,1.77496007749172e+002°)
5.24807460249780e+003	(5.10329743064883e+001dB,1.77476725715596e+002°)
5.28851004188245e+003	(5.10328952918515e+001dB,1.77457295367976e+002°)
5.32925702881208e+003	(5.10328150562302e+001dB,1.77437715569405e+002°)
5.37031796370260e+003	(5.10327335807775e+001dB,1.77417985174352e+002°)
5.41169526546471e+003	(5.10326508463558e+001dB,1.77398103028596e+002°)
5.45339137164635e+003	(5.10325668335333e+001dB,1.77378067969168e+002°)
5.49540873857633e+003	(5.10324815225781e+001dB,1.77357878824282e+002°)
5.53774984150898e+003	(5.10323948934555e+001dB,1.77337534413270e+002°)
5.58041717477005e+003	(5.10323069258213e+001dB,1.77317033546523e+002°)
5.62341325190357e+003	(5.10322175990181e+001dB,1.77296375025418e+002°)
5.66674060582000e+003	(5.10321268920710e+001dB,1.77275557642257e+002°)
5.71040178894535e+003	(5.10320347836827e+001dB,1.77254580180200e+002°)
5.75439937337165e+003	(5.10319412522263e+001dB,1.77233441413198e+002°)
5.79873595100840e+003	(5.10318462757437e+001dB,1.77212140105924e+002°)
5.84341413373526e+003	(5.10317498319382e+001dB,1.77190675013709e+002°)
5.88843655355598e+003	(5.10316518981696e+001dB,1.77169044882472e+002°)
5.93380586275337e+003	(5.10315524514501e+001dB,1.77147248448651e+002°)
5.97952473404561e+003	(5.10314514684370e+001dB,1.77125284439135e+002°)
6.02559586074367e+003	(5.10313489254298e+001dB,1.77103151571196e+002°)
6.07202195690998e+003	(5.10312447983623e+001dB,1.77080848552417e+002°)
6.11880575751831e+003	(5.10311390627986e+001dB,1.77058374080623e+002°)
6.16595001861492e+003	(5.10310316939266e+001dB,1.77035726843812e+002°)
6.21345751748085e+003	(5.10309226665530e+001dB,1.77012905520080e+002°)
6.26133105279562e+003	(5.10308119550961e+001dB,1.76989908777553e+002°)
6.30957344480203e+003	(5.10306995335823e+001dB,1.76966735274315e+002°)
6.35818753547233e+003	(5.10305853756370e+001dB,1.76943383658335e+002°)
6.40717618867564e+003	(5.10304694544815e+001dB,1.76919852567392e+002°)
6.45654229034666e+003	(5.10303517429241e+001dB,1.76896140629005e+002°)
6.50628874865568e+003	(5.10302322133557e+001dB,1.76872246460359e+002°)
6.55641849417989e+003	(5.10301108377429e+001dB,1.76848168668230e+002°)
6.60693448007607e+003	(5.10299875876214e+001dB,1.76823905848909e+002°)
6.65783968225447e+003	(5.10298624340892e+001dB,1.76799456588132e+002°)
6.70913709955422e+003	(5.10297353478004e+001dB,1.76774819460997e+002°)
6.76082975391993e+003	(5.10296062989581e+001dB,1.76749993031897e+002°)
6.81292069057972e+003	(5.10294752573078e+001dB,1.76724975854436e+002°)
6.86541297822466e+003	(5.10293421921294e+001dB,1.76699766471355e+002°)
6.91830970918948e+003	(5.10292070722322e+001dB,1.76674363414460e+002°)
6.97161399963479e+003	(5.10290698659459e+001dB,1.76648765204533e+002°)
7.02532898973064e+003	(5.10289305411136e+001dB,1.76622970351266e+002°)
7.07945784384150e+003	(5.10287890650842e+001dB,1.76596977353175e+002°)
7.13400375071268e+003	(5.10286454047068e+001dB,1.76570784697522e+002°)
7.18896992365819e+003	(5.10284995263199e+001dB,1.76544390860239e+002°)
7.24435960075002e+003	(5.10283513957464e+001dB,1.76517794305844e+002°)
7.30017604500890e+003	(5.10282009782841e+001dB,1.76490993487363e+002°)
7.35642254459654e+003	(5.10280482386987e+001dB,1.76463986846250e+002°)
7.41310241300930e+003	(5.10278931412145e+001dB,1.76436772812303e+002°)
7.47021898927344e+003	(5.10277356495083e+001dB,1.76409349803586e+002°)
7.52777563814179e+003	(5.10275757266978e+001dB,1.76381716226343e+002°)
7.58577575029197e+003	(5.10274133353364e+001dB,1.76353870474918e+002°)
7.64422274252613e+003	(5.10272484374029e+001dB,1.76325810931673e+002°)
7.70312005797228e+003	(5.10270809942928e+001dB,1.76297535966902e+002°)
7.76247116628705e+003	(5.10269109668096e+001dB,1.76269043938749e+002°)
7.82227956386016e+003	(5.10267383151564e+001dB,1.76240333193121e+002°)
7.88254877402035e+003	(5.10265629989263e+001dB,1.76211402063608e+002°)
7.94328234724295e+003	(5.10263849770921e+001dB,1.76182248871396e+002°)
8.00448386135906e+003	(5.10262042079992e+001dB,1.76152871925177e+002°)
8.06615692176628e+003	(5.10260206493546e+001dB,1.76123269521071e+002°)
8.12830516164114e+003	(5.10258342582164e+001dB,1.76093439942533e+002°)
8.19093224215312e+003	(5.10256449909856e+001dB,1.76063381460269e+002°)
8.25404185268033e+003	(5.10254528033958e+001dB,1.76033092332150e+002°)
8.31763771102686e+003	(5.10252576505023e+001dB,1.76002570803119e+002°)
8.38172356364177e+003	(5.10250594866731e+001dB,1.75971815105111e+002°)
8.44630318583984e+003	(5.10248582655765e+001dB,1.75940823456958e+002°)
8.51138038202392e+003	(5.10246539401722e+001dB,1.75909594064301e+002°)
