Freq.	V(vout)
Step Information: Run=9  (Run: 9/15)
1.00000000000000e+003	(5.11214644465104e+001dB,1.79514715736971e+002°)
1.00770481413610e+003	(5.11214615182541e+001dB,1.79510976790127e+002°)
1.01546899243308e+003	(5.11214585447024e+001dB,1.79507209037214e+002°)
1.02329299228075e+003	(5.11214555251547e+001dB,1.79503412256329e+002°)
1.03117727459306e+003	(5.11214524588995e+001dB,1.79499586223861e+002°)
1.03912230383517e+003	(5.11214493452144e+001dB,1.79495730714476e+002°)
1.04712854805090e+003	(5.11214461833658e+001dB,1.79491845501104e+002°)
1.05519647889024e+003	(5.11214429726087e+001dB,1.79487930354930e+002°)
1.06332657163716e+003	(5.11214397121860e+001dB,1.79483985045373e+002°)
1.07151930523761e+003	(5.11214364013304e+001dB,1.79480009340080e+002°)
1.07977516232771e+003	(5.11214330392615e+001dB,1.79476003004907e+002°)
1.08809462926223e+003	(5.11214296251870e+001dB,1.79471965803906e+002°)
1.09647819614319e+003	(5.11214261583027e+001dB,1.79467897499316e+002°)
1.10492635684876e+003	(5.11214226377917e+001dB,1.79463797851541e+002°)
1.11343960906236e+003	(5.11214190628242e+001dB,1.79459666619143e+002°)
1.12201845430197e+003	(5.11214154325583e+001dB,1.79455503558825e+002°)
1.13066339794964e+003	(5.11214117461386e+001dB,1.79451308425416e+002°)
1.13937494928134e+003	(5.11214080026965e+001dB,1.79447080971856e+002°)
1.14815362149688e+003	(5.11214042013499e+001dB,1.79442820949185e+002°)
1.15699993175021e+003	(5.11214003412031e+001dB,1.79438528106526e+002°)
1.16591440117983e+003	(5.11213964213468e+001dB,1.79434202191068e+002°)
1.17489755493953e+003	(5.11213924408576e+001dB,1.79429842948058e+002°)
1.18394992222930e+003	(5.11213883987973e+001dB,1.79425450120777e+002°)
1.19307203632654e+003	(5.11213842942142e+001dB,1.79421023450533e+002°)
1.20226443461742e+003	(5.11213801261404e+001dB,1.79416562676640e+002°)
1.21152765862859e+003	(5.11213758935945e+001dB,1.79412067536407e+002°)
1.22086225405907e+003	(5.11213715955787e+001dB,1.79407537765119e+002°)
1.23026877081238e+003	(5.11213672310809e+001dB,1.79402973096025e+002°)
1.23974776302895e+003	(5.11213627990725e+001dB,1.79398373260318e+002°)
1.24929978911874e+003	(5.11213582985094e+001dB,1.79393737987124e+002°)
1.25892541179417e+003	(5.11213537283316e+001dB,1.79389067003482e+002°)
1.26862519810326e+003	(5.11213490874617e+001dB,1.79384360034331e+002°)
1.27839971946303e+003	(5.11213443748070e+001dB,1.79379616802492e+002°)
1.28824955169314e+003	(5.11213395892562e+001dB,1.79374837028653e+002°)
1.29817527504985e+003	(5.11213347296829e+001dB,1.79370020431350e+002°)
1.30817747426020e+003	(5.11213297949418e+001dB,1.79365166726954e+002°)
1.31825673855641e+003	(5.11213247838700e+001dB,1.79360275629653e+002°)
1.32841366171065e+003	(5.11213196952871e+001dB,1.79355346851434e+002°)
1.33864884207000e+003	(5.11213145279940e+001dB,1.79350380102068e+002°)
1.34896288259166e+003	(5.11213092807740e+001dB,1.79345375089091e+002°)
1.35935639087853e+003	(5.11213039523902e+001dB,1.79340331517789e+002°)
1.36982997921497e+003	(5.11212985415873e+001dB,1.79335249091178e+002°)
1.38038426460289e+003	(5.11212930470911e+001dB,1.79330127509991e+002°)
1.39101986879806e+003	(5.11212874676064e+001dB,1.79324966472654e+002°)
1.40173741834677e+003	(5.11212818018195e+001dB,1.79319765675274e+002°)
1.41253754462276e+003	(5.11212760483949e+001dB,1.79314524811620e+002°)
1.42342088386435e+003	(5.11212702059776e+001dB,1.79309243573103e+002°)
1.43438807721197e+003	(5.11212642731908e+001dB,1.79303921648757e+002°)
1.44543977074593e+003	(5.11212582486369e+001dB,1.79298558725227e+002°)
1.45657661552446e+003	(5.11212521308968e+001dB,1.79293154486743e+002°)
1.46779926762207e+003	(5.11212459185288e+001dB,1.79287708615107e+002°)
1.47910838816821e+003	(5.11212396100697e+001dB,1.79282220789671e+002°)
1.49050464338620e+003	(5.11212332040336e+001dB,1.79276690687319e+002°)
1.50198870463249e+003	(5.11212266989106e+001dB,1.79271117982451e+002°)
1.51356124843621e+003	(5.11212200931686e+001dB,1.79265502346959e+002°)
1.52522295653902e+003	(5.11212133852514e+001dB,1.79259843450210e+002°)
1.53697451593528e+003	(5.11212065735788e+001dB,1.79254140959030e+002°)
1.54881661891249e+003	(5.11211996565461e+001dB,1.79248394537677e+002°)
1.56074996309212e+003	(5.11211926325234e+001dB,1.79242603847829e+002°)
1.57277525147067e+003	(5.11211854998564e+001dB,1.79236768548560e+002°)
1.58489319246112e+003	(5.11211782568643e+001dB,1.79230888296318e+002°)
1.59710449993461e+003	(5.11211709018415e+001dB,1.79224962744912e+002°)
1.60940989326254e+003	(5.11211634330548e+001dB,1.79218991545485e+002°)
1.62181009735894e+003	(5.11211558487454e+001dB,1.79212974346495e+002°)
1.63430584272314e+003	(5.11211481471254e+001dB,1.79206910793699e+002°)
1.64689786548288e+003	(5.11211403263817e+001dB,1.79200800530125e+002°)
1.65958690743757e+003	(5.11211323846712e+001dB,1.79194643196056e+002°)
1.67237371610209e+003	(5.11211243201234e+001dB,1.79188438429008e+002°)
1.68525904475076e+003	(5.11211161308386e+001dB,1.79182185863708e+002°)
1.69824365246175e+003	(5.11211078148874e+001dB,1.79175885132074e+002°)
1.71132830416179e+003	(5.11210993703112e+001dB,1.79169535863191e+002°)
1.72451377067121e+003	(5.11210907951205e+001dB,1.79163137683292e+002°)
1.73780082874938e+003	(5.11210820872950e+001dB,1.79156690215734e+002°)
1.75119026114047e+003	(5.11210732447841e+001dB,1.79150193080978e+002°)
1.76468285661951e+003	(5.11210642655045e+001dB,1.79143645896564e+002°)
1.77827941003893e+003	(5.11210551473403e+001dB,1.79137048277092e+002°)
1.79198072237534e+003	(5.11210458881446e+001dB,1.79130399834197e+002°)
1.80578760077673e+003	(5.11210364857365e+001dB,1.79123700176526e+002°)
1.81970085860999e+003	(5.11210269379001e+001dB,1.79116948909719e+002°)
1.83372131550889e+003	(5.11210172423871e+001dB,1.79110145636381e+002°)
1.84784979742230e+003	(5.11210073969139e+001dB,1.79103289956060e+002°)
1.86208713666288e+003	(5.11209973991608e+001dB,1.79096381465226e+002°)
1.87643417195610e+003	(5.11209872467726e+001dB,1.79089419757245e+002°)
1.89089174848965e+003	(5.11209769373589e+001dB,1.79082404422357e+002°)
1.90546071796326e+003	(5.11209664684904e+001dB,1.79075335047650e+002°)
1.92014193863881e+003	(5.11209558377013e+001dB,1.79068211217038e+002°)
1.93493627539096e+003	(5.11209450424880e+001dB,1.79061032511235e+002°)
1.94984459975806e+003	(5.11209340803072e+001dB,1.79053798507731e+002°)
1.96486778999348e+003	(5.11209229485772e+001dB,1.79046508780768e+002°)
1.98000673111740e+003	(5.11209116446759e+001dB,1.79039162901314e+002°)
1.99526231496889e+003	(5.11209001659408e+001dB,1.79031760437039e+002°)
2.01063544025850e+003	(5.11208885096686e+001dB,1.79024300952290e+002°)
2.02612701262116e+003	(5.11208766731127e+001dB,1.79016784008063e+002°)
2.04173794466954e+003	(5.11208646534863e+001dB,1.79009209161980e+002°)
2.05746915604785e+003	(5.11208524479578e+001dB,1.79001575968264e+002°)
2.07332157348597e+003	(5.11208400536525e+001dB,1.78993883977709e+002°)
2.08929613085405e+003	(5.11208274676516e+001dB,1.78986132737658e+002°)
2.10539376921757e+003	(5.11208146869901e+001dB,1.78978321791974e+002°)
2.12161543689270e+003	(5.11208017086580e+001dB,1.78970450681013e+002°)
2.13796208950225e+003	(5.11207885295988e+001dB,1.78962518941601e+002°)
2.15443469003190e+003	(5.11207751467080e+001dB,1.78954526107002e+002°)
2.17103420888697e+003	(5.11207615568343e+001dB,1.78946471706894e+002°)
2.18776162394957e+003	(5.11207477567771e+001dB,1.78938355267341e+002°)
2.20461792063620e+003	(5.11207337432850e+001dB,1.78930176310764e+002°)
2.22160409195583e+003	(5.11207195130594e+001dB,1.78921934355915e+002°)
2.23872113856835e+003	(5.11207050627474e+001dB,1.78913628917849e+002°)
2.25597006884359e+003	(5.11206903889465e+001dB,1.78905259507893e+002°)
2.27335189892065e+003	(5.11206754882008e+001dB,1.78896825633621e+002°)
2.29086765276779e+003	(5.11206603570011e+001dB,1.78888326798823e+002°)
2.30851836224278e+003	(5.11206449917836e+001dB,1.78879762503477e+002°)
2.32630506715364e+003	(5.11206293889297e+001dB,1.78871132243720e+002°)
2.34422881531994e+003	(5.11206135447657e+001dB,1.78862435511818e+002°)
2.36229066263448e+003	(5.11205974555597e+001dB,1.78853671796138e+002°)
2.38049167312553e+003	(5.11205811175227e+001dB,1.78844840581115e+002°)
2.39883291901951e+003	(5.11205645268077e+001dB,1.78835941347226e+002°)
2.41731548080412e+003	(5.11205476795073e+001dB,1.78826973570958e+002°)
2.43594044729204e+003	(5.11205305716543e+001dB,1.78817936724775e+002°)
2.45470891568505e+003	(5.11205131992192e+001dB,1.78808830277093e+002°)
2.47362199163864e+003	(5.11204955581124e+001dB,1.78799653692243e+002°)
2.49268078932720e+003	(5.11204776441791e+001dB,1.78790406430445e+002°)
2.51188643150960e+003	(5.11204594532008e+001dB,1.78781087947772e+002°)
2.53124004959538e+003	(5.11204409808940e+001dB,1.78771697696124e+002°)
2.55074278371138e+003	(5.11204222229093e+001dB,1.78762235123191e+002°)
2.57039578276888e+003	(5.11204031748295e+001dB,1.78752699672421e+002°)
2.59020020453134e+003	(5.11203838321691e+001dB,1.78743090782993e+002°)
2.61015721568256e+003	(5.11203641903738e+001dB,1.78733407889778e+002°)
2.63026799189540e+003	(5.11203442448187e+001dB,1.78723650423313e+002°)
2.65053371790110e+003	(5.11203239908078e+001dB,1.78713817809759e+002°)
2.67095558755901e+003	(5.11203034235711e+001dB,1.78703909470877e+002°)
2.69153480392694e+003	(5.11202825382669e+001dB,1.78693924823988e+002°)
2.71227257933205e+003	(5.11202613299770e+001dB,1.78683863281944e+002°)
2.73317013544226e+003	(5.11202397937083e+001dB,1.78673724253088e+002°)
2.75422870333819e+003	(5.11202179243903e+001dB,1.78663507141226e+002°)
2.77544952358573e+003	(5.11201957168737e+001dB,1.78653211345589e+002°)
2.79683384630910e+003	(5.11201731659302e+001dB,1.78642836260798e+002°)
2.81838293126448e+003	(5.11201502662505e+001dB,1.78632381276831e+002°)
2.84009804791424e+003	(5.11201270124430e+001dB,1.78621845778986e+002°)
2.86198047550173e+003	(5.11201033990331e+001dB,1.78611229147845e+002°)
2.88403150312663e+003	(5.11200794204617e+001dB,1.78600530759241e+002°)
2.90625242982089e+003	(5.11200550710834e+001dB,1.78589749984219e+002°)
2.92864456462526e+003	(5.11200303451665e+001dB,1.78578886189000e+002°)
2.95120922666641e+003	(5.11200052368895e+001dB,1.78567938734945e+002°)
2.97394774523463e+003	(5.11199797403415e+001dB,1.78556906978520e+002°)
2.99686145986215e+003	(5.11199538495208e+001dB,1.78545790271255e+002°)
3.01995172040204e+003	(5.11199275583321e+001dB,1.78534587959709e+002°)
3.04321988710775e+003	(5.11199008605868e+001dB,1.78523299385432e+002°)
3.06666733071321e+003	(5.11198737500004e+001dB,1.78511923884926e+002°)
3.09029543251362e+003	(5.11198462201906e+001dB,1.78500460789607e+002°)
3.11410558444679e+003	(5.11198182646776e+001dB,1.78488909425769e+002°)
3.13809918917516e+003	(5.11197898768805e+001dB,1.78477269114542e+002°)
3.16227766016841e+003	(5.11197610501182e+001dB,1.78465539171852e+002°)
3.18664242178676e+003	(5.11197317776045e+001dB,1.78453718908387e+002°)
3.21119490936485e+003	(5.11197020524500e+001dB,1.78441807629549e+002°)
3.23593656929631e+003	(5.11196718676579e+001dB,1.78429804635425e+002°)
3.26086885911896e+003	(5.11196412161246e+001dB,1.78417709220734e+002°)
3.28599324760069e+003	(5.11196100906346e+001dB,1.78405520674797e+002°)
3.31131121482594e+003	(5.11195784838627e+001dB,1.78393238281492e+002°)
3.33682425228297e+003	(5.11195463883707e+001dB,1.78380861319210e+002°)
3.36253386295166e+003	(5.11195137966044e+001dB,1.78368389060818e+002°)
3.38844156139206e+003	(5.11194807008936e+001dB,1.78355820773617e+002°)
3.41454887383364e+003	(5.11194470934495e+001dB,1.78343155719296e+002°)
3.44085733826517e+003	(5.11194129663632e+001dB,1.78330393153893e+002°)
3.46736850452535e+003	(5.11193783116040e+001dB,1.78317532327752e+002°)
3.49408393439410e+003	(5.11193431210160e+001dB,1.78304572485479e+002°)
3.52100520168456e+003	(5.11193073863183e+001dB,1.78291512865898e+002°)
3.54813389233579e+003	(5.11192710991022e+001dB,1.78278352702011e+002°)
3.57547160450625e+003	(5.11192342508287e+001dB,1.78265091220948e+002°)
3.60301994866789e+003	(5.11191968328277e+001dB,1.78251727643931e+002°)
3.63078054770105e+003	(5.11191588362940e+001dB,1.78238261186219e+002°)
3.65875503699007e+003	(5.11191202522879e+001dB,1.78224691057073e+002°)
3.68694506451962e+003	(5.11190810717304e+001dB,1.78211016459704e+002°)
3.71535229097177e+003	(5.11190412854035e+001dB,1.78197236591233e+002°)
3.74397838982385e+003	(5.11190008839460e+001dB,1.78183350642639e+002°)
3.77282504744704e+003	(5.11189598578524e+001dB,1.78169357798718e+002°)
3.80189396320565e+003	(5.11189181974714e+001dB,1.78155257238032e+002°)
3.83118684955733e+003	(5.11188758930008e+001dB,1.78141048132867e+002°)
3.86070543215386e+003	(5.11188329344889e+001dB,1.78126729649183e+002°)
3.89045144994285e+003	(5.11187893118299e+001dB,1.78112300946565e+002°)
3.92042665527020e+003	(5.11187450147617e+001dB,1.78097761178179e+002°)
3.95063281398328e+003	(5.11187000328638e+001dB,1.78083109490720e+002°)
3.98107170553502e+003	(5.11186543555551e+001dB,1.78068345024367e+002°)
4.01174512308867e+003	(5.11186079720917e+001dB,1.78053466912729e+002°)
4.04265487362349e+003	(5.11185608715627e+001dB,1.78038474282804e+002°)
4.07380277804117e+003	(5.11185130428900e+001dB,1.78023366254919e+002°)
4.10519067127313e+003	(5.11184644748238e+001dB,1.78008141942689e+002°)
4.13682040238856e+003	(5.11184151559413e+001dB,1.77992800452962e+002°)
4.16869383470340e+003	(5.11183650746430e+001dB,1.77977340885769e+002°)
4.20081284589012e+003	(5.11183142191507e+001dB,1.77961762334275e+002°)
4.23317932808826e+003	(5.11182625775041e+001dB,1.77946063884725e+002°)
4.26579518801598e+003	(5.11182101375590e+001dB,1.77930244616393e+002°)
4.29866234708233e+003	(5.11181568869835e+001dB,1.77914303601531e+002°)
4.33178274150047e+003	(5.11181028132552e+001dB,1.77898239905316e+002°)
4.36515832240171e+003	(5.11180479036593e+001dB,1.77882052585797e+002°)
4.39879105595049e+003	(5.11179921452840e+001dB,1.77865740693840e+002°)
4.43268292346014e+003	(5.11179355250188e+001dB,1.77849303273080e+002°)
4.46683592150969e+003	(5.11178780295513e+001dB,1.77832739359860e+002°)
4.50125206206139e+003	(5.11178196453630e+001dB,1.77816047983181e+002°)
4.53593337257933e+003	(5.11177603587272e+001dB,1.77799228164647e+002°)
4.57088189614881e+003	(5.11177001557067e+001dB,1.77782278918410e+002°)
4.60609969159672e+003	(5.11176390221472e+001dB,1.77765199251112e+002°)
4.64158883361284e+003	(5.11175769436775e+001dB,1.77747988161832e+002°)
4.67735141287204e+003	(5.11175139057052e+001dB,1.77730644642030e+002°)
4.71338953615747e+003	(5.11174498934119e+001dB,1.77713167675486e+002°)
4.74970532648462e+003	(5.11173848917515e+001dB,1.77695556238251e+002°)
4.78630092322645e+003	(5.11173188854451e+001dB,1.77677809298581e+002°)
4.82317848223937e+003	(5.11172518589787e+001dB,1.77659925816886e+002°)
4.86034017599028e+003	(5.11171837966000e+001dB,1.77641904745668e+002°)
4.89778819368453e+003	(5.11171146823123e+001dB,1.77623745029462e+002°)
4.93552474139487e+003	(5.11170444998738e+001dB,1.77605445604782e+002°)
4.97355204219146e+003	(5.11169732327910e+001dB,1.77587005400056e+002°)
5.01187233627279e+003	(5.11169008643174e+001dB,1.77568423335568e+002°)
5.05048788109766e+003	(5.11168273774480e+001dB,1.77549698323402e+002°)
5.08940095151816e+003	(5.11167527549156e+001dB,1.77530829267374e+002°)
5.12861383991372e+003	(5.11166769791871e+001dB,1.77511815062977e+002°)
5.16812885632611e+003	(5.11166000324591e+001dB,1.77492654597317e+002°)
5.20794832859554e+003	(5.11165218966541e+001dB,1.77473346749053e+002°)
5.24807460249780e+003	(5.11164425534155e+001dB,1.77453890388333e+002°)
5.28851004188245e+003	(5.11163619841051e+001dB,1.77434284376732e+002°)
5.32925702881208e+003	(5.11162801697970e+001dB,1.77414527567190e+002°)
5.37031796370260e+003	(5.11161970912729e+001dB,1.77394618803947e+002°)
5.41169526546471e+003	(5.11161127290200e+001dB,1.77374556922481e+002°)
5.45339137164635e+003	(5.11160270632240e+001dB,1.77354340749443e+002°)
5.49540873857633e+003	(5.11159400737657e+001dB,1.77333969102590e+002°)
5.53774984150898e+003	(5.11158517402168e+001dB,1.77313440790724e+002°)
5.58041717477005e+003	(5.11157620418320e+001dB,1.77292754613626e+002°)
5.62341325190357e+003	(5.11156709575502e+001dB,1.77271909361985e+002°)
5.66674060582000e+003	(5.11155784659840e+001dB,1.77250903817339e+002°)
5.71040178894535e+003	(5.11154845454163e+001dB,1.77229736752002e+002°)
5.75439937337165e+003	(5.11153891737960e+001dB,1.77208406929001e+002°)
5.79873595100840e+003	(5.11152923287342e+001dB,1.77186913102007e+002°)
5.84341413373526e+003	(5.11151939874954e+001dB,1.77165254015266e+002°)
5.88843655355598e+003	(5.11150941269953e+001dB,1.77143428403531e+002°)
5.93380586275337e+003	(5.11149927237936e+001dB,1.77121434991995e+002°)
5.97952473404561e+003	(5.11148897540903e+001dB,1.77099272496218e+002°)
6.02559586074367e+003	(5.11147851937187e+001dB,1.77076939622061e+002°)
6.07202195690998e+003	(5.11146790181396e+001dB,1.77054435065613e+002°)
6.11880575751831e+003	(5.11145712024375e+001dB,1.77031757513123e+002°)
6.16595001861492e+003	(5.11144617213130e+001dB,1.77008905640926e+002°)
6.21345751748085e+003	(5.11143505490783e+001dB,1.76985878115372e+002°)
6.26133105279562e+003	(5.11142376596490e+001dB,1.76962673592758e+002°)
6.30957344480203e+003	(5.11141230265412e+001dB,1.76939290719250e+002°)
6.35818753547233e+003	(5.11140066228627e+001dB,1.76915728130813e+002°)
6.40717618867564e+003	(5.11138884213084e+001dB,1.76891984453138e+002°)
6.45654229034666e+003	(5.11137683941538e+001dB,1.76868058301567e+002°)
6.50628874865568e+003	(5.11136465132463e+001dB,1.76843948281020e+002°)
6.55641849417989e+003	(5.11135227500030e+001dB,1.76819652985920e+002°)
6.60693448007607e+003	(5.11133970754009e+001dB,1.76795171000118e+002°)
6.65783968225447e+003	(5.11132694599696e+001dB,1.76770500896815e+002°)
6.70913709955422e+003	(5.11131398737875e+001dB,1.76745641238492e+002°)
6.76082975391993e+003	(5.11130082864733e+001dB,1.76720590576829e+002°)
6.81292069057972e+003	(5.11128746671778e+001dB,1.76695347452627e+002°)
6.86541297822466e+003	(5.11127389845785e+001dB,1.76669910395734e+002°)
6.91830970918948e+003	(5.11126012068722e+001dB,1.76644277924969e+002°)
6.97161399963479e+003	(5.11124613017663e+001dB,1.76618448548037e+002°)
7.02532898973064e+003	(5.11123192364735e+001dB,1.76592420761456e+002°)
7.07945784384150e+003	(5.11121749777019e+001dB,1.76566193050476e+002°)
7.13400375071268e+003	(5.11120284916497e+001dB,1.76539763889002e+002°)
7.18896992365819e+003	(5.11118797439951e+001dB,1.76513131739510e+002°)
7.24435960075002e+003	(5.11117286998898e+001dB,1.76486295052967e+002°)
7.30017604500890e+003	(5.11115753239511e+001dB,1.76459252268756e+002°)
7.35642254459654e+003	(5.11114195802535e+001dB,1.76432001814585e+002°)
7.41310241300930e+003	(5.11112614323193e+001dB,1.76404542106416e+002°)
7.47021898927344e+003	(5.11111008431115e+001dB,1.76376871548374e+002°)
7.52777563814179e+003	(5.11109377750255e+001dB,1.76348988532670e+002°)
7.58577575029197e+003	(5.11107721898797e+001dB,1.76320891439515e+002°)
7.64422274252613e+003	(5.11106040489069e+001dB,1.76292578637037e+002°)
7.70312005797228e+003	(5.11104333127454e+001dB,1.76264048481198e+002°)
7.76247116628705e+003	(5.11102599414303e+001dB,1.76235299315710e+002°)
7.82227956386016e+003	(5.11100838943835e+001dB,1.76206329471949e+002°)
7.88254877402035e+003	(5.11099051304052e+001dB,1.76177137268868e+002°)
7.94328234724295e+003	(5.11097236076649e+001dB,1.76147721012918e+002°)
8.00448386135906e+003	(5.11095392836903e+001dB,1.76118078997953e+002°)
8.06615692176628e+003	(5.11093521153589e+001dB,1.76088209505151e+002°)
8.12830516164114e+003	(5.11091620588871e+001dB,1.76058110802923e+002°)
8.19093224215312e+003	(5.11089690698213e+001dB,1.76027781146827e+002°)
8.25404185268033e+003	(5.11087731030269e+001dB,1.75997218779479e+002°)
8.31763771102686e+003	(5.11085741126786e+001dB,1.75966421930467e+002°)
8.38172356364177e+003	(5.11083720522487e+001dB,1.75935388816260e+002°)
8.44630318583984e+003	(5.11081668744979e+001dB,1.75904117640122e+002°)
8.51138038202392e+003	(5.11079585314646e+001dB,1.75872606592017e+002°)
