Freq.	V(vout)
Step Information: Run=11  (Run: 11/15)
1.00000000000000e+003	(5.12723873442345e+001dB,1.79509068095508e+002°)
1.00770481413610e+003	(5.12723843354461e+001dB,1.79505285637987e+002°)
1.01546899243308e+003	(5.12723812801167e+001dB,1.79501474039233e+002°)
1.02329299228075e+003	(5.12723781775265e+001dB,1.79497633074763e+002°)
1.03117727459306e+003	(5.12723750269439e+001dB,1.79493762518365e+002°)
1.03912230383517e+003	(5.12723718276277e+001dB,1.79489862142085e+002°)
1.04712854805090e+003	(5.12723685788230e+001dB,1.79485931716214e+002°)
1.05519647889024e+003	(5.12723652797646e+001dB,1.79481971009273e+002°)
1.06332657163716e+003	(5.12723619296757e+001dB,1.79477979788002e+002°)
1.07151930523761e+003	(5.12723585277663e+001dB,1.79473957817345e+002°)
1.07977516232771e+003	(5.12723550732354e+001dB,1.79469904860436e+002°)
1.08809462926223e+003	(5.12723515652688e+001dB,1.79465820678584e+002°)
1.09647819614319e+003	(5.12723480030398e+001dB,1.79461705031261e+002°)
1.10492635684876e+003	(5.12723443857095e+001dB,1.79457557676088e+002°)
1.11343960906236e+003	(5.12723407124253e+001dB,1.79453378368818e+002°)
1.12201845430197e+003	(5.12723369823218e+001dB,1.79449166863325e+002°)
1.13066339794964e+003	(5.12723331945204e+001dB,1.79444922911588e+002°)
1.13937494928134e+003	(5.12723293481284e+001dB,1.79440646263674e+002°)
1.14815362149688e+003	(5.12723254422397e+001dB,1.79436336667728e+002°)
1.15699993175021e+003	(5.12723214759338e+001dB,1.79431993869956e+002°)
1.16591440117983e+003	(5.12723174482764e+001dB,1.79427617614610e+002°)
1.17489755493953e+003	(5.12723133583185e+001dB,1.79423207643972e+002°)
1.18394992222930e+003	(5.12723092050964e+001dB,1.79418763698340e+002°)
1.19307203632654e+003	(5.12723049876320e+001dB,1.79414285516014e+002°)
1.20226443461742e+003	(5.12723007049313e+001dB,1.79409772833278e+002°)
1.21152765862859e+003	(5.12722963559850e+001dB,1.79405225384387e+002°)
1.22086225405907e+003	(5.12722919397689e+001dB,1.79400642901547e+002°)
1.23026877081238e+003	(5.12722874552425e+001dB,1.79396025114908e+002°)
1.23974776302895e+003	(5.12722829013489e+001dB,1.79391371752536e+002°)
1.24929978911874e+003	(5.12722782770157e+001dB,1.79386682540410e+002°)
1.25892541179417e+003	(5.12722735811527e+001dB,1.79381957202396e+002°)
1.26862519810326e+003	(5.12722688126545e+001dB,1.79377195460234e+002°)
1.27839971946303e+003	(5.12722639703966e+001dB,1.79372397033524e+002°)
1.28824955169314e+003	(5.12722590532391e+001dB,1.79367561639707e+002°)
1.29817527504985e+003	(5.12722540600224e+001dB,1.79362688994047e+002°)
1.30817747426020e+003	(5.12722489895714e+001dB,1.79357778809620e+002°)
1.31825673855641e+003	(5.12722438406908e+001dB,1.79352830797289e+002°)
1.32841366171065e+003	(5.12722386121675e+001dB,1.79347844665696e+002°)
1.33864884207000e+003	(5.12722333027697e+001dB,1.79342820121237e+002°)
1.34896288259166e+003	(5.12722279112470e+001dB,1.79337756868050e+002°)
1.35935639087853e+003	(5.12722224363284e+001dB,1.79332654607995e+002°)
1.36982997921497e+003	(5.12722168767248e+001dB,1.79327513040637e+002°)
1.38038426460289e+003	(5.12722112311259e+001dB,1.79322331863230e+002°)
1.39101986879806e+003	(5.12722054982020e+001dB,1.79317110770696e+002°)
1.40173741834677e+003	(5.12721996766022e+001dB,1.79311849455611e+002°)
1.41253754462276e+003	(5.12721937649549e+001dB,1.79306547608183e+002°)
1.42342088386435e+003	(5.12721877618677e+001dB,1.79301204916238e+002°)
1.43438807721197e+003	(5.12721816659263e+001dB,1.79295821065198e+002°)
1.44543977074593e+003	(5.12721754756940e+001dB,1.79290395738065e+002°)
1.45657661552446e+003	(5.12721691897133e+001dB,1.79284928615400e+002°)
1.46779926762207e+003	(5.12721628065026e+001dB,1.79279419375307e+002°)
1.47910838816821e+003	(5.12721563245589e+001dB,1.79273867693413e+002°)
1.49050464338620e+003	(5.12721497423540e+001dB,1.79268273242849e+002°)
1.50198870463249e+003	(5.12721430583385e+001dB,1.79262635694229e+002°)
1.51356124843621e+003	(5.12721362709370e+001dB,1.79256954715635e+002°)
1.52522295653902e+003	(5.12721293785508e+001dB,1.79251229972593e+002°)
1.53697451593528e+003	(5.12721223795558e+001dB,1.79245461128055e+002°)
1.54881661891249e+003	(5.12721152723034e+001dB,1.79239647842382e+002°)
1.56074996309212e+003	(5.12721080551196e+001dB,1.79233789773320e+002°)
1.57277525147067e+003	(5.12721007263035e+001dB,1.79227886575982e+002°)
1.58489319246112e+003	(5.12720932841293e+001dB,1.79221937902826e+002°)
1.59710449993461e+003	(5.12720857268437e+001dB,1.79215943403639e+002°)
1.60940989326254e+003	(5.12720780526659e+001dB,1.79209902725512e+002°)
1.62181009735894e+003	(5.12720702597884e+001dB,1.79203815512820e+002°)
1.63430584272314e+003	(5.12720623463756e+001dB,1.79197681407203e+002°)
1.64689786548288e+003	(5.12720543105631e+001dB,1.79191500047545e+002°)
1.65958690743757e+003	(5.12720461504579e+001dB,1.79185271069951e+002°)
1.67237371610209e+003	(5.12720378641374e+001dB,1.79178994107727e+002°)
1.68525904475076e+003	(5.12720294496502e+001dB,1.79172668791357e+002°)
1.69824365246175e+003	(5.12720209050139e+001dB,1.79166294748483e+002°)
1.71132830416179e+003	(5.12720122282155e+001dB,1.79159871603886e+002°)
1.72451377067121e+003	(5.12720034172114e+001dB,1.79153398979455e+002°)
1.73780082874938e+003	(5.12719944699256e+001dB,1.79146876494175e+002°)
1.75119026114047e+003	(5.12719853842510e+001dB,1.79140303764099e+002°)
1.76468285661951e+003	(5.12719761580470e+001dB,1.79133680402328e+002°)
1.77827941003893e+003	(5.12719667891403e+001dB,1.79127006018985e+002°)
1.79198072237534e+003	(5.12719572753243e+001dB,1.79120280221196e+002°)
1.80578760077673e+003	(5.12719476143573e+001dB,1.79113502613066e+002°)
1.81970085860999e+003	(5.12719378039641e+001dB,1.79106672795654e+002°)
1.83372131550889e+003	(5.12719278418339e+001dB,1.79099790366952e+002°)
1.84784979742230e+003	(5.12719177256199e+001dB,1.79092854921860e+002°)
1.86208713666288e+003	(5.12719074529391e+001dB,1.79085866052164e+002°)
1.87643417195610e+003	(5.12718970213720e+001dB,1.79078823346509e+002°)
1.89089174848965e+003	(5.12718864284614e+001dB,1.79071726390379e+002°)
1.90546071796326e+003	(5.12718756717121e+001dB,1.79064574766068e+002°)
1.92014193863881e+003	(5.12718647485905e+001dB,1.79057368052662e+002°)
1.93493627539096e+003	(5.12718536565238e+001dB,1.79050105826008e+002°)
1.94984459975806e+003	(5.12718423928989e+001dB,1.79042787658693e+002°)
1.96486778999348e+003	(5.12718309550633e+001dB,1.79035413120017e+002°)
1.98000673111740e+003	(5.12718193403225e+001dB,1.79027981775971e+002°)
1.99526231496889e+003	(5.12718075459412e+001dB,1.79020493189206e+002°)
2.01063544025850e+003	(5.12717955691412e+001dB,1.79012946919015e+002°)
2.02612701262116e+003	(5.12717834071016e+001dB,1.79005342521299e+002°)
2.04173794466954e+003	(5.12717710569577e+001dB,1.78997679548550e+002°)
2.05746915604785e+003	(5.12717585158008e+001dB,1.78989957549816e+002°)
2.07332157348597e+003	(5.12717457806772e+001dB,1.78982176070682e+002°)
2.08929613085405e+003	(5.12717328485872e+001dB,1.78974334653237e+002°)
2.10539376921757e+003	(5.12717197164850e+001dB,1.78966432836055e+002°)
2.12161543689270e+003	(5.12717063812781e+001dB,1.78958470154160e+002°)
2.13796208950225e+003	(5.12716928398250e+001dB,1.78950446139004e+002°)
2.15443469003190e+003	(5.12716790889372e+001dB,1.78942360318439e+002°)
2.17103420888697e+003	(5.12716651253756e+001dB,1.78934212216687e+002°)
2.18776162394957e+003	(5.12716509458517e+001dB,1.78926001354317e+002°)
2.20461792063620e+003	(5.12716365470262e+001dB,1.78917727248210e+002°)
2.22160409195583e+003	(5.12716219255079e+001dB,1.78909389411540e+002°)
2.23872113856835e+003	(5.12716070778531e+001dB,1.78900987353736e+002°)
2.25597006884359e+003	(5.12715920005653e+001dB,1.78892520580460e+002°)
2.27335189892065e+003	(5.12715766900936e+001dB,1.78883988593577e+002°)
2.29086765276779e+003	(5.12715611428325e+001dB,1.78875390891124e+002°)
2.30851836224278e+003	(5.12715453551204e+001dB,1.78866726967283e+002°)
2.32630506715364e+003	(5.12715293232395e+001dB,1.78857996312350e+002°)
2.34422881531994e+003	(5.12715130434139e+001dB,1.78849198412705e+002°)
2.36229066263448e+003	(5.12714965118104e+001dB,1.78840332750784e+002°)
2.38049167312553e+003	(5.12714797245358e+001dB,1.78831398805049e+002°)
2.39883291901951e+003	(5.12714626776363e+001dB,1.78822396049956e+002°)
2.41731548080412e+003	(5.12714453670985e+001dB,1.78813323955922e+002°)
2.43594044729204e+003	(5.12714277888452e+001dB,1.78804181989303e+002°)
2.45470891568505e+003	(5.12714099387376e+001dB,1.78794969612352e+002°)
2.47362199163864e+003	(5.12713918125720e+001dB,1.78785686283195e+002°)
2.49268078932720e+003	(5.12713734060803e+001dB,1.78776331455799e+002°)
2.51188643150960e+003	(5.12713547149280e+001dB,1.78766904579936e+002°)
2.53124004959538e+003	(5.12713357347140e+001dB,1.78757405101155e+002°)
2.55074278371138e+003	(5.12713164609692e+001dB,1.78747832460750e+002°)
2.57039578276888e+003	(5.12712968891551e+001dB,1.78738186095725e+002°)
2.59020020453134e+003	(5.12712770146632e+001dB,1.78728465438761e+002°)
2.61015721568256e+003	(5.12712568328140e+001dB,1.78718669918188e+002°)
2.63026799189540e+003	(5.12712363388554e+001dB,1.78708798957945e+002°)
2.65053371790110e+003	(5.12712155279618e+001dB,1.78698851977553e+002°)
2.67095558755901e+003	(5.12711943952336e+001dB,1.78688828392076e+002°)
2.69153480392694e+003	(5.12711729356950e+001dB,1.78678727612091e+002°)
2.71227257933205e+003	(5.12711511442932e+001dB,1.78668549043652e+002°)
2.73317013544226e+003	(5.12711290158978e+001dB,1.78658292088255e+002°)
2.75422870333819e+003	(5.12711065452986e+001dB,1.78647956142806e+002°)
2.77544952358573e+003	(5.12710837272057e+001dB,1.78637540599583e+002°)
2.79683384630910e+003	(5.12710605562464e+001dB,1.78627044846203e+002°)
2.81838293126448e+003	(5.12710370269659e+001dB,1.78616468265584e+002°)
2.84009804791424e+003	(5.12710131338242e+001dB,1.78605810235913e+002°)
2.86198047550173e+003	(5.12709888711971e+001dB,1.78595070130607e+002°)
2.88403150312663e+003	(5.12709642333719e+001dB,1.78584247318279e+002°)
2.90625242982089e+003	(5.12709392145492e+001dB,1.78573341162698e+002°)
2.92864456462526e+003	(5.12709138088386e+001dB,1.78562351022757e+002°)
2.95120922666641e+003	(5.12708880102597e+001dB,1.78551276252431e+002°)
2.97394774523463e+003	(5.12708618127389e+001dB,1.78540116200746e+002°)
2.99686145986215e+003	(5.12708352101097e+001dB,1.78528870211732e+002°)
3.01995172040204e+003	(5.12708081961097e+001dB,1.78517537624397e+002°)
3.04321988710775e+003	(5.12707807643798e+001dB,1.78506117772677e+002°)
3.06666733071321e+003	(5.12707529084628e+001dB,1.78494609985408e+002°)
3.09029543251362e+003	(5.12707246218022e+001dB,1.78483013586278e+002°)
3.11410558444679e+003	(5.12706958977395e+001dB,1.78471327893796e+002°)
3.13809918917516e+003	(5.12706667295135e+001dB,1.78459552221248e+002°)
3.16227766016841e+003	(5.12706371102587e+001dB,1.78447685876657e+002°)
3.18664242178676e+003	(5.12706070330037e+001dB,1.78435728162748e+002°)
3.21119490936485e+003	(5.12705764906693e+001dB,1.78423678376903e+002°)
3.23593656929631e+003	(5.12705454760670e+001dB,1.78411535811121e+002°)
3.26086885911896e+003	(5.12705139818972e+001dB,1.78399299751981e+002°)
3.28599324760069e+003	(5.12704820007477e+001dB,1.78386969480596e+002°)
3.31131121482594e+003	(5.12704495250916e+001dB,1.78374544272576e+002°)
3.33682425228297e+003	(5.12704165472859e+001dB,1.78362023397985e+002°)
3.36253386295166e+003	(5.12703830595697e+001dB,1.78349406121296e+002°)
3.38844156139206e+003	(5.12703490540623e+001dB,1.78336691701353e+002°)
3.41454887383364e+003	(5.12703145227605e+001dB,1.78323879391329e+002°)
3.44085733826517e+003	(5.12702794575392e+001dB,1.78310968438676e+002°)
3.46736850452535e+003	(5.12702438501461e+001dB,1.78297958085092e+002°)
3.49408393439410e+003	(5.12702076922024e+001dB,1.78284847566468e+002°)
3.52100520168456e+003	(5.12701709751996e+001dB,1.78271636112853e+002°)
3.54813389233579e+003	(5.12701336904982e+001dB,1.78258322948401e+002°)
3.57547160450625e+003	(5.12700958293250e+001dB,1.78244907291336e+002°)
3.60301994866789e+003	(5.12700573827712e+001dB,1.78231388353897e+002°)
3.63078054770105e+003	(5.12700183417910e+001dB,1.78217765342303e+002°)
3.65875503699007e+003	(5.12699786971987e+001dB,1.78204037456700e+002°)
3.68694506451962e+003	(5.12699384396664e+001dB,1.78190203891121e+002°)
3.71535229097177e+003	(5.12698975597231e+001dB,1.78176263833433e+002°)
3.74397838982385e+003	(5.12698560477504e+001dB,1.78162216465299e+002°)
3.77282504744704e+003	(5.12698138939828e+001dB,1.78148060962126e+002°)
3.80189396320565e+003	(5.12697710885030e+001dB,1.78133796493017e+002°)
3.83118684955733e+003	(5.12697276212409e+001dB,1.78119422220729e+002°)
3.86070543215386e+003	(5.12696834819717e+001dB,1.78104937301620e+002°)
3.89045144994285e+003	(5.12696386603114e+001dB,1.78090340885604e+002°)
3.92042665527020e+003	(5.12695931457172e+001dB,1.78075632116102e+002°)
3.95063281398328e+003	(5.12695469274826e+001dB,1.78060810129991e+002°)
3.98107170553502e+003	(5.12694999947362e+001dB,1.78045874057559e+002°)
4.01174512308867e+003	(5.12694523364390e+001dB,1.78030823022453e+002°)
4.04265487362349e+003	(5.12694039413817e+001dB,1.78015656141630e+002°)
4.07380277804117e+003	(5.12693547981813e+001dB,1.78000372525304e+002°)
4.10519067127313e+003	(5.12693048952804e+001dB,1.77984971276903e+002°)
4.13682040238856e+003	(5.12692542209421e+001dB,1.77969451493010e+002°)
4.16869383470340e+003	(5.12692027632492e+001dB,1.77953812263315e+002°)
4.20081284589012e+003	(5.12691505101003e+001dB,1.77938052670565e+002°)
4.23317932808826e+003	(5.12690974492076e+001dB,1.77922171790511e+002°)
4.26579518801598e+003	(5.12690435680935e+001dB,1.77906168691854e+002°)
4.29866234708233e+003	(5.12689888540876e+001dB,1.77890042436194e+002°)
4.33178274150047e+003	(5.12689332943245e+001dB,1.77873792077980e+002°)
4.36515832240171e+003	(5.12688768757408e+001dB,1.77857416664449e+002°)
4.39879105595049e+003	(5.12688195850709e+001dB,1.77840915235580e+002°)
4.43268292346014e+003	(5.12687614088446e+001dB,1.77824286824036e+002°)
4.46683592150969e+003	(5.12687023333845e+001dB,1.77807530455109e+002°)
4.50125206206139e+003	(5.12686423448016e+001dB,1.77790645146668e+002°)
4.53593337257933e+003	(5.12685814289934e+001dB,1.77773629909102e+002°)
4.57088189614881e+003	(5.12685195716394e+001dB,1.77756483745263e+002°)
4.60609969159672e+003	(5.12684567581990e+001dB,1.77739205650413e+002°)
4.64158883361284e+003	(5.12683929739066e+001dB,1.77721794612167e+002°)
4.67735141287204e+003	(5.12683282037691e+001dB,1.77704249610435e+002°)
4.71338953615747e+003	(5.12682624325628e+001dB,1.77686569617363e+002°)
4.74970532648462e+003	(5.12681956448283e+001dB,1.77668753597280e+002°)
4.78630092322645e+003	(5.12681278248695e+001dB,1.77650800506639e+002°)
4.82317848223937e+003	(5.12680589567468e+001dB,1.77632709293955e+002°)
4.86034017599028e+003	(5.12679890242758e+001dB,1.77614478899750e+002°)
4.89778819368453e+003	(5.12679180110222e+001dB,1.77596108256494e+002°)
4.93552474139487e+003	(5.12678459002985e+001dB,1.77577596288541e+002°)
4.97355204219146e+003	(5.12677726751601e+001dB,1.77558941912077e+002°)
5.01187233627279e+003	(5.12676983184018e+001dB,1.77540144035051e+002°)
5.05048788109766e+003	(5.12676228125525e+001dB,1.77521201557120e+002°)
5.08940095151816e+003	(5.12675461398720e+001dB,1.77502113369587e+002°)
5.12861383991372e+003	(5.12674682823471e+001dB,1.77482878355337e+002°)
5.16812885632611e+003	(5.12673892216876e+001dB,1.77463495388779e+002°)
5.20794832859554e+003	(5.12673089393199e+001dB,1.77443963335780e+002°)
5.24807460249780e+003	(5.12672274163859e+001dB,1.77424281053604e+002°)
5.28851004188245e+003	(5.12671446337365e+001dB,1.77404447390849e+002°)
5.32925702881208e+003	(5.12670605719269e+001dB,1.77384461187382e+002°)
5.37031796370260e+003	(5.12669752112144e+001dB,1.77364321274277e+002°)
5.41169526546471e+003	(5.12668885315509e+001dB,1.77344026473751e+002°)
5.45339137164635e+003	(5.12668005125800e+001dB,1.77323575599095e+002°)
5.49540873857633e+003	(5.12667111336321e+001dB,1.77302967454614e+002°)
5.53774984150898e+003	(5.12666203737191e+001dB,1.77282200835557e+002°)
5.58041717477005e+003	(5.12665282115299e+001dB,1.77261274528055e+002°)
5.62341325190357e+003	(5.12664346254251e+001dB,1.77240187309050e+002°)
5.66674060582000e+003	(5.12663395934328e+001dB,1.77218937946232e+002°)
5.71040178894535e+003	(5.12662430932417e+001dB,1.77197525197970e+002°)
5.75439937337165e+003	(5.12661451021982e+001dB,1.77175947813244e+002°)
5.79873595100840e+003	(5.12660455973005e+001dB,1.77154204531576e+002°)
5.84341413373526e+003	(5.12659445551908e+001dB,1.77132294082965e+002°)
5.88843655355598e+003	(5.12658419521539e+001dB,1.77110215187814e+002°)
5.93380586275337e+003	(5.12657377641090e+001dB,1.77087966556859e+002°)
5.97952473404561e+003	(5.12656319666043e+001dB,1.77065546891107e+002°)
6.02559586074367e+003	(5.12655245348130e+001dB,1.77042954881758e+002°)
6.07202195690998e+003	(5.12654154435249e+001dB,1.77020189210135e+002°)
6.11880575751831e+003	(5.12653046671440e+001dB,1.76997248547618e+002°)
6.16595001861492e+003	(5.12651921796782e+001dB,1.76974131555565e+002°)
6.21345751748085e+003	(5.12650779547379e+001dB,1.76950836885247e+002°)
6.26133105279562e+003	(5.12649619655267e+001dB,1.76927363177769e+002°)
6.30957344480203e+003	(5.12648441848362e+001dB,1.76903709064003e+002°)
6.35818753547233e+003	(5.12647245850400e+001dB,1.76879873164510e+002°)
6.40717618867564e+003	(5.12646031380869e+001dB,1.76855854089467e+002°)
6.45654229034666e+003	(5.12644798154941e+001dB,1.76831650438595e+002°)
6.50628874865568e+003	(5.12643545883416e+001dB,1.76807260801081e+002°)
6.55641849417989e+003	(5.12642274272648e+001dB,1.76782683755506e+002°)
6.60693448007607e+003	(5.12640983024480e+001dB,1.76757917869767e+002°)
6.65783968225447e+003	(5.12639671836170e+001dB,1.76732961701001e+002°)
6.70913709955422e+003	(5.12638340400329e+001dB,1.76707813795511e+002°)
6.76082975391993e+003	(5.12636988404845e+001dB,1.76682472688685e+002°)
6.81292069057972e+003	(5.12635615532808e+001dB,1.76656936904921e+002°)
6.86541297822466e+003	(5.12634221462446e+001dB,1.76631204957549e+002°)
6.91830970918948e+003	(5.12632805867048e+001dB,1.76605275348755e+002°)
6.97161399963479e+003	(5.12631368414876e+001dB,1.76579146569495e+002°)
7.02532898973064e+003	(5.12629908769110e+001dB,1.76552817099425e+002°)
7.07945784384150e+003	(5.12628426587751e+001dB,1.76526285406814e+002°)
7.13400375071268e+003	(5.12626921523560e+001dB,1.76499549948468e+002°)
7.18896992365819e+003	(5.12625393223958e+001dB,1.76472609169648e+002°)
7.24435960075002e+003	(5.12623841330962e+001dB,1.76445461503989e+002°)
7.30017604500890e+003	(5.12622265481097e+001dB,1.76418105373420e+002°)
7.35642254459654e+003	(5.12620665305305e+001dB,1.76390539188079e+002°)
7.41310241300930e+003	(5.12619040428875e+001dB,1.76362761346236e+002°)
7.47021898927344e+003	(5.12617390471347e+001dB,1.76334770234203e+002°)
7.52777563814179e+003	(5.12615715046420e+001dB,1.76306564226259e+002°)
7.58577575029197e+003	(5.12614013761876e+001dB,1.76278141684559e+002°)
7.64422274252613e+003	(5.12612286219480e+001dB,1.76249500959054e+002°)
7.70312005797228e+003	(5.12610532014895e+001dB,1.76220640387407e+002°)
7.76247116628705e+003	(5.12608750737587e+001dB,1.76191558294906e+002°)
7.82227956386016e+003	(5.12606941970728e+001dB,1.76162252994379e+002°)
7.88254877402035e+003	(5.12605105291104e+001dB,1.76132722786111e+002°)
7.94328234724295e+003	(5.12603240269018e+001dB,1.76102965957752e+002°)
8.00448386135906e+003	(5.12601346468190e+001dB,1.76072980784238e+002°)
8.06615692176628e+003	(5.12599423445657e+001dB,1.76042765527697e+002°)
8.12830516164114e+003	(5.12597470751677e+001dB,1.76012318437366e+002°)
8.19093224215312e+003	(5.12595487929609e+001dB,1.75981637749502e+002°)
8.25404185268033e+003	(5.12593474515840e+001dB,1.75950721687291e+002°)
8.31763771102686e+003	(5.12591430039650e+001dB,1.75919568460765e+002°)
8.38172356364177e+003	(5.12589354023113e+001dB,1.75888176266707e+002°)
8.44630318583984e+003	(5.12587245980997e+001dB,1.75856543288567e+002°)
8.51138038202392e+003	(5.12585105420644e+001dB,1.75824667696365e+002°)
