Freq.	V(vout)
Step Information: Run=7  (Run: 7/15)
1.00000000000000e+003	(5.10780430836174e+001dB,1.79517408842884e+002°)
1.00770481413610e+003	(5.10780401910252e+001dB,1.79513690644725e+002°)
1.01546899243308e+003	(5.10780372536892e+001dB,1.79509943800334e+002°)
1.02329299228075e+003	(5.10780342709172e+001dB,1.79506168089039e+002°)
1.03117727459306e+003	(5.10780312420064e+001dB,1.79502363288468e+002°)
1.03912230383517e+003	(5.10780281662437e+001dB,1.79498529174539e+002°)
1.04712854805090e+003	(5.10780250429038e+001dB,1.79494665521440e+002°)
1.05519647889024e+003	(5.10780218712512e+001dB,1.79490772101626e+002°)
1.06332657163716e+003	(5.10780186505380e+001dB,1.79486848685794e+002°)
1.07151930523761e+003	(5.10780153800057e+001dB,1.79482895042881e+002°)
1.07977516232771e+003	(5.10780120588840e+001dB,1.79478910940040e+002°)
1.08809462926223e+003	(5.10780086863904e+001dB,1.79474896142634e+002°)
1.09647819614319e+003	(5.10780052617299e+001dB,1.79470850414218e+002°)
1.10492635684876e+003	(5.10780017840956e+001dB,1.79466773516528e+002°)
1.11343960906236e+003	(5.10779982526685e+001dB,1.79462665209463e+002°)
1.12201845430197e+003	(5.10779946666162e+001dB,1.79458525251075e+002°)
1.13066339794964e+003	(5.10779910250940e+001dB,1.79454353397554e+002°)
1.13937494928134e+003	(5.10779873272440e+001dB,1.79450149403210e+002°)
1.14815362149688e+003	(5.10779835721946e+001dB,1.79445913020464e+002°)
1.15699993175021e+003	(5.10779797590613e+001dB,1.79441643999830e+002°)
1.16591440117983e+003	(5.10779758869458e+001dB,1.79437342089899e+002°)
1.17489755493953e+003	(5.10779719549355e+001dB,1.79433007037331e+002°)
1.18394992222930e+003	(5.10779679621044e+001dB,1.79428638586830e+002°)
1.19307203632654e+003	(5.10779639075111e+001dB,1.79424236481140e+002°)
1.20226443461742e+003	(5.10779597902012e+001dB,1.79419800461020e+002°)
1.21152765862859e+003	(5.10779556092038e+001dB,1.79415330265236e+002°)
1.22086225405907e+003	(5.10779513635342e+001dB,1.79410825630541e+002°)
1.23026877081238e+003	(5.10779470521926e+001dB,1.79406286291663e+002°)
1.23974776302895e+003	(5.10779426741622e+001dB,1.79401711981287e+002°)
1.24929978911874e+003	(5.10779382284122e+001dB,1.79397102430039e+002°)
1.25892541179417e+003	(5.10779337138949e+001dB,1.79392457366473e+002°)
1.26862519810326e+003	(5.10779291295470e+001dB,1.79387776517053e+002°)
1.27839971946303e+003	(5.10779244742880e+001dB,1.79383059606137e+002°)
1.28824955169314e+003	(5.10779197470213e+001dB,1.79378306355962e+002°)
1.29817527504985e+003	(5.10779149466331e+001dB,1.79373516486625e+002°)
1.30817747426020e+003	(5.10779100719927e+001dB,1.79368689716069e+002°)
1.31825673855641e+003	(5.10779051219515e+001dB,1.79363825760068e+002°)
1.32841366171065e+003	(5.10779000953428e+001dB,1.79358924332205e+002°)
1.33864884207000e+003	(5.10778949909828e+001dB,1.79353985143860e+002°)
1.34896288259166e+003	(5.10778898076693e+001dB,1.79349007904192e+002°)
1.35935639087853e+003	(5.10778845441802e+001dB,1.79343992320120e+002°)
1.36982997921497e+003	(5.10778791992762e+001dB,1.79338938096308e+002°)
1.38038426460289e+003	(5.10778737716978e+001dB,1.79333844935146e+002°)
1.39101986879806e+003	(5.10778682601666e+001dB,1.79328712536734e+002°)
1.40173741834677e+003	(5.10778626633833e+001dB,1.79323540598864e+002°)
1.41253754462276e+003	(5.10778569800301e+001dB,1.79318328817001e+002°)
1.42342088386435e+003	(5.10778512087678e+001dB,1.79313076884268e+002°)
1.43438807721197e+003	(5.10778453482369e+001dB,1.79307784491424e+002°)
1.44543977074593e+003	(5.10778393970565e+001dB,1.79302451326850e+002°)
1.45657661552446e+003	(5.10778333538246e+001dB,1.79297077076528e+002°)
1.46779926762207e+003	(5.10778272171174e+001dB,1.79291661424022e+002°)
1.47910838816821e+003	(5.10778209854894e+001dB,1.79286204050463e+002°)
1.49050464338620e+003	(5.10778146574725e+001dB,1.79280704634526e+002°)
1.50198870463249e+003	(5.10778082315756e+001dB,1.79275162852416e+002°)
1.51356124843621e+003	(5.10778017062852e+001dB,1.79269578377844e+002°)
1.52522295653902e+003	(5.10777950800641e+001dB,1.79263950882010e+002°)
1.53697451593528e+003	(5.10777883513509e+001dB,1.79258280033586e+002°)
1.54881661891249e+003	(5.10777815185607e+001dB,1.79252565498693e+002°)
1.56074996309212e+003	(5.10777745800836e+001dB,1.79246806940882e+002°)
1.57277525147067e+003	(5.10777675342855e+001dB,1.79241004021117e+002°)
1.58489319246112e+003	(5.10777603795061e+001dB,1.79235156397753e+002°)
1.59710449993461e+003	(5.10777531140596e+001dB,1.79229263726516e+002°)
1.60940989326254e+003	(5.10777457362353e+001dB,1.79223325660481e+002°)
1.62181009735894e+003	(5.10777382442947e+001dB,1.79217341850059e+002°)
1.63430584272314e+003	(5.10777306364730e+001dB,1.79211311942965e+002°)
1.64689786548288e+003	(5.10777229109774e+001dB,1.79205235584209e+002°)
1.65958690743757e+003	(5.10777150659892e+001dB,1.79199112416067e+002°)
1.67237371610209e+003	(5.10777070996591e+001dB,1.79192942078064e+002°)
1.68525904475076e+003	(5.10776990101113e+001dB,1.79186724206951e+002°)
1.69824365246175e+003	(5.10776907954396e+001dB,1.79180458436685e+002°)
1.71132830416179e+003	(5.10776824537090e+001dB,1.79174144398409e+002°)
1.72451377067121e+003	(5.10776739829550e+001dB,1.79167781720424e+002°)
1.73780082874938e+003	(5.10776653811818e+001dB,1.79161370028178e+002°)
1.75119026114047e+003	(5.10776566463629e+001dB,1.79154908944232e+002°)
1.76468285661951e+003	(5.10776477764407e+001dB,1.79148398088247e+002°)
1.77827941003893e+003	(5.10776387693264e+001dB,1.79141837076959e+002°)
1.79198072237534e+003	(5.10776296228974e+001dB,1.79135225524153e+002°)
1.80578760077673e+003	(5.10776203349999e+001dB,1.79128563040647e+002°)
1.81970085860999e+003	(5.10776109034456e+001dB,1.79121849234265e+002°)
1.83372131550889e+003	(5.10776013260131e+001dB,1.79115083709812e+002°)
1.84784979742230e+003	(5.10775916004467e+001dB,1.79108266069057e+002°)
1.86208713666288e+003	(5.10775817244545e+001dB,1.79101395910705e+002°)
1.87643417195610e+003	(5.10775716957110e+001dB,1.79094472830376e+002°)
1.89089174848965e+003	(5.10775615118537e+001dB,1.79087496420578e+002°)
1.90546071796326e+003	(5.10775511704838e+001dB,1.79080466270689e+002°)
1.92014193863881e+003	(5.10775406691654e+001dB,1.79073381966925e+002°)
1.93493627539096e+003	(5.10775300054251e+001dB,1.79066243092325e+002°)
1.94984459975806e+003	(5.10775191767505e+001dB,1.79059049226719e+002°)
1.96486778999348e+003	(5.10775081805919e+001dB,1.79051799946707e+002°)
1.98000673111740e+003	(5.10774970143585e+001dB,1.79044494825634e+002°)
1.99526231496889e+003	(5.10774856754201e+001dB,1.79037133433565e+002°)
2.01063544025850e+003	(5.10774741611068e+001dB,1.79029715337259e+002°)
2.02612701262116e+003	(5.10774624687058e+001dB,1.79022240100144e+002°)
2.04173794466954e+003	(5.10774505954636e+001dB,1.79014707282293e+002°)
2.05746915604785e+003	(5.10774385385834e+001dB,1.79007116440396e+002°)
2.07332157348597e+003	(5.10774262952249e+001dB,1.78999467127737e+002°)
2.08929613085405e+003	(5.10774138625052e+001dB,1.78991758894164e+002°)
2.10539376921757e+003	(5.10774012374960e+001dB,1.78983991286067e+002°)
2.12161543689270e+003	(5.10773884172231e+001dB,1.78976163846348e+002°)
2.13796208950225e+003	(5.10773753986675e+001dB,1.78968276114396e+002°)
2.15443469003190e+003	(5.10773621787630e+001dB,1.78960327626060e+002°)
2.17103420888697e+003	(5.10773487543960e+001dB,1.78952317913623e+002°)
2.18776162394957e+003	(5.10773351224046e+001dB,1.78944246505773e+002°)
2.20461792063620e+003	(5.10773212795785e+001dB,1.78936112927575e+002°)
2.22160409195583e+003	(5.10773072226575e+001dB,1.78927916700446e+002°)
2.23872113856835e+003	(5.10772929483306e+001dB,1.78919657342125e+002°)
2.25597006884359e+003	(5.10772784532363e+001dB,1.78911334366644e+002°)
2.27335189892065e+003	(5.10772637339609e+001dB,1.78902947284304e+002°)
2.29086765276779e+003	(5.10772487870381e+001dB,1.78894495601641e+002°)
2.30851836224278e+003	(5.10772336089474e+001dB,1.78885978821402e+002°)
2.32630506715364e+003	(5.10772181961143e+001dB,1.78877396442512e+002°)
2.34422881531994e+003	(5.10772025449091e+001dB,1.78868747960048e+002°)
2.36229066263448e+003	(5.10771866516465e+001dB,1.78860032865208e+002°)
2.38049167312553e+003	(5.10771705125829e+001dB,1.78851250645281e+002°)
2.39883291901951e+003	(5.10771541239181e+001dB,1.78842400783619e+002°)
2.41731548080412e+003	(5.10771374817927e+001dB,1.78833482759606e+002°)
2.43594044729204e+003	(5.10771205822872e+001dB,1.78824496048626e+002°)
2.45470891568505e+003	(5.10771034214225e+001dB,1.78815440122036e+002°)
2.47362199163864e+003	(5.10770859951573e+001dB,1.78806314447132e+002°)
2.49268078932720e+003	(5.10770682993881e+001dB,1.78797118487119e+002°)
2.51188643150960e+003	(5.10770503299475e+001dB,1.78787851701081e+002°)
2.53124004959538e+003	(5.10770320826048e+001dB,1.78778513543950e+002°)
2.55074278371138e+003	(5.10770135530623e+001dB,1.78769103466470e+002°)
2.57039578276888e+003	(5.10769947369574e+001dB,1.78759620915171e+002°)
2.59020020453134e+003	(5.10769756298597e+001dB,1.78750065332331e+002°)
2.61015721568256e+003	(5.10769562272696e+001dB,1.78740436155950e+002°)
2.63026799189540e+003	(5.10769365246184e+001dB,1.78730732819712e+002°)
2.65053371790110e+003	(5.10769165172674e+001dB,1.78720954752954e+002°)
2.67095558755901e+003	(5.10768962005053e+001dB,1.78711101380635e+002°)
2.69153480392694e+003	(5.10768755695486e+001dB,1.78701172123298e+002°)
2.71227257933205e+003	(5.10768546195398e+001dB,1.78691166397040e+002°)
2.73317013544226e+003	(5.10768333455456e+001dB,1.78681083613479e+002°)
2.75422870333819e+003	(5.10768117425577e+001dB,1.78670923179716e+002°)
2.77544952358573e+003	(5.10767898054894e+001dB,1.78660684498303e+002°)
2.79683384630910e+003	(5.10767675291765e+001dB,1.78650366967210e+002°)
2.81838293126448e+003	(5.10767449083738e+001dB,1.78639969979786e+002°)
2.84009804791424e+003	(5.10767219377556e+001dB,1.78629492924728e+002°)
2.86198047550173e+003	(5.10766986119134e+001dB,1.78618935186041e+002°)
2.88403150312663e+003	(5.10766749253568e+001dB,1.78608296143009e+002°)
2.90625242982089e+003	(5.10766508725085e+001dB,1.78597575170153e+002°)
2.92864456462526e+003	(5.10766264477063e+001dB,1.78586771637197e+002°)
2.95120922666641e+003	(5.10766016452001e+001dB,1.78575884909032e+002°)
2.97394774523463e+003	(5.10765764591512e+001dB,1.78564914345679e+002°)
2.99686145986215e+003	(5.10765508836302e+001dB,1.78553859302252e+002°)
3.01995172040204e+003	(5.10765249126166e+001dB,1.78542719128920e+002°)
3.04321988710775e+003	(5.10764985399968e+001dB,1.78531493170871e+002°)
3.06666733071321e+003	(5.10764717595626e+001dB,1.78520180768273e+002°)
3.09029543251362e+003	(5.10764445650101e+001dB,1.78508781256236e+002°)
3.11410558444679e+003	(5.10764169499379e+001dB,1.78497293964775e+002°)
3.13809918917516e+003	(5.10763889078453e+001dB,1.78485718218768e+002°)
3.16227766016841e+003	(5.10763604321323e+001dB,1.78474053337922e+002°)
3.18664242178676e+003	(5.10763315160958e+001dB,1.78462298636729e+002°)
3.21119490936485e+003	(5.10763021529302e+001dB,1.78450453424429e+002°)
3.23593656929631e+003	(5.10762723357240e+001dB,1.78438517004972e+002°)
3.26086885911896e+003	(5.10762420574588e+001dB,1.78426488676973e+002°)
3.28599324760069e+003	(5.10762113110086e+001dB,1.78414367733676e+002°)
3.31131121482594e+003	(5.10761800891366e+001dB,1.78402153462910e+002°)
3.33682425228297e+003	(5.10761483844949e+001dB,1.78389845147052e+002°)
3.36253386295166e+003	(5.10761161896218e+001dB,1.78377442062982e+002°)
3.38844156139206e+003	(5.10760834969401e+001dB,1.78364943482044e+002°)
3.41454887383364e+003	(5.10760502987564e+001dB,1.78352348670002e+002°)
3.44085733826517e+003	(5.10760165872571e+001dB,1.78339656886999e+002°)
3.46736850452535e+003	(5.10759823545100e+001dB,1.78326867387516e+002°)
3.49408393439410e+003	(5.10759475924579e+001dB,1.78313979420325e+002°)
3.52100520168456e+003	(5.10759122929218e+001dB,1.78300992228452e+002°)
3.54813389233579e+003	(5.10758764475942e+001dB,1.78287905049126e+002°)
3.57547160450625e+003	(5.10758400480406e+001dB,1.78274717113744e+002°)
3.60301994866789e+003	(5.10758030856957e+001dB,1.78261427647819e+002°)
3.63078054770105e+003	(5.10757655518628e+001dB,1.78248035870941e+002°)
3.65875503699007e+003	(5.10757274377099e+001dB,1.78234540996729e+002°)
3.68694506451962e+003	(5.10756887342689e+001dB,1.78220942232788e+002°)
3.71535229097177e+003	(5.10756494324341e+001dB,1.78207238780664e+002°)
3.74397838982385e+003	(5.10756095229576e+001dB,1.78193429835797e+002°)
3.77282504744704e+003	(5.10755689964507e+001dB,1.78179514587475e+002°)
3.80189396320565e+003	(5.10755278433784e+001dB,1.78165492218788e+002°)
3.83118684955733e+003	(5.10754860540590e+001dB,1.78151361906584e+002°)
3.86070543215386e+003	(5.10754436186610e+001dB,1.78137122821416e+002°)
3.89045144994285e+003	(5.10754005272018e+001dB,1.78122774127501e+002°)
3.92042665527020e+003	(5.10753567695443e+001dB,1.78108314982669e+002°)
3.95063281398328e+003	(5.10753123353946e+001dB,1.78093744538315e+002°)
3.98107170553502e+003	(5.10752672143007e+001dB,1.78079061939354e+002°)
4.01174512308867e+003	(5.10752213956493e+001dB,1.78064266324168e+002°)
4.04265487362349e+003	(5.10751748686624e+001dB,1.78049356824557e+002°)
4.07380277804117e+003	(5.10751276223966e+001dB,1.78034332565695e+002°)
4.10519067127313e+003	(5.10750796457391e+001dB,1.78019192666075e+002°)
4.13682040238856e+003	(5.10750309274058e+001dB,1.78003936237461e+002°)
4.16869383470340e+003	(5.10749814559390e+001dB,1.77988562384837e+002°)
4.20081284589012e+003	(5.10749312197030e+001dB,1.77973070206358e+002°)
4.23317932808826e+003	(5.10748802068841e+001dB,1.77957458793296e+002°)
4.26579518801598e+003	(5.10748284054844e+001dB,1.77941727229990e+002°)
4.29866234708233e+003	(5.10747758033233e+001dB,1.77925874593795e+002°)
4.33178274150047e+003	(5.10747223880307e+001dB,1.77909899955030e+002°)
4.36515832240171e+003	(5.10746681470458e+001dB,1.77893802376922e+002°)
4.39879105595049e+003	(5.10746130676143e+001dB,1.77877580915558e+002°)
4.43268292346014e+003	(5.10745571367855e+001dB,1.77861234619828e+002°)
4.46683592150969e+003	(5.10745003414085e+001dB,1.77844762531373e+002°)
4.50125206206139e+003	(5.10744426681297e+001dB,1.77828163684530e+002°)
4.53593337257933e+003	(5.10743841033898e+001dB,1.77811437106279e+002°)
4.57088189614881e+003	(5.10743246334195e+001dB,1.77794581816188e+002°)
4.60609969159672e+003	(5.10742642442385e+001dB,1.77777596826356e+002°)
4.64158883361284e+003	(5.10742029216500e+001dB,1.77760481141359e+002°)
4.67735141287204e+003	(5.10741406512386e+001dB,1.77743233758194e+002°)
4.71338953615747e+003	(5.10740774183666e+001dB,1.77725853666223e+002°)
4.74970532648462e+003	(5.10740132081708e+001dB,1.77708339847116e+002°)
4.78630092322645e+003	(5.10739480055582e+001dB,1.77690691274793e+002°)
4.82317848223937e+003	(5.10738817952040e+001dB,1.77672906915368e+002°)
4.86034017599028e+003	(5.10738145615465e+001dB,1.77654985727090e+002°)
4.89778819368453e+003	(5.10737462887849e+001dB,1.77636926660286e+002°)
4.93552474139487e+003	(5.10736769608741e+001dB,1.77618728657300e+002°)
4.97355204219146e+003	(5.10736065615216e+001dB,1.77600390652437e+002°)
5.01187233627279e+003	(5.10735350741847e+001dB,1.77581911571903e+002°)
5.05048788109766e+003	(5.10734624820648e+001dB,1.77563290333742e+002°)
5.08940095151816e+003	(5.10733887681050e+001dB,1.77544525847780e+002°)
5.12861383991372e+003	(5.10733139149855e+001dB,1.77525617015562e+002°)
5.16812885632611e+003	(5.10732379051192e+001dB,1.77506562730290e+002°)
5.20794832859554e+003	(5.10731607206490e+001dB,1.77487361876765e+002°)
5.24807460249780e+003	(5.10730823434417e+001dB,1.77468013331322e+002°)
5.28851004188245e+003	(5.10730027550851e+001dB,1.77448515961770e+002°)
5.32925702881208e+003	(5.10729219368835e+001dB,1.77428868627327e+002°)
5.37031796370260e+003	(5.10728398698532e+001dB,1.77409070178558e+002°)
5.41169526546471e+003	(5.10727565347181e+001dB,1.77389119457313e+002°)
5.45339137164635e+003	(5.10726719119046e+001dB,1.77369015296661e+002°)
5.49540873857633e+003	(5.10725859815389e+001dB,1.77348756520826e+002°)
5.53774984150898e+003	(5.10724987234403e+001dB,1.77328341945122e+002°)
5.58041717477005e+003	(5.10724101171172e+001dB,1.77307770375891e+002°)
5.62341325190357e+003	(5.10723201417636e+001dB,1.77287040610432e+002°)
5.66674060582000e+003	(5.10722287762514e+001dB,1.77266151436939e+002°)
5.71040178894535e+003	(5.10721359991291e+001dB,1.77245101634434e+002°)
5.75439937337165e+003	(5.10720417886134e+001dB,1.77223889972698e+002°)
5.79873595100840e+003	(5.10719461225872e+001dB,1.77202515212208e+002°)
5.84341413373526e+003	(5.10718489785915e+001dB,1.77180976104063e+002°)
5.88843655355598e+003	(5.10717503338229e+001dB,1.77159271389922e+002°)
5.93380586275337e+003	(5.10716501651259e+001dB,1.77137399801931e+002°)
5.97952473404561e+003	(5.10715484489905e+001dB,1.77115360062658e+002°)
6.02559586074367e+003	(5.10714451615425e+001dB,1.77093150885018e+002°)
6.07202195690998e+003	(5.10713402785431e+001dB,1.77070770972209e+002°)
6.11880575751831e+003	(5.10712337753781e+001dB,1.77048219017639e+002°)
6.16595001861492e+003	(5.10711256270558e+001dB,1.77025493704854e+002°)
6.21345751748085e+003	(5.10710158082008e+001dB,1.77002593707470e+002°)
6.26133105279562e+003	(5.10709042930467e+001dB,1.76979517689097e+002°)
6.30957344480203e+003	(5.10707910554303e+001dB,1.76956264303271e+002°)
6.35818753547233e+003	(5.10706760687874e+001dB,1.76932832193381e+002°)
6.40717618867564e+003	(5.10705593061440e+001dB,1.76909219992592e+002°)
6.45654229034666e+003	(5.10704407401121e+001dB,1.76885426323777e+002°)
6.50628874865568e+003	(5.10703203428833e+001dB,1.76861449799441e+002°)
6.55641849417989e+003	(5.10701980862205e+001dB,1.76837289021645e+002°)
6.60693448007607e+003	(5.10700739414531e+001dB,1.76812942581933e+002°)
6.65783968225447e+003	(5.10699478794705e+001dB,1.76788409061257e+002°)
6.70913709955422e+003	(5.10698198707136e+001dB,1.76763687029901e+002°)
6.76082975391993e+003	(5.10696898851703e+001dB,1.76738775047404e+002°)
6.81292069057972e+003	(5.10695578923666e+001dB,1.76713671662487e+002°)
6.86541297822466e+003	(5.10694238613607e+001dB,1.76688375412971e+002°)
6.91830970918948e+003	(5.10692877607356e+001dB,1.76662884825702e+002°)
6.97161399963479e+003	(5.10691495585915e+001dB,1.76637198416476e+002°)
7.02532898973064e+003	(5.10690092225390e+001dB,1.76611314689954e+002°)
7.07945784384150e+003	(5.10688667196917e+001dB,1.76585232139591e+002°)
7.13400375071268e+003	(5.10687220166566e+001dB,1.76558949247551e+002°)
7.18896992365819e+003	(5.10685750795308e+001dB,1.76532464484630e+002°)
7.24435960075002e+003	(5.10684258738885e+001dB,1.76505776310176e+002°)
7.30017604500890e+003	(5.10682743647773e+001dB,1.76478883172008e+002°)
7.35642254459654e+003	(5.10681205167069e+001dB,1.76451783506332e+002°)
7.41310241300930e+003	(5.10679642936440e+001dB,1.76424475737668e+002°)
7.47021898927344e+003	(5.10678056590013e+001dB,1.76396958278759e+002°)
7.52777563814179e+003	(5.10676445756307e+001dB,1.76369229530494e+002°)
7.58577575029197e+003	(5.10674810058145e+001dB,1.76341287881823e+002°)
7.64422274252613e+003	(5.10673149112562e+001dB,1.76313131709674e+002°)
7.70312005797228e+003	(5.10671462530723e+001dB,1.76284759378873e+002°)
7.76247116628705e+003	(5.10669749917829e+001dB,1.76256169242055e+002°)
7.82227956386016e+003	(5.10668010873033e+001dB,1.76227359639582e+002°)
7.88254877402035e+003	(5.10666244989335e+001dB,1.76198328899458e+002°)
7.94328234724295e+003	(5.10664451853514e+001dB,1.76169075337242e+002°)
8.00448386135906e+003	(5.10662631046001e+001dB,1.76139597255968e+002°)
8.06615692176628e+003	(5.10660782140804e+001dB,1.76109892946048e+002°)
8.12830516164114e+003	(5.10658904705404e+001dB,1.76079960685199e+002°)
8.19093224215312e+003	(5.10656998300672e+001dB,1.76049798738343e+002°)
8.25404185268033e+003	(5.10655062480728e+001dB,1.76019405357529e+002°)
8.31763771102686e+003	(5.10653096792885e+001dB,1.75988778781840e+002°)
8.38172356364177e+003	(5.10651100777518e+001dB,1.75957917237308e+002°)
8.44630318583984e+003	(5.10649073967967e+001dB,1.75926818936821e+002°)
8.51138038202392e+003	(5.10647015890438e+001dB,1.75895482080040e+002°)
