Freq.	V(vout)
Step Information: Run=8  (Run: 8/15)
1.00000000000000e+003	(5.12173777065374e+001dB,1.79511901571620e+002°)
1.00770481413610e+003	(5.12173747429419e+001dB,1.79508140943552e+002°)
1.01546899243308e+003	(5.12173717335023e+001dB,1.79504351342397e+002°)
1.02329299228075e+003	(5.12173686775125e+001dB,1.79500532544967e+002°)
1.03117727459306e+003	(5.12173655742512e+001dB,1.79496684326354e+002°)
1.03912230383517e+003	(5.12173624229881e+001dB,1.79492806459919e+002°)
1.04712854805090e+003	(5.12173592229794e+001dB,1.79488898717276e+002°)
1.05519647889024e+003	(5.12173559734742e+001dB,1.79484960868283e+002°)
1.06332657163716e+003	(5.12173526737021e+001dB,1.79480992681025e+002°)
1.07151930523761e+003	(5.12173493228892e+001dB,1.79476993921799e+002°)
1.07977516232771e+003	(5.12173459202446e+001dB,1.79472964355106e+002°)
1.08809462926223e+003	(5.12173424649664e+001dB,1.79468903743631e+002°)
1.09647819614319e+003	(5.12173389562409e+001dB,1.79464811848234e+002°)
1.10492635684876e+003	(5.12173353932415e+001dB,1.79460688427932e+002°)
1.11343960906236e+003	(5.12173317751293e+001dB,1.79456533239888e+002°)
1.12201845430197e+003	(5.12173281010504e+001dB,1.79452346039392e+002°)
1.13066339794964e+003	(5.12173243701409e+001dB,1.79448126579854e+002°)
1.13937494928134e+003	(5.12173205815213e+001dB,1.79443874612784e+002°)
1.14815362149688e+003	(5.12173167342971e+001dB,1.79439589887778e+002°)
1.15699993175021e+003	(5.12173128275641e+001dB,1.79435272152504e+002°)
1.16591440117983e+003	(5.12173088604007e+001dB,1.79430921152689e+002°)
1.17489755493953e+003	(5.12173048318736e+001dB,1.79426536632101e+002°)
1.18394992222930e+003	(5.12173007410310e+001dB,1.79422118332535e+002°)
1.19307203632654e+003	(5.12172965869127e+001dB,1.79417665993798e+002°)
1.20226443461742e+003	(5.12172923685342e+001dB,1.79413179353697e+002°)
1.21152765862859e+003	(5.12172880849088e+001dB,1.79408658148015e+002°)
1.22086225405907e+003	(5.12172837350218e+001dB,1.79404102110507e+002°)
1.23026877081238e+003	(5.12172793178508e+001dB,1.79399510972873e+002°)
1.23974776302895e+003	(5.12172748323553e+001dB,1.79394884464751e+002°)
1.24929978911874e+003	(5.12172702774781e+001dB,1.79390222313696e+002°)
1.25892541179417e+003	(5.12172656521431e+001dB,1.79385524245166e+002°)
1.26862519810326e+003	(5.12172609552662e+001dB,1.79380789982507e+002°)
1.27839971946303e+003	(5.12172561857370e+001dB,1.79376019246933e+002°)
1.28824955169314e+003	(5.12172513424327e+001dB,1.79371211757514e+002°)
1.29817527504985e+003	(5.12172464242111e+001dB,1.79366367231156e+002°)
1.30817747426020e+003	(5.12172414299154e+001dB,1.79361485382586e+002°)
1.31825673855641e+003	(5.12172363583670e+001dB,1.79356565924337e+002°)
1.32841366171065e+003	(5.12172312083745e+001dB,1.79351608566727e+002°)
1.33864884207000e+003	(5.12172259787197e+001dB,1.79346613017845e+002°)
1.34896288259166e+003	(5.12172206681743e+001dB,1.79341578983534e+002°)
1.35935639087853e+003	(5.12172152754857e+001dB,1.79336506167371e+002°)
1.36982997921497e+003	(5.12172097993828e+001dB,1.79331394270654e+002°)
1.38038426460289e+003	(5.12172042385770e+001dB,1.79326242992379e+002°)
1.39101986879806e+003	(5.12171985917589e+001dB,1.79321052029229e+002°)
1.40173741834677e+003	(5.12171928575939e+001dB,1.79315821075548e+002°)
1.41253754462276e+003	(5.12171870347361e+001dB,1.79310549823332e+002°)
1.42342088386435e+003	(5.12171811218094e+001dB,1.79305237962203e+002°)
1.43438807721197e+003	(5.12171751174243e+001dB,1.79299885179397e+002°)
1.44543977074593e+003	(5.12171690201657e+001dB,1.79294491159741e+002°)
1.45657661552446e+003	(5.12171628285945e+001dB,1.79289055585638e+002°)
1.46779926762207e+003	(5.12171565412540e+001dB,1.79283578137045e+002°)
1.47910838816821e+003	(5.12171501566633e+001dB,1.79278058491458e+002°)
1.49050464338620e+003	(5.12171436733168e+001dB,1.79272496323891e+002°)
1.50198870463249e+003	(5.12171370896884e+001dB,1.79266891306855e+002°)
1.51356124843621e+003	(5.12171304042273e+001dB,1.79261243110344e+002°)
1.52522295653902e+003	(5.12171236153582e+001dB,1.79255551401810e+002°)
1.53697451593528e+003	(5.12171167214815e+001dB,1.79249815846149e+002°)
1.54881661891249e+003	(5.12171097209725e+001dB,1.79244036105674e+002°)
1.56074996309212e+003	(5.12171026121835e+001dB,1.79238211840105e+002°)
1.57277525147067e+003	(5.12170953934379e+001dB,1.79232342706540e+002°)
1.58489319246112e+003	(5.12170880630373e+001dB,1.79226428359441e+002°)
1.59710449993461e+003	(5.12170806192540e+001dB,1.79220468450608e+002°)
1.60940989326254e+003	(5.12170730603335e+001dB,1.79214462629166e+002°)
1.62181009735894e+003	(5.12170653844953e+001dB,1.79208410541538e+002°)
1.63430584272314e+003	(5.12170575899329e+001dB,1.79202311831429e+002°)
1.64689786548288e+003	(5.12170496748084e+001dB,1.79196166139800e+002°)
1.65958690743757e+003	(5.12170416372578e+001dB,1.79189973104851e+002°)
1.67237371610209e+003	(5.12170334753868e+001dB,1.79183732362000e+002°)
1.68525904475076e+003	(5.12170251872738e+001dB,1.79177443543859e+002°)
1.69824365246175e+003	(5.12170167709672e+001dB,1.79171106280214e+002°)
1.71132830416179e+003	(5.12170082244825e+001dB,1.79164720198004e+002°)
1.72451377067121e+003	(5.12169995458067e+001dB,1.79158284921296e+002°)
1.73780082874938e+003	(5.12169907328954e+001dB,1.79151800071269e+002°)
1.75119026114047e+003	(5.12169817836759e+001dB,1.79145265266186e+002°)
1.76468285661951e+003	(5.12169726960342e+001dB,1.79138680121372e+002°)
1.77827941003893e+003	(5.12169634678354e+001dB,1.79132044249197e+002°)
1.79198072237534e+003	(5.12169540969006e+001dB,1.79125357259048e+002°)
1.80578760077673e+003	(5.12169445810261e+001dB,1.79118618757307e+002°)
1.81970085860999e+003	(5.12169349179695e+001dB,1.79111828347330e+002°)
1.83372131550889e+003	(5.12169251054538e+001dB,1.79104985629423e+002°)
1.84784979742230e+003	(5.12169151411681e+001dB,1.79098090200815e+002°)
1.86208713666288e+003	(5.12169050227656e+001dB,1.79091141655642e+002°)
1.87643417195610e+003	(5.12168947478604e+001dB,1.79084139584916e+002°)
1.89089174848965e+003	(5.12168843140383e+001dB,1.79077083576506e+002°)
1.90546071796326e+003	(5.12168737188351e+001dB,1.79069973215109e+002°)
1.92014193863881e+003	(5.12168629597574e+001dB,1.79062808082232e+002°)
1.93493627539096e+003	(5.12168520342713e+001dB,1.79055587756163e+002°)
1.94984459975806e+003	(5.12168409398050e+001dB,1.79048311811946e+002°)
1.96486778999348e+003	(5.12168296737430e+001dB,1.79040979821361e+002°)
1.98000673111740e+003	(5.12168182334320e+001dB,1.79033591352892e+002°)
1.99526231496889e+003	(5.12168066161772e+001dB,1.79026145971709e+002°)
2.01063544025850e+003	(5.12167948192438e+001dB,1.79018643239636e+002°)
2.02612701262116e+003	(5.12167828398513e+001dB,1.79011082715132e+002°)
2.04173794466954e+003	(5.12167706751793e+001dB,1.79003463953259e+002°)
2.05746915604785e+003	(5.12167583223628e+001dB,1.78995786505659e+002°)
2.07332157348597e+003	(5.12167457784914e+001dB,1.78988049920529e+002°)
2.08929613085405e+003	(5.12167330406107e+001dB,1.78980253742594e+002°)
2.10539376921757e+003	(5.12167201057213e+001dB,1.78972397513076e+002°)
2.12161543689270e+003	(5.12167069707759e+001dB,1.78964480769676e+002°)
2.13796208950225e+003	(5.12166936326830e+001dB,1.78956503046537e+002°)
2.15443469003190e+003	(5.12166800882990e+001dB,1.78948463874227e+002°)
2.17103420888697e+003	(5.12166663344342e+001dB,1.78940362779701e+002°)
2.18776162394957e+003	(5.12166523678491e+001dB,1.78932199286284e+002°)
2.20461792063620e+003	(5.12166381852554e+001dB,1.78923972913634e+002°)
2.22160409195583e+003	(5.12166237833128e+001dB,1.78915683177721e+002°)
2.23872113856835e+003	(5.12166091586285e+001dB,1.78907329590795e+002°)
2.25597006884359e+003	(5.12165943077588e+001dB,1.78898911661357e+002°)
2.27335189892065e+003	(5.12165792272068e+001dB,1.78890428894134e+002°)
2.29086765276779e+003	(5.12165639134201e+001dB,1.78881880790047e+002°)
2.30851836224278e+003	(5.12165483627929e+001dB,1.78873266846184e+002°)
2.32630506715364e+003	(5.12165325716609e+001dB,1.78864586555768e+002°)
2.34422881531994e+003	(5.12165165363079e+001dB,1.78855839408129e+002°)
2.36229066263448e+003	(5.12165002529568e+001dB,1.78847024888678e+002°)
2.38049167312553e+003	(5.12164837177746e+001dB,1.78838142478869e+002°)
2.39883291901951e+003	(5.12164669268639e+001dB,1.78829191656177e+002°)
2.41731548080412e+003	(5.12164498762731e+001dB,1.78820171894061e+002°)
2.43594044729204e+003	(5.12164325619847e+001dB,1.78811082661938e+002°)
2.45470891568505e+003	(5.12164149799233e+001dB,1.78801923425150e+002°)
2.47362199163864e+003	(5.12163971259506e+001dB,1.78792693644936e+002°)
2.49268078932720e+003	(5.12163789958580e+001dB,1.78783392778392e+002°)
2.51188643150960e+003	(5.12163605853791e+001dB,1.78774020278453e+002°)
2.53124004959538e+003	(5.12163418901779e+001dB,1.78764575593847e+002°)
2.55074278371138e+003	(5.12163229058517e+001dB,1.78755058169075e+002°)
2.57039578276888e+003	(5.12163036279312e+001dB,1.78745467444372e+002°)
2.59020020453134e+003	(5.12162840518767e+001dB,1.78735802855673e+002°)
2.61015721568256e+003	(5.12162641730791e+001dB,1.78726063834588e+002°)
2.63026799189540e+003	(5.12162439868564e+001dB,1.78716249808362e+002°)
2.65053371790110e+003	(5.12162234884566e+001dB,1.78706360199842e+002°)
2.67095558755901e+003	(5.12162026730529e+001dB,1.78696394427451e+002°)
2.69153480392694e+003	(5.12161815357454e+001dB,1.78686351905143e+002°)
2.71227257933205e+003	(5.12161600715565e+001dB,1.78676232042379e+002°)
2.73317013544226e+003	(5.12161382754310e+001dB,1.78666034244088e+002°)
2.75422870333819e+003	(5.12161161422396e+001dB,1.78655757910631e+002°)
2.77544952358573e+003	(5.12160936667708e+001dB,1.78645402437771e+002°)
2.79683384630910e+003	(5.12160708437311e+001dB,1.78634967216634e+002°)
2.81838293126448e+003	(5.12160476677497e+001dB,1.78624451633677e+002°)
2.84009804791424e+003	(5.12160241333678e+001dB,1.78613855070648e+002°)
2.86198047550173e+003	(5.12160002350465e+001dB,1.78603176904555e+002°)
2.88403150312663e+003	(5.12159759671595e+001dB,1.78592416507628e+002°)
2.90625242982089e+003	(5.12159513239925e+001dB,1.78581573247281e+002°)
2.92864456462526e+003	(5.12159262997435e+001dB,1.78570646486080e+002°)
2.95120922666641e+003	(5.12159008885241e+001dB,1.78559635581700e+002°)
2.97394774523463e+003	(5.12158750843513e+001dB,1.78548539886892e+002°)
2.99686145986215e+003	(5.12158488811491e+001dB,1.78537358749446e+002°)
3.01995172040204e+003	(5.12158222727505e+001dB,1.78526091512150e+002°)
3.04321988710775e+003	(5.12157952528915e+001dB,1.78514737512758e+002°)
3.06666733071321e+003	(5.12157678152130e+001dB,1.78503296083942e+002°)
3.09029543251362e+003	(5.12157399532515e+001dB,1.78491766553265e+002°)
3.11410558444679e+003	(5.12157116604563e+001dB,1.78480148243133e+002°)
3.13809918917516e+003	(5.12156829301610e+001dB,1.78468440470762e+002°)
3.16227766016841e+003	(5.12156537556064e+001dB,1.78456642548134e+002°)
3.18664242178676e+003	(5.12156241299253e+001dB,1.78444753781961e+002°)
3.21119490936485e+003	(5.12155940461436e+001dB,1.78432773473643e+002°)
3.23593656929631e+003	(5.12155634971826e+001dB,1.78420700919229e+002°)
3.26086885911896e+003	(5.12155324758495e+001dB,1.78408535409377e+002°)
3.28599324760069e+003	(5.12155009748447e+001dB,1.78396276229308e+002°)
3.31131121482594e+003	(5.12154689867527e+001dB,1.78383922658773e+002°)
3.33682425228297e+003	(5.12154365040484e+001dB,1.78371473972008e+002°)
3.36253386295166e+003	(5.12154035190840e+001dB,1.78358929437689e+002°)
3.38844156139206e+003	(5.12153700240992e+001dB,1.78346288318894e+002°)
3.41454887383364e+003	(5.12153360112074e+001dB,1.78333549873060e+002°)
3.44085733826517e+003	(5.12153014724081e+001dB,1.78320713351940e+002°)
3.46736850452535e+003	(5.12152663995735e+001dB,1.78307778001559e+002°)
3.49408393439410e+003	(5.12152307844490e+001dB,1.78294743062174e+002°)
3.52100520168456e+003	(5.12151946186528e+001dB,1.78281607768227e+002°)
3.54813389233579e+003	(5.12151578936754e+001dB,1.78268371348301e+002°)
3.57547160450625e+003	(5.12151206008741e+001dB,1.78255033025078e+002°)
3.60301994866789e+003	(5.12150827314775e+001dB,1.78241592015297e+002°)
3.63078054770105e+003	(5.12150442765715e+001dB,1.78228047529701e+002°)
3.65875503699007e+003	(5.12150052271090e+001dB,1.78214398772998e+002°)
3.68694506451962e+003	(5.12149655739039e+001dB,1.78200644943817e+002°)
3.71535229097177e+003	(5.12149253076224e+001dB,1.78186785234658e+002°)
3.74397838982385e+003	(5.12148844187959e+001dB,1.78172818831844e+002°)
3.77282504744704e+003	(5.12148428978001e+001dB,1.78158744915484e+002°)
3.80189396320565e+003	(5.12148007348720e+001dB,1.78144562659415e+002°)
3.83118684955733e+003	(5.12147579200857e+001dB,1.78130271231164e+002°)
3.86070543215386e+003	(5.12147144433750e+001dB,1.78115869791893e+002°)
3.89045144994285e+003	(5.12146702945088e+001dB,1.78101357496355e+002°)
3.92042665527020e+003	(5.12146254631024e+001dB,1.78086733492851e+002°)
3.95063281398328e+003	(5.12145799386119e+001dB,1.78071996923169e+002°)
3.98107170553502e+003	(5.12145337103246e+001dB,1.78057146922547e+002°)
4.01174512308867e+003	(5.12144867673703e+001dB,1.78042182619617e+002°)
4.04265487362349e+003	(5.12144390987075e+001dB,1.78027103136358e+002°)
4.07380277804117e+003	(5.12143906931209e+001dB,1.78011907588048e+002°)
4.10519067127313e+003	(5.12143415392296e+001dB,1.77996595083207e+002°)
4.13682040238856e+003	(5.12142916254701e+001dB,1.77981164723557e+002°)
4.16869383470340e+003	(5.12142409401034e+001dB,1.77965615603960e+002°)
4.20081284589012e+003	(5.12141894712117e+001dB,1.77949946812375e+002°)
4.23317932808826e+003	(5.12141372066876e+001dB,1.77934157429801e+002°)
4.26579518801598e+003	(5.12140841342460e+001dB,1.77918246530230e+002°)
4.29866234708233e+003	(5.12140302413995e+001dB,1.77902213180588e+002°)
4.33178274150047e+003	(5.12139755154807e+001dB,1.77886056440690e+002°)
4.36515832240171e+003	(5.12139199436185e+001dB,1.77869775363180e+002°)
4.39879105595049e+003	(5.12138635127475e+001dB,1.77853368993484e+002°)
4.43268292346014e+003	(5.12138062095981e+001dB,1.77836836369748e+002°)
4.46683592150969e+003	(5.12137480206990e+001dB,1.77820176522792e+002°)
4.50125206206139e+003	(5.12136889323681e+001dB,1.77803388476053e+002°)
4.53593337257933e+003	(5.12136289307125e+001dB,1.77786471245525e+002°)
4.57088189614881e+003	(5.12135680016283e+001dB,1.77769423839711e+002°)
4.60609969159672e+003	(5.12135061307928e+001dB,1.77752245259562e+002°)
4.64158883361284e+003	(5.12134433036607e+001dB,1.77734934498424e+002°)
4.67735141287204e+003	(5.12133795054617e+001dB,1.77717490541979e+002°)
4.71338953615747e+003	(5.12133147212006e+001dB,1.77699912368193e+002°)
4.74970532648462e+003	(5.12132489356506e+001dB,1.77682198947250e+002°)
4.78630092322645e+003	(5.12131821333499e+001dB,1.77664349241503e+002°)
4.82317848223937e+003	(5.12131142985962e+001dB,1.77646362205412e+002°)
4.86034017599028e+003	(5.12130454154489e+001dB,1.77628236785486e+002°)
4.89778819368453e+003	(5.12129754677176e+001dB,1.77609971920225e+002°)
4.93552474139487e+003	(5.12129044389663e+001dB,1.77591566540058e+002°)
4.97355204219146e+003	(5.12128323125013e+001dB,1.77573019567286e+002°)
5.01187233627279e+003	(5.12127590713777e+001dB,1.77554329916025e+002°)
5.05048788109766e+003	(5.12126846983829e+001dB,1.77535496492136e+002°)
5.08940095151816e+003	(5.12126091760459e+001dB,1.77516518193176e+002°)
5.12861383991372e+003	(5.12125324866195e+001dB,1.77497393908326e+002°)
5.16812885632611e+003	(5.12124546120859e+001dB,1.77478122518337e+002°)
5.20794832859554e+003	(5.12123755341530e+001dB,1.77458702895465e+002°)
5.24807460249780e+003	(5.12122952342409e+001dB,1.77439133903410e+002°)
5.28851004188245e+003	(5.12122136934896e+001dB,1.77419414397247e+002°)
5.32925702881208e+003	(5.12121308927430e+001dB,1.77399543223374e+002°)
5.37031796370260e+003	(5.12120468125537e+001dB,1.77379519219438e+002°)
5.41169526546471e+003	(5.12119614331744e+001dB,1.77359341214275e+002°)
5.45339137164635e+003	(5.12118747345526e+001dB,1.77339008027847e+002°)
5.49540873857633e+003	(5.12117866963264e+001dB,1.77318518471174e+002°)
5.53774984150898e+003	(5.12116972978223e+001dB,1.77297871346269e+002°)
5.58041717477005e+003	(5.12116065180461e+001dB,1.77277065446076e+002°)
5.62341325190357e+003	(5.12115143356833e+001dB,1.77256099554398e+002°)
5.66674060582000e+003	(5.12114207290897e+001dB,1.77234972445836e+002°)
5.71040178894535e+003	(5.12113256762871e+001dB,1.77213682885715e+002°)
5.75439937337165e+003	(5.12112291549603e+001dB,1.77192229630025e+002°)
5.79873595100840e+003	(5.12111311424496e+001dB,1.77170611425346e+002°)
5.84341413373526e+003	(5.12110316157492e+001dB,1.77148827008785e+002°)
5.88843655355598e+003	(5.12109305514940e+001dB,1.77126875107901e+002°)
5.93380586275337e+003	(5.12108279259671e+001dB,1.77104754440643e+002°)
5.97952473404561e+003	(5.12107237150765e+001dB,1.77082463715273e+002°)
6.02559586074367e+003	(5.12106178943710e+001dB,1.77060001630302e+002°)
6.07202195690998e+003	(5.12105104390126e+001dB,1.77037366874417e+002°)
6.11880575751831e+003	(5.12104013237880e+001dB,1.77014558126409e+002°)
6.16595001861492e+003	(5.12102905230963e+001dB,1.76991574055104e+002°)
6.21345751748085e+003	(5.12101780109378e+001dB,1.76968413319288e+002°)
6.26133105279562e+003	(5.12100637609166e+001dB,1.76945074567638e+002°)
6.30957344480203e+003	(5.12099477462321e+001dB,1.76921556438648e+002°)
6.35818753547233e+003	(5.12098299396676e+001dB,1.76897857560554e+002°)
6.40717618867564e+003	(5.12097103135915e+001dB,1.76873976551263e+002°)
6.45654229034666e+003	(5.12095888399449e+001dB,1.76849912018278e+002°)
6.50628874865568e+003	(5.12094654902383e+001dB,1.76825662558624e+002°)
6.55641849417989e+003	(5.12093402355491e+001dB,1.76801226758771e+002°)
6.60693448007607e+003	(5.12092130465002e+001dB,1.76776603194561e+002°)
6.65783968225447e+003	(5.12090838932739e+001dB,1.76751790431132e+002°)
6.70913709955422e+003	(5.12089527455840e+001dB,1.76726787022840e+002°)
6.76082975391993e+003	(5.12088195726889e+001dB,1.76701591513185e+002°)
6.81292069057972e+003	(5.12086843433676e+001dB,1.76676202434729e+002°)
6.86541297822466e+003	(5.12085470259230e+001dB,1.76650618309024e+002°)
6.91830970918948e+003	(5.12084075881689e+001dB,1.76624837646531e+002°)
6.97161399963479e+003	(5.12082659974284e+001dB,1.76598858946543e+002°)
7.02532898973064e+003	(5.12081222205189e+001dB,1.76572680697103e+002°)
7.07945784384150e+003	(5.12079762237505e+001dB,1.76546301374927e+002°)
7.13400375071268e+003	(5.12078279729154e+001dB,1.76519719445327e+002°)
7.18896992365819e+003	(5.12076774332813e+001dB,1.76492933362123e+002°)
7.24435960075002e+003	(5.12075245695839e+001dB,1.76465941567568e+002°)
7.30017604500890e+003	(5.12073693460148e+001dB,1.76438742492272e+002°)
7.35642254459654e+003	(5.12072117262159e+001dB,1.76411334555102e+002°)
7.41310241300930e+003	(5.12070516732777e+001dB,1.76383716163123e+002°)
7.47021898927344e+003	(5.12068891497160e+001dB,1.76355885711501e+002°)
7.52777563814179e+003	(5.12067241174773e+001dB,1.76327841583420e+002°)
7.58577575029197e+003	(5.12065565379232e+001dB,1.76299582150009e+002°)
7.64422274252613e+003	(5.12063863718224e+001dB,1.76271105770245e+002°)
7.70312005797228e+003	(5.12062135793398e+001dB,1.76242410790879e+002°)
7.76247116628705e+003	(5.12060381200341e+001dB,1.76213495546348e+002°)
7.82227956386016e+003	(5.12058599528431e+001dB,1.76184358358688e+002°)
7.88254877402035e+003	(5.12056790360718e+001dB,1.76154997537450e+002°)
7.94328234724295e+003	(5.12054953273887e+001dB,1.76125411379613e+002°)
8.00448386135906e+003	(5.12053087838157e+001dB,1.76095598169502e+002°)
8.06615692176628e+003	(5.12051193617134e+001dB,1.76065556178694e+002°)
8.12830516164114e+003	(5.12049270167740e+001dB,1.76035283665937e+002°)
8.19093224215312e+003	(5.12047317040142e+001dB,1.76004778877059e+002°)
8.25404185268033e+003	(5.12045333777599e+001dB,1.75974040044881e+002°)
8.31763771102686e+003	(5.12043319916346e+001dB,1.75943065389127e+002°)
8.38172356364177e+003	(5.12041274985588e+001dB,1.75911853116341e+002°)
8.44630318583984e+003	(5.12039198507260e+001dB,1.75880401419785e+002°)
8.51138038202392e+003	(5.12037089996034e+001dB,1.75848708479368e+002°)
