Freq.	V(vout)
Step Information: Run=4  (Run: 4/15)
1.00000000000000e+003	(5.12011146269157e+001dB,1.79512084678361e+002°)
1.00770481413610e+003	(5.12011116635438e+001dB,1.79508325461120e+002°)
1.01546899243308e+003	(5.12011086543332e+001dB,1.79504537281663e+002°)
1.02329299228075e+003	(5.12011055985752e+001dB,1.79500719916886e+002°)
1.03117727459306e+003	(5.12011024955493e+001dB,1.79496873141965e+002°)
1.03912230383517e+003	(5.12010993445249e+001dB,1.79492996730345e+002°)
1.04712854805090e+003	(5.12010961447595e+001dB,1.79489090453728e+002°)
1.05519647889024e+003	(5.12010928954990e+001dB,1.79485154082057e+002°)
1.06332657163716e+003	(5.12010895959780e+001dB,1.79481187383503e+002°)
1.07151930523761e+003	(5.12010862454186e+001dB,1.79477190124453e+002°)
1.07977516232771e+003	(5.12010828430314e+001dB,1.79473162069494e+002°)
1.08809462926223e+003	(5.12010793880158e+001dB,1.79469102981403e+002°)
1.09647819614319e+003	(5.12010758795569e+001dB,1.79465012621127e+002°)
1.10492635684876e+003	(5.12010723168279e+001dB,1.79460890747775e+002°)
1.11343960906236e+003	(5.12010686989899e+001dB,1.79456737118599e+002°)
1.12201845430197e+003	(5.12010650251901e+001dB,1.79452551488985e+002°)
1.13066339794964e+003	(5.12010612945633e+001dB,1.79448333612432e+002°)
1.13937494928134e+003	(5.12010575062302e+001dB,1.79444083240544e+002°)
1.14815362149688e+003	(5.12010536592983e+001dB,1.79439800123012e+002°)
1.15699993175021e+003	(5.12010497528615e+001dB,1.79435484007598e+002°)
1.16591440117983e+003	(5.12010457859986e+001dB,1.79431134640125e+002°)
1.17489755493953e+003	(5.12010417577760e+001dB,1.79426751764456e+002°)
1.18394992222930e+003	(5.12010376672444e+001dB,1.79422335122484e+002°)
1.19307203632654e+003	(5.12010335134393e+001dB,1.79417884454114e+002°)
1.20226443461742e+003	(5.12010292953829e+001dB,1.79413399497249e+002°)
1.21152765862859e+003	(5.12010250120808e+001dB,1.79408879987775e+002°)
1.22086225405907e+003	(5.12010206625243e+001dB,1.79404325659544e+002°)
1.23026877081238e+003	(5.12010162456884e+001dB,1.79399736244358e+002°)
1.23974776302895e+003	(5.12010117605323e+001dB,1.79395111471956e+002°)
1.24929978911874e+003	(5.12010072059997e+001dB,1.79390451069995e+002°)
1.25892541179417e+003	(5.12010025810172e+001dB,1.79385754764037e+002°)
1.26862519810326e+003	(5.12009978844953e+001dB,1.79381022277531e+002°)
1.27839971946303e+003	(5.12009931153275e+001dB,1.79376253331797e+002°)
1.28824955169314e+003	(5.12009882723899e+001dB,1.79371447646008e+002°)
1.29817527504985e+003	(5.12009833545421e+001dB,1.79366604937179e+002°)
1.30817747426020e+003	(5.12009783606246e+001dB,1.79361724920143e+002°)
1.31825673855641e+003	(5.12009732894616e+001dB,1.79356807307540e+002°)
1.32841366171065e+003	(5.12009681398581e+001dB,1.79351851809798e+002°)
1.33864884207000e+003	(5.12009629106010e+001dB,1.79346858135116e+002°)
1.34896288259166e+003	(5.12009576004580e+001dB,1.79341825989445e+002°)
1.35935639087853e+003	(5.12009522081778e+001dB,1.79336755076477e+002°)
1.36982997921497e+003	(5.12009467324912e+001dB,1.79331645097619e+002°)
1.38038426460289e+003	(5.12009411721068e+001dB,1.79326495751982e+002°)
1.39101986879806e+003	(5.12009355257156e+001dB,1.79321306736360e+002°)
1.40173741834677e+003	(5.12009297919865e+001dB,1.79316077745216e+002°)
1.41253754462276e+003	(5.12009239695696e+001dB,1.79310808470658e+002°)
1.42342088386435e+003	(5.12009180570922e+001dB,1.79305498602428e+002°)
1.43438807721197e+003	(5.12009120531622e+001dB,1.79300147827876e+002°)
1.44543977074593e+003	(5.12009059563647e+001dB,1.79294755831949e+002°)
1.45657661552446e+003	(5.12008997652638e+001dB,1.79289322297169e+002°)
1.46779926762207e+003	(5.12008934784000e+001dB,1.79283846903613e+002°)
1.47910838816821e+003	(5.12008870942933e+001dB,1.79278329328900e+002°)
1.49050464338620e+003	(5.12008806114392e+001dB,1.79272769248162e+002°)
1.50198870463249e+003	(5.12008740283104e+001dB,1.79267166334038e+002°)
1.51356124843621e+003	(5.12008673433564e+001dB,1.79261520256642e+002°)
1.52522295653902e+003	(5.12008605550017e+001dB,1.79255830683553e+002°)
1.53697451593528e+003	(5.12008536616474e+001dB,1.79250097279791e+002°)
1.54881661891249e+003	(5.12008466616701e+001dB,1.79244319707798e+002°)
1.56074996309212e+003	(5.12008395534196e+001dB,1.79238497627420e+002°)
1.57277525147067e+003	(5.12008323352225e+001dB,1.79232630695886e+002°)
1.58489319246112e+003	(5.12008250053771e+001dB,1.79226718567784e+002°)
1.59710449993461e+003	(5.12008175621578e+001dB,1.79220760895049e+002°)
1.60940989326254e+003	(5.12008100038106e+001dB,1.79214757326936e+002°)
1.62181009735894e+003	(5.12008023285553e+001dB,1.79208707510001e+002°)
1.63430584272314e+003	(5.12007945345835e+001dB,1.79202611088081e+002°)
1.64689786548288e+003	(5.12007866200592e+001dB,1.79196467702274e+002°)
1.65958690743757e+003	(5.12007785831179e+001dB,1.79190276990916e+002°)
1.67237371610209e+003	(5.12007704218669e+001dB,1.79184038589561e+002°)
1.68525904475076e+003	(5.12007621343828e+001dB,1.79177752130960e+002°)
1.69824365246175e+003	(5.12007537187134e+001dB,1.79171417245037e+002°)
1.71132830416179e+003	(5.12007451728771e+001dB,1.79165033558871e+002°)
1.72451377067121e+003	(5.12007364948602e+001dB,1.79158600696672e+002°)
1.73780082874938e+003	(5.12007276826183e+001dB,1.79152118279760e+002°)
1.75119026114047e+003	(5.12007187340760e+001dB,1.79145585926540e+002°)
1.76468285661951e+003	(5.12007096471252e+001dB,1.79139003252485e+002°)
1.77827941003893e+003	(5.12007004196247e+001dB,1.79132369870108e+002°)
1.79198072237534e+003	(5.12006910494020e+001dB,1.79125685388944e+002°)
1.80578760077673e+003	(5.12006815342494e+001dB,1.79118949415522e+002°)
1.81970085860999e+003	(5.12006718719254e+001dB,1.79112161553348e+002°)
1.83372131550889e+003	(5.12006620601541e+001dB,1.79105321402876e+002°)
1.84784979742230e+003	(5.12006520966245e+001dB,1.79098428561489e+002°)
1.86208713666288e+003	(5.12006419789893e+001dB,1.79091482623475e+002°)
1.87643417195610e+003	(5.12006317048655e+001dB,1.79084483179999e+002°)
1.89089174848965e+003	(5.12006212718327e+001dB,1.79077429819084e+002°)
1.90546071796326e+003	(5.12006106774335e+001dB,1.79070322125586e+002°)
1.92014193863881e+003	(5.12005999191730e+001dB,1.79063159681167e+002°)
1.93493627539096e+003	(5.12005889945165e+001dB,1.79055942064273e+002°)
1.94984459975806e+003	(5.12005779008913e+001dB,1.79048668850110e+002°)
1.96486778999348e+003	(5.12005666356838e+001dB,1.79041339610616e+002°)
1.98000673111740e+003	(5.12005551962408e+001dB,1.79033953914440e+002°)
1.99526231496889e+003	(5.12005435798681e+001dB,1.79026511326914e+002°)
2.01063544025850e+003	(5.12005317838294e+001dB,1.79019011410027e+002°)
2.02612701262116e+003	(5.12005198053463e+001dB,1.79011453722404e+002°)
2.04173794466954e+003	(5.12005076415975e+001dB,1.79003837819274e+002°)
2.05746915604785e+003	(5.12004952897181e+001dB,1.78996163252448e+002°)
2.07332157348597e+003	(5.12004827467989e+001dB,1.78988429570293e+002°)
2.08929613085405e+003	(5.12004700098851e+001dB,1.78980636317703e+002°)
2.10539376921757e+003	(5.12004570759778e+001dB,1.78972783036077e+002°)
2.12161543689270e+003	(5.12004439420299e+001dB,1.78964869263285e+002°)
2.13796208950225e+003	(5.12004306049484e+001dB,1.78956894533648e+002°)
2.15443469003190e+003	(5.12004170615919e+001dB,1.78948858377909e+002°)
2.17103420888697e+003	(5.12004033087711e+001dB,1.78940760323203e+002°)
2.18776162394957e+003	(5.12003893432468e+001dB,1.78932599893032e+002°)
2.20461792063620e+003	(5.12003751617300e+001dB,1.78924376607236e+002°)
2.22160409195583e+003	(5.12003607608800e+001dB,1.78916089981966e+002°)
2.23872113856835e+003	(5.12003461373058e+001dB,1.78907739529656e+002°)
2.25597006884359e+003	(5.12003312875639e+001dB,1.78899324758992e+002°)
2.27335189892065e+003	(5.12003162081564e+001dB,1.78890845174887e+002°)
2.29086765276779e+003	(5.12003008955319e+001dB,1.78882300278450e+002°)
2.30851836224278e+003	(5.12002853460848e+001dB,1.78873689566957e+002°)
2.32630506715364e+003	(5.12002695561525e+001dB,1.78865012533823e+002°)
2.34422881531994e+003	(5.12002535220174e+001dB,1.78856268668571e+002°)
2.36229066263448e+003	(5.12002372399026e+001dB,1.78847457456803e+002°)
2.38049167312553e+003	(5.12002207059744e+001dB,1.78838578380170e+002°)
2.39883291901951e+003	(5.12002039163386e+001dB,1.78829630916342e+002°)
2.41731548080412e+003	(5.12001868670421e+001dB,1.78820614538977e+002°)
2.43594044729204e+003	(5.12001695540694e+001dB,1.78811528717693e+002°)
2.45470891568505e+003	(5.12001519733439e+001dB,1.78802372918032e+002°)
2.47362199163864e+003	(5.12001341207257e+001dB,1.78793146601433e+002°)
2.49268078932720e+003	(5.12001159920103e+001dB,1.78783849225201e+002°)
2.51188643150960e+003	(5.12000975829293e+001dB,1.78774480242474e+002°)
2.53124004959538e+003	(5.12000788891480e+001dB,1.78765039102189e+002°)
2.55074278371138e+003	(5.12000599062639e+001dB,1.78755525249054e+002°)
2.57039578276888e+003	(5.12000406298075e+001dB,1.78745938123516e+002°)
2.59020020453134e+003	(5.12000210552397e+001dB,1.78736277161723e+002°)
2.61015721568256e+003	(5.12000011779518e+001dB,1.78726541795498e+002°)
2.63026799189540e+003	(5.11999809932628e+001dB,1.78716731452301e+002°)
2.65053371790110e+003	(5.11999604964204e+001dB,1.78706845555199e+002°)
2.67095558755901e+003	(5.11999396825984e+001dB,1.78696883522830e+002°)
2.69153480392694e+003	(5.11999185468962e+001dB,1.78686844769372e+002°)
2.71227257933205e+003	(5.11998970843375e+001dB,1.78676728704506e+002°)
2.73317013544226e+003	(5.11998752898689e+001dB,1.78666534733386e+002°)
2.75422870333819e+003	(5.11998531583592e+001dB,1.78656262256600e+002°)
2.77544952358573e+003	(5.11998306845974e+001dB,1.78645910670136e+002°)
2.79683384630910e+003	(5.11998078632921e+001dB,1.78635479365352e+002°)
2.81838293126448e+003	(5.11997846890713e+001dB,1.78624967728934e+002°)
2.84009804791424e+003	(5.11997611564781e+001dB,1.78614375142864e+002°)
2.86198047550173e+003	(5.11997372599729e+001dB,1.78603700984384e+002°)
2.88403150312663e+003	(5.11997129939297e+001dB,1.78592944625961e+002°)
2.90625242982089e+003	(5.11996883526356e+001dB,1.78582105435248e+002°)
2.92864456462526e+003	(5.11996633302901e+001dB,1.78571182775049e+002°)
2.95120922666641e+003	(5.11996379210017e+001dB,1.78560176003282e+002°)
2.97394774523463e+003	(5.11996121187895e+001dB,1.78549084472943e+002°)
2.99686145986215e+003	(5.11995859175795e+001dB,1.78537907532067e+002°)
3.01995172040204e+003	(5.11995593112032e+001dB,1.78526644523690e+002°)
3.04321988710775e+003	(5.11995322933985e+001dB,1.78515294785813e+002°)
3.06666733071321e+003	(5.11995048578047e+001dB,1.78503857651364e+002°)
3.09029543251362e+003	(5.11994769979638e+001dB,1.78492332448156e+002°)
3.11410558444679e+003	(5.11994487073184e+001dB,1.78480718498852e+002°)
3.13809918917516e+003	(5.11994199792083e+001dB,1.78469015120924e+002°)
3.16227766016841e+003	(5.11993908068727e+001dB,1.78457221626615e+002°)
3.18664242178676e+003	(5.11993611834442e+001dB,1.78445337322898e+002°)
3.21119490936485e+003	(5.11993311019509e+001dB,1.78433361511436e+002°)
3.23593656929631e+003	(5.11993005553120e+001dB,1.78421293488544e+002°)
3.26086885911896e+003	(5.11992695363388e+001dB,1.78409132545146e+002°)
3.28599324760069e+003	(5.11992380377298e+001dB,1.78396877966735e+002°)
3.31131121482594e+003	(5.11992060520724e+001dB,1.78384529033333e+002°)
3.33682425228297e+003	(5.11991735718379e+001dB,1.78372085019448e+002°)
3.36253386295166e+003	(5.11991405893835e+001dB,1.78359545194032e+002°)
3.38844156139206e+003	(5.11991070969457e+001dB,1.78346908820443e+002°)
3.41454887383364e+003	(5.11990730866431e+001dB,1.78334175156398e+002°)
3.44085733826517e+003	(5.11990385504725e+001dB,1.78321343453931e+002°)
3.46736850452535e+003	(5.11990034803060e+001dB,1.78308412959353e+002°)
3.49408393439410e+003	(5.11989678678909e+001dB,1.78295382913207e+002°)
3.52100520168456e+003	(5.11989317048469e+001dB,1.78282252550222e+002°)
3.54813389233579e+003	(5.11988949826650e+001dB,1.78269021099276e+002°)
3.57547160450625e+003	(5.11988576927037e+001dB,1.78255687783343e+002°)
3.60301994866789e+003	(5.11988198261889e+001dB,1.78242251819455e+002°)
3.63078054770105e+003	(5.11987813742103e+001dB,1.78228712418656e+002°)
3.65875503699007e+003	(5.11987423277211e+001dB,1.78215068785955e+002°)
3.68694506451962e+003	(5.11987026775337e+001dB,1.78201320120282e+002°)
3.71535229097177e+003	(5.11986624143196e+001dB,1.78187465614441e+002°)
3.74397838982385e+003	(5.11986215286060e+001dB,1.78173504455066e+002°)
3.77282504744704e+003	(5.11985800107737e+001dB,1.78159435822572e+002°)
3.80189396320565e+003	(5.11985378510547e+001dB,1.78145258891110e+002°)
3.83118684955733e+003	(5.11984950395312e+001dB,1.78130972828521e+002°)
3.86070543215386e+003	(5.11984515661314e+001dB,1.78116576796284e+002°)
3.89045144994285e+003	(5.11984074206285e+001dB,1.78102069949473e+002°)
3.92042665527020e+003	(5.11983625926383e+001dB,1.78087451436709e+002°)
3.95063281398328e+003	(5.11983170716150e+001dB,1.78072720400105e+002°)
3.98107170553502e+003	(5.11982708468513e+001dB,1.78057875975226e+002°)
4.01174512308867e+003	(5.11982239074743e+001dB,1.78042917291034e+002°)
4.04265487362349e+003	(5.11981762424432e+001dB,1.78027843469840e+002°)
4.07380277804117e+003	(5.11981278405469e+001dB,1.78012653627255e+002°)
4.10519067127313e+003	(5.11980786904015e+001dB,1.77997346872140e+002°)
4.13682040238856e+003	(5.11980287804468e+001dB,1.77981922306553e+002°)
4.16869383470340e+003	(5.11979780989451e+001dB,1.77966379025701e+002°)
4.20081284589012e+003	(5.11979266339772e+001dB,1.77950716117886e+002°)
4.23317932808826e+003	(5.11978743734401e+001dB,1.77934932664456e+002°)
4.26579518801598e+003	(5.11978213050438e+001dB,1.77919027739754e+002°)
4.29866234708233e+003	(5.11977674163090e+001dB,1.77903000411059e+002°)
4.33178274150047e+003	(5.11977126945640e+001dB,1.77886849738541e+002°)
4.36515832240171e+003	(5.11976571269415e+001dB,1.77870574775205e+002°)
4.39879105595049e+003	(5.11976007003750e+001dB,1.77854174566835e+002°)
4.43268292346014e+003	(5.11975434015984e+001dB,1.77837648151945e+002°)
4.46683592150969e+003	(5.11974852171386e+001dB,1.77820994561721e+002°)
4.50125206206139e+003	(5.11974261333170e+001dB,1.77804212819969e+002°)
4.53593337257933e+003	(5.11973661362422e+001dB,1.77787301943057e+002°)
4.57088189614881e+003	(5.11973052118091e+001dB,1.77770260939864e+002°)
4.60609969159672e+003	(5.11972433456963e+001dB,1.77753088811719e+002°)
4.64158883361284e+003	(5.11971805233600e+001dB,1.77735784552350e+002°)
4.67735141287204e+003	(5.11971167300329e+001dB,1.77718347147824e+002°)
4.71338953615747e+003	(5.11970519507200e+001dB,1.77700775576493e+002°)
4.74970532648462e+003	(5.11969861701943e+001dB,1.77683068808934e+002°)
4.78630092322645e+003	(5.11969193729959e+001dB,1.77665225807893e+002°)
4.82317848223937e+003	(5.11968515434247e+001dB,1.77647245528227e+002°)
4.86034017599028e+003	(5.11967826655398e+001dB,1.77629126916844e+002°)
4.89778819368453e+003	(5.11967127231536e+001dB,1.77610868912647e+002°)
4.93552474139487e+003	(5.11966416998303e+001dB,1.77592470446471e+002°)
4.97355204219146e+003	(5.11965695788799e+001dB,1.77573930441028e+002°)
5.01187233627279e+003	(5.11964963433548e+001dB,1.77555247810844e+002°)
5.05048788109766e+003	(5.11964219760474e+001dB,1.77536421462199e+002°)
5.08940095151816e+003	(5.11963464594841e+001dB,1.77517450293065e+002°)
5.12861383991372e+003	(5.11962697759222e+001dB,1.77498333193048e+002°)
5.16812885632611e+003	(5.11961919073457e+001dB,1.77479069043323e+002°)
5.20794832859554e+003	(5.11961128354615e+001dB,1.77459656716577e+002°)
5.24807460249780e+003	(5.11960325416939e+001dB,1.77440095076938e+002°)
5.28851004188245e+003	(5.11959510071812e+001dB,1.77420382979921e+002°)
5.32925702881208e+003	(5.11958682127723e+001dB,1.77400519272361e+002°)
5.37031796370260e+003	(5.11957841390192e+001dB,1.77380502792346e+002°)
5.41169526546471e+003	(5.11956987661761e+001dB,1.77360332369160e+002°)
5.45339137164635e+003	(5.11956120741921e+001dB,1.77340006823213e+002°)
5.49540873857633e+003	(5.11955240427080e+001dB,1.77319524965978e+002°)
5.53774984150898e+003	(5.11954346510511e+001dB,1.77298885599926e+002°)
5.58041717477005e+003	(5.11953438782297e+001dB,1.77278087518458e+002°)
5.62341325190357e+003	(5.11952517029300e+001dB,1.77257129505842e+002°)
5.66674060582000e+003	(5.11951581035091e+001dB,1.77236010337144e+002°)
5.71040178894535e+003	(5.11950630579918e+001dB,1.77214728778164e+002°)
5.75439937337165e+003	(5.11949665440643e+001dB,1.77193283585364e+002°)
5.79873595100840e+003	(5.11948685390687e+001dB,1.77171673505802e+002°)
5.84341413373526e+003	(5.11947690199998e+001dB,1.77149897277065e+002°)
5.88843655355598e+003	(5.11946679634973e+001dB,1.77127953627202e+002°)
5.93380586275337e+003	(5.11945653458415e+001dB,1.77105841274647e+002°)
5.97952473404561e+003	(5.11944611429482e+001dB,1.77083558928159e+002°)
6.02559586074367e+003	(5.11943553303621e+001dB,1.77061105286744e+002°)
6.07202195690998e+003	(5.11942478832526e+001dB,1.77038479039590e+002°)
6.11880575751831e+003	(5.11941387764059e+001dB,1.77015678865994e+002°)
6.16595001861492e+003	(5.11940279842216e+001dB,1.76992703435289e+002°)
6.21345751748085e+003	(5.11939154807048e+001dB,1.76969551406776e+002°)
6.26133105279562e+003	(5.11938012394611e+001dB,1.76946221429649e+002°)
6.30957344480203e+003	(5.11936852336902e+001dB,1.76922712142920e+002°)
6.35818753547233e+003	(5.11935674361799e+001dB,1.76899022175353e+002°)
6.40717618867564e+003	(5.11934478192992e+001dB,1.76875150145382e+002°)
6.45654229034666e+003	(5.11933263549925e+001dB,1.76851094661046e+002°)
6.50628874865568e+003	(5.11932030147737e+001dB,1.76826854319904e+002°)
6.55641849417989e+003	(5.11930777697177e+001dB,1.76802427708971e+002°)
6.60693448007607e+003	(5.11929505904556e+001dB,1.76777813404634e+002°)
6.65783968225447e+003	(5.11928214471670e+001dB,1.76753009972579e+002°)
6.70913709955422e+003	(5.11926903095736e+001dB,1.76728015967720e+002°)
6.76082975391993e+003	(5.11925571469313e+001dB,1.76702829934112e+002°)
6.81292069057972e+003	(5.11924219280244e+001dB,1.76677450404884e+002°)
6.86541297822466e+003	(5.11922846211575e+001dB,1.76651875902153e+002°)
6.91830970918948e+003	(5.11921451941478e+001dB,1.76626104936955e+002°)
6.97161399963479e+003	(5.11920036143194e+001dB,1.76600136009157e+002°)
7.02532898973064e+003	(5.11918598484937e+001dB,1.76573967607384e+002°)
7.07945784384150e+003	(5.11917138629834e+001dB,1.76547598208939e+002°)
7.13400375071268e+003	(5.11915656235835e+001dB,1.76521026279722e+002°)
7.18896992365819e+003	(5.11914150955648e+001dB,1.76494250274150e+002°)
7.24435960075002e+003	(5.11912622436635e+001dB,1.76467268635077e+002°)
7.30017604500890e+003	(5.11911070320765e+001dB,1.76440079793713e+002°)
7.35642254459654e+003	(5.11909494244502e+001dB,1.76412682169539e+002°)
7.41310241300930e+003	(5.11907893838733e+001dB,1.76385074170232e+002°)
7.47021898927344e+003	(5.11906268728695e+001dB,1.76357254191575e+002°)
7.52777563814179e+003	(5.11904618533857e+001dB,1.76329220617380e+002°)
7.58577575029197e+003	(5.11902942867867e+001dB,1.76300971819401e+002°)
7.64422274252613e+003	(5.11901241338441e+001dB,1.76272506157250e+002°)
7.70312005797228e+003	(5.11899513547289e+001dB,1.76243821978318e+002°)
7.76247116628705e+003	(5.11897759090012e+001dB,1.76214917617684e+002°)
7.82227956386016e+003	(5.11895977556002e+001dB,1.76185791398032e+002°)
7.88254877402035e+003	(5.11894168528374e+001dB,1.76156441629568e+002°)
7.94328234724295e+003	(5.11892331583848e+001dB,1.76126866609931e+002°)
8.00448386135906e+003	(5.11890466292654e+001dB,1.76097064624109e+002°)
8.06615692176628e+003	(5.11888572218454e+001dB,1.76067033944349e+002°)
8.12830516164114e+003	(5.11886648918205e+001dB,1.76036772830074e+002°)
8.19093224215312e+003	(5.11884695942093e+001dB,1.76006279527793e+002°)
8.25404185268033e+003	(5.11882712833421e+001dB,1.75975552271010e+002°)
8.31763771102686e+003	(5.11880699128490e+001dB,1.75944589280144e+002°)
8.38172356364177e+003	(5.11878654356506e+001dB,1.75913388762431e+002°)
8.44630318583984e+003	(5.11876578039475e+001dB,1.75881948911840e+002°)
8.51138038202392e+003	(5.11874469692081e+001dB,1.75850267908981e+002°)
