Freq.	V(vout)
Step Information: Run=14  (Run: 14/15)
1.00000000000000e+003	(5.10297153177062e+001dB,1.79518833284159e+002°)
1.00770481413610e+003	(5.10297124419407e+001dB,1.79515126060437e+002°)
1.01546899243308e+003	(5.10297095216924e+001dB,1.79511390275025e+002°)
1.02329299228075e+003	(5.10297065562719e+001dB,1.79507625707900e+002°)
1.03117727459306e+003	(5.10297035449820e+001dB,1.79503832137350e+002°)
1.03912230383517e+003	(5.10297004871123e+001dB,1.79500009339949e+002°)
1.04712854805090e+003	(5.10296973819429e+001dB,1.79496157090556e+002°)
1.05519647889024e+003	(5.10296942287404e+001dB,1.79492275162294e+002°)
1.06332657163716e+003	(5.10296910267632e+001dB,1.79488363326540e+002°)
1.07151930523761e+003	(5.10296877752563e+001dB,1.79484421352908e+002°)
1.07977516232771e+003	(5.10296844734560e+001dB,1.79480449009241e+002°)
1.08809462926223e+003	(5.10296811205813e+001dB,1.79476446061594e+002°)
1.09647819614319e+003	(5.10296777158441e+001dB,1.79472412274220e+002°)
1.10492635684876e+003	(5.10296742584394e+001dB,1.79468347409555e+002°)
1.11343960906236e+003	(5.10296707475557e+001dB,1.79464251228209e+002°)
1.12201845430197e+003	(5.10296671823649e+001dB,1.79460123488948e+002°)
1.13066339794964e+003	(5.10296635620255e+001dB,1.79455963948679e+002°)
1.13937494928134e+003	(5.10296598856887e+001dB,1.79451772362438e+002°)
1.14815362149688e+003	(5.10296561524848e+001dB,1.79447548483377e+002°)
1.15699993175021e+003	(5.10296523615325e+001dB,1.79443292062744e+002°)
1.16591440117983e+003	(5.10296485119433e+001dB,1.79439002849874e+002°)
1.17489755493953e+003	(5.10296446028055e+001dB,1.79434680592172e+002°)
1.18394992222930e+003	(5.10296406332031e+001dB,1.79430325035098e+002°)
1.19307203632654e+003	(5.10296366021974e+001dB,1.79425935922152e+002°)
1.20226443461742e+003	(5.10296325088387e+001dB,1.79421512994859e+002°)
1.21152765862859e+003	(5.10296283521637e+001dB,1.79417055992756e+002°)
1.22086225405907e+003	(5.10296241311920e+001dB,1.79412564653371e+002°)
1.23026877081238e+003	(5.10296198449315e+001dB,1.79408038712215e+002°)
1.23974776302895e+003	(5.10296154923705e+001dB,1.79403477902762e+002°)
1.24929978911874e+003	(5.10296110724822e+001dB,1.79398881956432e+002°)
1.25892541179417e+003	(5.10296065842270e+001dB,1.79394250602581e+002°)
1.26862519810326e+003	(5.10296020265483e+001dB,1.79389583568478e+002°)
1.27839971946303e+003	(5.10295973983697e+001dB,1.79384880579295e+002°)
1.28824955169314e+003	(5.10295926986037e+001dB,1.79380141358087e+002°)
1.29817527504985e+003	(5.10295879261418e+001dB,1.79375365625778e+002°)
1.30817747426020e+003	(5.10295830798575e+001dB,1.79370553101144e+002°)
1.31825673855641e+003	(5.10295781586115e+001dB,1.79365703500793e+002°)
1.32841366171065e+003	(5.10295731612447e+001dB,1.79360816539157e+002°)
1.33864884207000e+003	(5.10295680865778e+001dB,1.79355891928466e+002°)
1.34896288259166e+003	(5.10295629334177e+001dB,1.79350929378735e+002°)
1.35935639087853e+003	(5.10295577005488e+001dB,1.79345928597750e+002°)
1.36982997921497e+003	(5.10295523867360e+001dB,1.79340889291043e+002°)
1.38038426460289e+003	(5.10295469907326e+001dB,1.79335811161884e+002°)
1.39101986879806e+003	(5.10295415112630e+001dB,1.79330693911258e+002°)
1.40173741834677e+003	(5.10295359470373e+001dB,1.79325537237846e+002°)
1.41253754462276e+003	(5.10295302967462e+001dB,1.79320340838013e+002°)
1.42342088386435e+003	(5.10295245590558e+001dB,1.79315104405785e+002°)
1.43438807721197e+003	(5.10295187326187e+001dB,1.79309827632834e+002°)
1.44543977074593e+003	(5.10295128160571e+001dB,1.79304510208460e+002°)
1.45657661552446e+003	(5.10295068079798e+001dB,1.79299151819570e+002°)
1.46779926762207e+003	(5.10295007069709e+001dB,1.79293752150663e+002°)
1.47910838816821e+003	(5.10294945115940e+001dB,1.79288310883808e+002°)
1.49050464338620e+003	(5.10294882203899e+001dB,1.79282827698630e+002°)
1.50198870463249e+003	(5.10294818318732e+001dB,1.79277302272287e+002°)
1.51356124843621e+003	(5.10294753445427e+001dB,1.79271734279452e+002°)
1.52522295653902e+003	(5.10294687568663e+001dB,1.79266123392296e+002°)
1.53697451593528e+003	(5.10294620672954e+001dB,1.79260469280465e+002°)
1.54881661891249e+003	(5.10294552742532e+001dB,1.79254771611067e+002°)
1.56074996309212e+003	(5.10294483761392e+001dB,1.79249030048645e+002°)
1.57277525147067e+003	(5.10294413713286e+001dB,1.79243244255162e+002°)
1.58489319246112e+003	(5.10294342581691e+001dB,1.79237413889979e+002°)
1.59710449993461e+003	(5.10294270349871e+001dB,1.79231538609838e+002°)
1.60940989326254e+003	(5.10294197000804e+001dB,1.79225618068838e+002°)
1.62181009735894e+003	(5.10294122517217e+001dB,1.79219651918417e+002°)
1.63430584272314e+003	(5.10294046881571e+001dB,1.79213639807334e+002°)
1.64689786548288e+003	(5.10293970076013e+001dB,1.79207581381641e+002°)
1.65958690743757e+003	(5.10293892082485e+001dB,1.79201476284670e+002°)
1.67237371610209e+003	(5.10293812882599e+001dB,1.79195324157009e+002°)
1.68525904475076e+003	(5.10293732457684e+001dB,1.79189124636479e+002°)
1.69824365246175e+003	(5.10293650788840e+001dB,1.79182877358117e+002°)
1.71132830416179e+003	(5.10293567856774e+001dB,1.79176581954152e+002°)
1.72451377067121e+003	(5.10293483641989e+001dB,1.79170238053983e+002°)
1.73780082874938e+003	(5.10293398124631e+001dB,1.79163845284159e+002°)
1.75119026114047e+003	(5.10293311284557e+001dB,1.79157403268355e+002°)
1.76468285661951e+003	(5.10293223101314e+001dB,1.79150911627354e+002°)
1.77827941003893e+003	(5.10293133554120e+001dB,1.79144369979019e+002°)
1.79198072237534e+003	(5.10293042621875e+001dB,1.79137777938277e+002°)
1.80578760077673e+003	(5.10292950283191e+001dB,1.79131135117089e+002°)
1.81970085860999e+003	(5.10292856516292e+001dB,1.79124441124436e+002°)
1.83372131550889e+003	(5.10292761299086e+001dB,1.79117695566290e+002°)
1.84784979742230e+003	(5.10292664609147e+001dB,1.79110898045592e+002°)
1.86208713666288e+003	(5.10292566423729e+001dB,1.79104048162229e+002°)
1.87643417195610e+003	(5.10292466719673e+001dB,1.79097145513012e+002°)
1.89089174848965e+003	(5.10292365473499e+001dB,1.79090189691653e+002°)
1.90546071796326e+003	(5.10292262661358e+001dB,1.79083180288736e+002°)
1.92014193863881e+003	(5.10292158259037e+001dB,1.79076116891700e+002°)
1.93493627539096e+003	(5.10292052241938e+001dB,1.79068999084809e+002°)
1.94984459975806e+003	(5.10291944585096e+001dB,1.79061826449134e+002°)
1.96486778999348e+003	(5.10291835263147e+001dB,1.79054598562522e+002°)
1.98000673111740e+003	(5.10291724250352e+001dB,1.79047314999573e+002°)
1.99526231496889e+003	(5.10291611520546e+001dB,1.79039975331621e+002°)
2.01063544025850e+003	(5.10291497047208e+001dB,1.79032579126700e+002°)
2.02612701262116e+003	(5.10291380803338e+001dB,1.79025125949525e+002°)
2.04173794466954e+003	(5.10291262761571e+001dB,1.79017615361464e+002°)
2.05746915604785e+003	(5.10291142894098e+001dB,1.79010046920515e+002°)
2.07332157348597e+003	(5.10291021172714e+001dB,1.79002420181276e+002°)
2.08929613085405e+003	(5.10290897568690e+001dB,1.78994734694921e+002°)
2.10539376921757e+003	(5.10290772052990e+001dB,1.78986990009177e+002°)
2.12161543689270e+003	(5.10290644596009e+001dB,1.78979185668292e+002°)
2.13796208950225e+003	(5.10290515167728e+001dB,1.78971321213013e+002°)
2.15443469003190e+003	(5.10290383737658e+001dB,1.78963396180554e+002°)
2.17103420888697e+003	(5.10290250274867e+001dB,1.78955410104577e+002°)
2.18776162394957e+003	(5.10290114747899e+001dB,1.78947362515157e+002°)
2.20461792063620e+003	(5.10289977124850e+001dB,1.78939252938758e+002°)
2.22160409195583e+003	(5.10289837373303e+001dB,1.78931080898208e+002°)
2.23872113856835e+003	(5.10289695460345e+001dB,1.78922845912663e+002°)
2.25597006884359e+003	(5.10289551352545e+001dB,1.78914547497589e+002°)
2.27335189892065e+003	(5.10289405015990e+001dB,1.78906185164727e+002°)
2.29086765276779e+003	(5.10289256416174e+001dB,1.78897758422068e+002°)
2.30851836224278e+003	(5.10289105518136e+001dB,1.78889266773821e+002°)
2.32630506715364e+003	(5.10288952286339e+001dB,1.78880709720388e+002°)
2.34422881531994e+003	(5.10288796684671e+001dB,1.78872086758331e+002°)
2.36229066263448e+003	(5.10288638676517e+001dB,1.78863397380347e+002°)
2.38049167312553e+003	(5.10288478224646e+001dB,1.78854641075235e+002°)
2.39883291901951e+003	(5.10288315291261e+001dB,1.78845817327867e+002°)
2.41731548080412e+003	(5.10288149838026e+001dB,1.78836925619158e+002°)
2.43594044729204e+003	(5.10287981825960e+001dB,1.78827965426039e+002°)
2.45470891568505e+003	(5.10287811215510e+001dB,1.78818936221422e+002°)
2.47362199163864e+003	(5.10287637966473e+001dB,1.78809837474170e+002°)
2.49268078932720e+003	(5.10287462038069e+001dB,1.78800668649069e+002°)
2.51188643150960e+003	(5.10287283388885e+001dB,1.78791429206795e+002°)
2.53124004959538e+003	(5.10287101976813e+001dB,1.78782118603883e+002°)
2.55074278371138e+003	(5.10286917759190e+001dB,1.78772736292695e+002°)
2.57039578276888e+003	(5.10286730692587e+001dB,1.78763281721387e+002°)
2.59020020453134e+003	(5.10286540732973e+001dB,1.78753754333881e+002°)
2.61015721568256e+003	(5.10286347835627e+001dB,1.78744153569829e+002°)
2.63026799189540e+003	(5.10286151955126e+001dB,1.78734478864582e+002°)
2.65053371790110e+003	(5.10285953045348e+001dB,1.78724729649156e+002°)
2.67095558755901e+003	(5.10285751059440e+001dB,1.78714905350199e+002°)
2.69153480392694e+003	(5.10285545949858e+001dB,1.78705005389962e+002°)
2.71227257933205e+003	(5.10285337668318e+001dB,1.78695029186260e+002°)
2.73317013544226e+003	(5.10285126165752e+001dB,1.78684976152438e+002°)
2.75422870333819e+003	(5.10284911392396e+001dB,1.78674845697344e+002°)
2.77544952358573e+003	(5.10284693297660e+001dB,1.78664637225287e+002°)
2.79683384630910e+003	(5.10284471830198e+001dB,1.78654350136005e+002°)
2.81838293126448e+003	(5.10284246937874e+001dB,1.78643983824634e+002°)
2.84009804791424e+003	(5.10284018567739e+001dB,1.78633537681666e+002°)
2.86198047550173e+003	(5.10283786666018e+001dB,1.78623011092921e+002°)
2.88403150312663e+003	(5.10283551178124e+001dB,1.78612403439505e+002°)
2.90625242982089e+003	(5.10283312048627e+001dB,1.78601714097778e+002°)
2.92864456462526e+003	(5.10283069221222e+001dB,1.78590942439318e+002°)
2.95120922666641e+003	(5.10282822638724e+001dB,1.78580087830883e+002°)
2.97394774523463e+003	(5.10282572243096e+001dB,1.78569149634375e+002°)
2.99686145986215e+003	(5.10282317975405e+001dB,1.78558127206803e+002°)
3.01995172040204e+003	(5.10282059775796e+001dB,1.78547019900248e+002°)
3.04321988710775e+003	(5.10281797583465e+001dB,1.78535827061820e+002°)
3.06666733071321e+003	(5.10281531336705e+001dB,1.78524548033628e+002°)
3.09029543251362e+003	(5.10281260972833e+001dB,1.78513182152735e+002°)
3.11410558444679e+003	(5.10280986428235e+001dB,1.78501728751124e+002°)
3.13809918917516e+003	(5.10280707638260e+001dB,1.78490187155657e+002°)
3.16227766016841e+003	(5.10280424537280e+001dB,1.78478556688041e+002°)
3.18664242178676e+003	(5.10280137058659e+001dB,1.78466836664780e+002°)
3.21119490936485e+003	(5.10279845134766e+001dB,1.78455026397146e+002°)
3.23593656929631e+003	(5.10279548696851e+001dB,1.78443125191130e+002°)
3.26086885911896e+003	(5.10279247675177e+001dB,1.78431132347409e+002°)
3.28599324760069e+003	(5.10278941998832e+001dB,1.78419047161301e+002°)
3.31131121482594e+003	(5.10278631595955e+001dB,1.78406868922729e+002°)
3.33682425228297e+003	(5.10278316393437e+001dB,1.78394596916176e+002°)
3.36253386295166e+003	(5.10277996317089e+001dB,1.78382230420644e+002°)
3.38844156139206e+003	(5.10277671291616e+001dB,1.78369768709618e+002°)
3.41454887383364e+003	(5.10277341240504e+001dB,1.78357211051017e+002°)
3.44085733826517e+003	(5.10277006086089e+001dB,1.78344556707156e+002°)
3.46736850452535e+003	(5.10276665749496e+001dB,1.78331804934703e+002°)
3.49408393439410e+003	(5.10276320150643e+001dB,1.78318954984637e+002°)
3.52100520168456e+003	(5.10275969208173e+001dB,1.78306006102203e+002°)
3.54813389233579e+003	(5.10275612839540e+001dB,1.78292957526871e+002°)
3.57547160450625e+003	(5.10275250960853e+001dB,1.78279808492290e+002°)
3.60301994866789e+003	(5.10274883486962e+001dB,1.78266558226248e+002°)
3.63078054770105e+003	(5.10274510331434e+001dB,1.78253205950622e+002°)
3.65875503699007e+003	(5.10274131406441e+001dB,1.78239750881340e+002°)
3.68694506451962e+003	(5.10273746622795e+001dB,1.78226192228331e+002°)
3.71535229097177e+003	(5.10273355890043e+001dB,1.78212529195481e+002°)
3.74397838982385e+003	(5.10272959116169e+001dB,1.78198760980590e+002°)
3.77282504744704e+003	(5.10272556207860e+001dB,1.78184886775324e+002°)
3.80189396320565e+003	(5.10272147070326e+001dB,1.78170905765167e+002°)
3.83118684955733e+003	(5.10271731607311e+001dB,1.78156817129380e+002°)
3.86070543215386e+003	(5.10271309721065e+001dB,1.78142620040948e+002°)
3.89045144994285e+003	(5.10270881312350e+001dB,1.78128313666538e+002°)
3.92042665527020e+003	(5.10270446280349e+001dB,1.78113897166446e+002°)
3.95063281398328e+003	(5.10270004522781e+001dB,1.78099369694557e+002°)
3.98107170553502e+003	(5.10269555935692e+001dB,1.78084730398289e+002°)
4.01174512308867e+003	(5.10269100413558e+001dB,1.78069978418547e+002°)
4.04265487362349e+003	(5.10268637849261e+001dB,1.78055112889677e+002°)
4.07380277804117e+003	(5.10268168133987e+001dB,1.78040132939414e+002°)
4.10519067127313e+003	(5.10267691157225e+001dB,1.78025037688833e+002°)
4.13682040238856e+003	(5.10267206806832e+001dB,1.78009826252298e+002°)
4.16869383470340e+003	(5.10266714968877e+001dB,1.77994497737415e+002°)
4.20081284589012e+003	(5.10266215527686e+001dB,1.77979051244977e+002°)
4.23317932808826e+003	(5.10265708365788e+001dB,1.77963485868917e+002°)
4.26579518801598e+003	(5.10265193363909e+001dB,1.77947800696254e+002°)
4.29866234708233e+003	(5.10264670400974e+001dB,1.77931994807043e+002°)
4.33178274150047e+003	(5.10264139353964e+001dB,1.77916067274323e+002°)
4.36515832240171e+003	(5.10263600098047e+001dB,1.77900017164062e+002°)
4.39879105595049e+003	(5.10263052506342e+001dB,1.77883843535107e+002°)
4.43268292346014e+003	(5.10262496450192e+001dB,1.77867545439131e+002°)
4.46683592150969e+003	(5.10261931798776e+001dB,1.77851121920576e+002°)
4.50125206206139e+003	(5.10261358419369e+001dB,1.77834572016604e+002°)
4.53593337257933e+003	(5.10260776177138e+001dB,1.77817894757039e+002°)
4.57088189614881e+003	(5.10260184935249e+001dB,1.77801089164314e+002°)
4.60609969159672e+003	(5.10259584554617e+001dB,1.77784154253416e+002°)
4.64158883361284e+003	(5.10258974894185e+001dB,1.77767089031829e+002°)
4.67735141287204e+003	(5.10258355810579e+001dB,1.77749892499482e+002°)
4.71338953615747e+003	(5.10257727158313e+001dB,1.77732563648689e+002°)
4.74970532648462e+003	(5.10257088789581e+001dB,1.77715101464093e+002°)
4.78630092322645e+003	(5.10256440554360e+001dB,1.77697504922610e+002°)
4.82317848223937e+003	(5.10255782300287e+001dB,1.77679772993373e+002°)
4.86034017599028e+003	(5.10255113872615e+001dB,1.77661904637674e+002°)
4.89778819368453e+003	(5.10254435114282e+001dB,1.77643898808902e+002°)
4.93552474139487e+003	(5.10253745865778e+001dB,1.77625754452488e+002°)
4.97355204219146e+003	(5.10253045965086e+001dB,1.77607470505846e+002°)
5.01187233627279e+003	(5.10252335247785e+001dB,1.77589045898314e+002°)
5.05048788109766e+003	(5.10251613546799e+001dB,1.77570479551093e+002°)
5.08940095151816e+003	(5.10250880692622e+001dB,1.77551770377188e+002°)
5.12861383991372e+003	(5.10250136513017e+001dB,1.77532917281344e+002°)
5.16812885632611e+003	(5.10249380833155e+001dB,1.77513919159993e+002°)
5.20794832859554e+003	(5.10248613475459e+001dB,1.77494774901183e+002°)
5.24807460249780e+003	(5.10247834259709e+001dB,1.77475483384526e+002°)
5.28851004188245e+003	(5.10247043002833e+001dB,1.77456043481128e+002°)
5.32925702881208e+003	(5.10246239518907e+001dB,1.77436454053528e+002°)
5.37031796370260e+003	(5.10245423619265e+001dB,1.77416713955641e+002°)
5.41169526546471e+003	(5.10244595112211e+001dB,1.77396822032688e+002°)
5.45339137164635e+003	(5.10243753803202e+001dB,1.77376777121134e+002°)
5.49540873857633e+003	(5.10242899494588e+001dB,1.77356578048624e+002°)
5.53774984150898e+003	(5.10242031985770e+001dB,1.77336223633922e+002°)
5.58041717477005e+003	(5.10241151073008e+001dB,1.77315712686839e+002°)
5.62341325190357e+003	(5.10240256549458e+001dB,1.77295044008173e+002°)
5.66674060582000e+003	(5.10239348205060e+001dB,1.77274216389641e+002°)
5.71040178894535e+003	(5.10238425826535e+001dB,1.77253228613815e+002°)
5.75439937337165e+003	(5.10237489197320e+001dB,1.77232079454051e+002°)
5.79873595100840e+003	(5.10236538097517e+001dB,1.77210767674426e+002°)
5.84341413373526e+003	(5.10235572303869e+001dB,1.77189292029669e+002°)
5.88843655355598e+003	(5.10234591589626e+001dB,1.77167651265091e+002°)
5.93380586275337e+003	(5.10233595724594e+001dB,1.77145844116521e+002°)
5.97952473404561e+003	(5.10232584475033e+001dB,1.77123869310232e+002°)
6.02559586074367e+003	(5.10231557603577e+001dB,1.77101725562877e+002°)
6.07202195690998e+003	(5.10230514869263e+001dB,1.77079411581414e+002°)
6.11880575751831e+003	(5.10229456027345e+001dB,1.77056926063040e+002°)
6.16595001861492e+003	(5.10228380829383e+001dB,1.77034267695120e+002°)
6.21345751748085e+003	(5.10227289023065e+001dB,1.77011435155111e+002°)
6.26133105279562e+003	(5.10226180352248e+001dB,1.76988427110499e+002°)
6.30957344480203e+003	(5.10225054556790e+001dB,1.76965242218720e+002°)
6.35818753547233e+003	(5.10223911372619e+001dB,1.76941879127091e+002°)
6.40717618867564e+003	(5.10222750531528e+001dB,1.76918336472735e+002°)
6.45654229034666e+003	(5.10221571761256e+001dB,1.76894612882510e+002°)
6.50628874865568e+003	(5.10220374785277e+001dB,1.76870706972935e+002°)
6.55641849417989e+003	(5.10219159322896e+001dB,1.76846617350116e+002°)
6.60693448007607e+003	(5.10217925089054e+001dB,1.76822342609670e+002°)
6.65783968225447e+003	(5.10216671794356e+001dB,1.76797881336650e+002°)
6.70913709955422e+003	(5.10215399144870e+001dB,1.76773232105470e+002°)
6.76082975391993e+003	(5.10214106842276e+001dB,1.76748393479835e+002°)
6.81292069057972e+003	(5.10212794583548e+001dB,1.76723364012652e+002°)
6.86541297822466e+003	(5.10211462061095e+001dB,1.76698142245964e+002°)
6.91830970918948e+003	(5.10210108962536e+001dB,1.76672726710870e+002°)
6.97161399963479e+003	(5.10208734970714e+001dB,1.76647115927446e+002°)
7.02532898973064e+003	(5.10207339763659e+001dB,1.76621308404666e+002°)
7.07945784384150e+003	(5.10205923014352e+001dB,1.76595302640328e+002°)
7.13400375071268e+003	(5.10204484390834e+001dB,1.76569097120969e+002°)
7.18896992365819e+003	(5.10203023556019e+001dB,1.76542690321791e+002°)
7.24435960075002e+003	(5.10201540167658e+001dB,1.76516080706577e+002°)
7.30017604500890e+003	(5.10200033878229e+001dB,1.76489266727612e+002°)
7.35642254459654e+003	(5.10198504334894e+001dB,1.76462246825607e+002°)
7.41310241300930e+003	(5.10196951179388e+001dB,1.76435019429608e+002°)
7.47021898927344e+003	(5.10195374047976e+001dB,1.76407582956921e+002°)
7.52777563814179e+003	(5.10193772571328e+001dB,1.76379935813032e+002°)
7.58577575029197e+003	(5.10192146374415e+001dB,1.76352076391518e+002°)
7.64422274252613e+003	(5.10190495076525e+001dB,1.76324003073967e+002°)
7.70312005797228e+003	(5.10188818291051e+001dB,1.76295714229899e+002°)
7.76247116628705e+003	(5.10187115625455e+001dB,1.76267208216673e+002°)
7.82227956386016e+003	(5.10185386681272e+001dB,1.76238483379410e+002°)
7.88254877402035e+003	(5.10183631053793e+001dB,1.76209538050907e+002°)
7.94328234724295e+003	(5.10181848332194e+001dB,1.76180370551548e+002°)
8.00448386135906e+003	(5.10180038099348e+001dB,1.76150979189224e+002°)
8.06615692176628e+003	(5.10178199931726e+001dB,1.76121362259244e+002°)
8.12830516164114e+003	(5.10176333399310e+001dB,1.76091518044247e+002°)
8.19093224215312e+003	(5.10174438065465e+001dB,1.76061444814119e+002°)
8.25404185268033e+003	(5.10172513486943e+001dB,1.76031140825903e+002°)
8.31763771102686e+003	(5.10170559213644e+001dB,1.76000604323713e+002°)
8.38172356364177e+003	(5.10168574788604e+001dB,1.75969833538643e+002°)
8.44630318583984e+003	(5.10166559747856e+001dB,1.75938826688682e+002°)
8.51138038202392e+003	(5.10164513620321e+001dB,1.75907581978623e+002°)
