Freq.	V(vout)
Step Information: Run=1  (Run: 1/15)
1.00000000000000e+003	(5.11258759634550e+001dB,1.79513500723823e+002°)
1.00770481413610e+003	(5.11258730017768e+001dB,1.79509752417435e+002°)
1.01546899243308e+003	(5.11258699942863e+001dB,1.79505975232908e+002°)
1.02329299228075e+003	(5.11258669402747e+001dB,1.79502168947785e+002°)
1.03117727459306e+003	(5.11258638390227e+001dB,1.79498333337898e+002°)
1.03912230383517e+003	(5.11258606897992e+001dB,1.79494468177348e+002°)
1.04712854805090e+003	(5.11258574918626e+001dB,1.79490573238501e+002°)
1.05519647889024e+003	(5.11258542444593e+001dB,1.79486648291967e+002°)
1.06332657163716e+003	(5.11258509468241e+001dB,1.79482693106593e+002°)
1.07151930523761e+003	(5.11258475981800e+001dB,1.79478707449442e+002°)
1.07977516232771e+003	(5.11258441977382e+001dB,1.79474691085788e+002°)
1.08809462926223e+003	(5.11258407446972e+001dB,1.79470643779093e+002°)
1.09647819614319e+003	(5.11258372382439e+001dB,1.79466565291002e+002°)
1.10492635684876e+003	(5.11258336775516e+001dB,1.79462455381322e+002°)
1.11343960906236e+003	(5.11258300617816e+001dB,1.79458313808011e+002°)
1.12201845430197e+003	(5.11258263900823e+001dB,1.79454140327165e+002°)
1.13066339794964e+003	(5.11258226615882e+001dB,1.79449934693000e+002°)
1.13937494928134e+003	(5.11258188754211e+001dB,1.79445696657842e+002°)
1.14815362149688e+003	(5.11258150306884e+001dB,1.79441425972107e+002°)
1.15699993175021e+003	(5.11258111264848e+001dB,1.79437122384293e+002°)
1.16591440117983e+003	(5.11258071618901e+001dB,1.79432785640958e+002°)
1.17489755493953e+003	(5.11258031359708e+001dB,1.79428415486712e+002°)
1.18394992222930e+003	(5.11257990477778e+001dB,1.79424011664197e+002°)
1.19307203632654e+003	(5.11257948963479e+001dB,1.79419573914075e+002°)
1.20226443461742e+003	(5.11257906807030e+001dB,1.79415101975009e+002°)
1.21152765862859e+003	(5.11257863998504e+001dB,1.79410595583652e+002°)
1.22086225405907e+003	(5.11257820527810e+001dB,1.79406054474631e+002°)
1.23026877081238e+003	(5.11257776384706e+001dB,1.79401478380526e+002°)
1.23974776302895e+003	(5.11257731558793e+001dB,1.79396867031862e+002°)
1.24929978911874e+003	(5.11257686039512e+001dB,1.79392220157089e+002°)
1.25892541179417e+003	(5.11257639816135e+001dB,1.79387537482564e+002°)
1.26862519810326e+003	(5.11257592877777e+001dB,1.79382818732540e+002°)
1.27839971946303e+003	(5.11257545213370e+001dB,1.79378063629148e+002°)
1.28824955169314e+003	(5.11257496811694e+001dB,1.79373271892377e+002°)
1.29817527504985e+003	(5.11257447661339e+001dB,1.79368443240064e+002°)
1.30817747426020e+003	(5.11257397750732e+001dB,1.79363577387871e+002°)
1.31825673855641e+003	(5.11257347068105e+001dB,1.79358674049273e+002°)
1.32841366171065e+003	(5.11257295601521e+001dB,1.79353732935540e+002°)
1.33864884207000e+003	(5.11257243338862e+001dB,1.79348753755719e+002°)
1.34896288259166e+003	(5.11257190267806e+001dB,1.79343736216616e+002°)
1.35935639087853e+003	(5.11257136375851e+001dB,1.79338680022783e+002°)
1.36982997921497e+003	(5.11257081650306e+001dB,1.79333584876497e+002°)
1.38038426460289e+003	(5.11257026078271e+001dB,1.79328450477742e+002°)
1.39101986879806e+003	(5.11256969646657e+001dB,1.79323276524195e+002°)
1.40173741834677e+003	(5.11256912342171e+001dB,1.79318062711205e+002°)
1.41253754462276e+003	(5.11256854151311e+001dB,1.79312808731777e+002°)
1.42342088386435e+003	(5.11256795060364e+001dB,1.79307514276553e+002°)
1.43438807721197e+003	(5.11256735055415e+001dB,1.79302179033794e+002°)
1.44543977074593e+003	(5.11256674122325e+001dB,1.79296802689363e+002°)
1.45657661552446e+003	(5.11256612246737e+001dB,1.79291384926703e+002°)
1.46779926762207e+003	(5.11256549414074e+001dB,1.79285925426823e+002°)
1.47910838816821e+003	(5.11256485609539e+001dB,1.79280423868278e+002°)
1.49050464338620e+003	(5.11256420818094e+001dB,1.79274879927146e+002°)
1.50198870463249e+003	(5.11256355024480e+001dB,1.79269293277016e+002°)
1.51356124843621e+003	(5.11256288213194e+001dB,1.79263663588964e+002°)
1.52522295653902e+003	(5.11256220368497e+001dB,1.79257990531533e+002°)
1.53697451593528e+003	(5.11256151474405e+001dB,1.79252273770719e+002°)
1.54881661891249e+003	(5.11256081514692e+001dB,1.79246512969945e+002°)
1.56074996309212e+003	(5.11256010472873e+001dB,1.79240707790046e+002°)
1.57277525147067e+003	(5.11255938332216e+001dB,1.79234857889247e+002°)
1.58489319246112e+003	(5.11255865075723e+001dB,1.79228962923143e+002°)
1.59710449993461e+003	(5.11255790686136e+001dB,1.79223022544679e+002°)
1.60940989326254e+003	(5.11255715145931e+001dB,1.79217036404131e+002°)
1.62181009735894e+003	(5.11255638437314e+001dB,1.79211004149083e+002°)
1.63430584272314e+003	(5.11255560542217e+001dB,1.79204925424409e+002°)
1.64689786548288e+003	(5.11255481442288e+001dB,1.79198799872250e+002°)
1.65958690743757e+003	(5.11255401118891e+001dB,1.79192627131994e+002°)
1.67237371610209e+003	(5.11255319553105e+001dB,1.79186406840256e+002°)
1.68525904475076e+003	(5.11255236725717e+001dB,1.79180138630854e+002°)
1.69824365246175e+003	(5.11255152617218e+001dB,1.79173822134789e+002°)
1.71132830416179e+003	(5.11255067207789e+001dB,1.79167456980227e+002°)
1.72451377067121e+003	(5.11254980477314e+001dB,1.79161042792469e+002°)
1.73780082874938e+003	(5.11254892405365e+001dB,1.79154579193937e+002°)
1.75119026114047e+003	(5.11254802971192e+001dB,1.79148065804149e+002°)
1.76468285661951e+003	(5.11254712153729e+001dB,1.79141502239693e+002°)
1.77827941003893e+003	(5.11254619931581e+001dB,1.79134888114213e+002°)
1.79198072237534e+003	(5.11254526283026e+001dB,1.79128223038377e+002°)
1.80578760077673e+003	(5.11254431186005e+001dB,1.79121506619862e+002°)
1.81970085860999e+003	(5.11254334618117e+001dB,1.79114738463327e+002°)
1.83372131550889e+003	(5.11254236556615e+001dB,1.79107918170389e+002°)
1.84784979742230e+003	(5.11254136978401e+001dB,1.79101045339603e+002°)
1.86208713666288e+003	(5.11254035860015e+001dB,1.79094119566436e+002°)
1.87643417195610e+003	(5.11253933177647e+001dB,1.79087140443245e+002°)
1.89089174848965e+003	(5.11253828907102e+001dB,1.79080107559253e+002°)
1.90546071796326e+003	(5.11253723023826e+001dB,1.79073020500523e+002°)
1.92014193863881e+003	(5.11253615502872e+001dB,1.79065878849935e+002°)
1.93493627539096e+003	(5.11253506318917e+001dB,1.79058682187163e+002°)
1.94984459975806e+003	(5.11253395446248e+001dB,1.79051430088649e+002°)
1.96486778999348e+003	(5.11253282858744e+001dB,1.79044122127579e+002°)
1.98000673111740e+003	(5.11253168529884e+001dB,1.79036757873856e+002°)
1.99526231496889e+003	(5.11253052432750e+001dB,1.79029336894079e+002°)
2.01063544025850e+003	(5.11252934539986e+001dB,1.79021858751512e+002°)
2.02612701262116e+003	(5.11252814823830e+001dB,1.79014323006066e+002°)
2.04173794466954e+003	(5.11252693256083e+001dB,1.79006729214264e+002°)
2.05746915604785e+003	(5.11252569808115e+001dB,1.78999076929225e+002°)
2.07332157348597e+003	(5.11252444450847e+001dB,1.78991365700630e+002°)
2.08929613085405e+003	(5.11252317154750e+001dB,1.78983595074699e+002°)
2.10539376921757e+003	(5.11252187889854e+001dB,1.78975764594166e+002°)
2.12161543689270e+003	(5.11252056625706e+001dB,1.78967873798248e+002°)
2.13796208950225e+003	(5.11251923331392e+001dB,1.78959922222624e+002°)
2.15443469003190e+003	(5.11251787975518e+001dB,1.78951909399402e+002°)
2.17103420888697e+003	(5.11251650526204e+001dB,1.78943834857097e+002°)
2.18776162394957e+003	(5.11251510951082e+001dB,1.78935698120597e+002°)
2.20461792063620e+003	(5.11251369217278e+001dB,1.78927498711144e+002°)
2.22160409195583e+003	(5.11251225291411e+001dB,1.78919236146298e+002°)
2.23872113856835e+003	(5.11251079139591e+001dB,1.78910909939913e+002°)
2.25597006884359e+003	(5.11250930727390e+001dB,1.78902519602108e+002°)
2.27335189892065e+003	(5.11250780019857e+001dB,1.78894064639240e+002°)
2.29086765276779e+003	(5.11250626981507e+001dB,1.78885544553872e+002°)
2.30851836224278e+003	(5.11250471576294e+001dB,1.78876958844745e+002°)
2.32630506715364e+003	(5.11250313767618e+001dB,1.78868307006750e+002°)
2.34422881531994e+003	(5.11250153518321e+001dB,1.78859588530901e+002°)
2.36229066263448e+003	(5.11249990790662e+001dB,1.78850802904298e+002°)
2.38049167312553e+003	(5.11249825546317e+001dB,1.78841949610104e+002°)
2.39883291901951e+003	(5.11249657746382e+001dB,1.78833028127513e+002°)
2.41731548080412e+003	(5.11249487351335e+001dB,1.78824037931718e+002°)
2.43594044729204e+003	(5.11249314321049e+001dB,1.78814978493883e+002°)
2.45470891568505e+003	(5.11249138614781e+001dB,1.78805849281110e+002°)
2.47362199163864e+003	(5.11248960191159e+001dB,1.78796649756410e+002°)
2.49268078932720e+003	(5.11248779008162e+001dB,1.78787379378670e+002°)
2.51188643150960e+003	(5.11248595023130e+001dB,1.78778037602623e+002°)
2.53124004959538e+003	(5.11248408192735e+001dB,1.78768623878816e+002°)
2.55074278371138e+003	(5.11248218472993e+001dB,1.78759137653577e+002°)
2.57039578276888e+003	(5.11248025819224e+001dB,1.78749578368985e+002°)
2.59020020453134e+003	(5.11247830186064e+001dB,1.78739945462835e+002°)
2.61015721568256e+003	(5.11247631527451e+001dB,1.78730238368608e+002°)
2.63026799189540e+003	(5.11247429796614e+001dB,1.78720456515435e+002°)
2.65053371790110e+003	(5.11247224946051e+001dB,1.78710599328068e+002°)
2.67095558755901e+003	(5.11247016927523e+001dB,1.78700666226842e+002°)
2.69153480392694e+003	(5.11246805692061e+001dB,1.78690656627646e+002°)
2.71227257933205e+003	(5.11246591189926e+001dB,1.78680569941886e+002°)
2.73317013544226e+003	(5.11246373370613e+001dB,1.78670405576452e+002°)
2.75422870333819e+003	(5.11246152182843e+001dB,1.78660162933682e+002°)
2.77544952358573e+003	(5.11245927574536e+001dB,1.78649841411332e+002°)
2.79683384630910e+003	(5.11245699492817e+001dB,1.78639440402534e+002°)
2.81838293126448e+003	(5.11245467883978e+001dB,1.78628959295768e+002°)
2.84009804791424e+003	(5.11245232693505e+001dB,1.78618397474823e+002°)
2.86198047550173e+003	(5.11244993866020e+001dB,1.78607754318759e+002°)
2.88403150312663e+003	(5.11244751345296e+001dB,1.78597029201879e+002°)
2.90625242982089e+003	(5.11244505074249e+001dB,1.78586221493682e+002°)
2.92864456462526e+003	(5.11244254994894e+001dB,1.78575330558837e+002°)
2.95120922666641e+003	(5.11244001048364e+001dB,1.78564355757139e+002°)
2.97394774523463e+003	(5.11243743174877e+001dB,1.78553296443475e+002°)
2.99686145986215e+003	(5.11243481313729e+001dB,1.78542151967787e+002°)
3.01995172040204e+003	(5.11243215403278e+001dB,1.78530921675033e+002°)
3.04321988710775e+003	(5.11242945380928e+001dB,1.78519604905150e+002°)
3.06666733071321e+003	(5.11242671183125e+001dB,1.78508200993018e+002°)
3.09029543251362e+003	(5.11242392745317e+001dB,1.78496709268416e+002°)
3.11410558444679e+003	(5.11242110001967e+001dB,1.78485129055989e+002°)
3.13809918917516e+003	(5.11241822886525e+001dB,1.78473459675207e+002°)
3.16227766016841e+003	(5.11241531331410e+001dB,1.78461700440326e+002°)
3.18664242178676e+003	(5.11241235267996e+001dB,1.78449850660347e+002°)
3.21119490936485e+003	(5.11240934626603e+001dB,1.78437909638979e+002°)
3.23593656929631e+003	(5.11240629336469e+001dB,1.78425876674597e+002°)
3.26086885911896e+003	(5.11240319325742e+001dB,1.78413751060200e+002°)
3.28599324760069e+003	(5.11240004521455e+001dB,1.78401532083375e+002°)
3.31131121482594e+003	(5.11239684849525e+001dB,1.78389219026254e+002°)
3.33682425228297e+003	(5.11239360234714e+001dB,1.78376811165469e+002°)
3.36253386295166e+003	(5.11239030600630e+001dB,1.78364307772116e+002°)
3.38844156139206e+003	(5.11238695869697e+001dB,1.78351708111709e+002°)
3.41454887383364e+003	(5.11238355963145e+001dB,1.78339011444143e+002°)
3.44085733826517e+003	(5.11238010800976e+001dB,1.78326217023644e+002°)
3.46736850452535e+003	(5.11237660301974e+001dB,1.78313324098733e+002°)
3.49408393439410e+003	(5.11237304383664e+001dB,1.78300331912179e+002°)
3.52100520168456e+003	(5.11236942962286e+001dB,1.78287239700957e+002°)
3.54813389233579e+003	(5.11236575952796e+001dB,1.78274046696206e+002°)
3.57547160450625e+003	(5.11236203268838e+001dB,1.78260752123180e+002°)
3.60301994866789e+003	(5.11235824822722e+001dB,1.78247355201210e+002°)
3.63078054770105e+003	(5.11235440525405e+001dB,1.78233855143653e+002°)
3.65875503699007e+003	(5.11235050286462e+001dB,1.78220251157853e+002°)
3.68694506451962e+003	(5.11234654014082e+001dB,1.78206542445091e+002°)
3.71535229097177e+003	(5.11234251615029e+001dB,1.78192728200542e+002°)
3.74397838982385e+003	(5.11233842994637e+001dB,1.78178807613229e+002°)
3.77282504744704e+003	(5.11233428056766e+001dB,1.78164779865974e+002°)
3.80189396320565e+003	(5.11233006703801e+001dB,1.78150644135355e+002°)
3.83118684955733e+003	(5.11232578836622e+001dB,1.78136399591657e+002°)
3.86070543215386e+003	(5.11232144354573e+001dB,1.78122045398825e+002°)
3.89045144994285e+003	(5.11231703155447e+001dB,1.78107580714416e+002°)
3.92042665527020e+003	(5.11231255135463e+001dB,1.78093004689555e+002°)
3.95063281398328e+003	(5.11230800189228e+001dB,1.78078316468877e+002°)
3.98107170553502e+003	(5.11230338209739e+001dB,1.78063515190491e+002°)
4.01174512308867e+003	(5.11229869088325e+001dB,1.78048599985920e+002°)
4.04265487362349e+003	(5.11229392714651e+001dB,1.78033569980060e+002°)
4.07380277804117e+003	(5.11228908976670e+001dB,1.78018424291123e+002°)
4.10519067127313e+003	(5.11228417760613e+001dB,1.78003162030595e+002°)
4.13682040238856e+003	(5.11227918950954e+001dB,1.77987782303177e+002°)
4.16869383470340e+003	(5.11227412430382e+001dB,1.77972284206740e+002°)
4.20081284589012e+003	(5.11226898079778e+001dB,1.77956666832275e+002°)
4.23317932808826e+003	(5.11226375778188e+001dB,1.77940929263835e+002°)
4.26579518801598e+003	(5.11225845402787e+001dB,1.77925070578490e+002°)
4.29866234708233e+003	(5.11225306828861e+001dB,1.77909089846270e+002°)
4.33178274150047e+003	(5.11224759929764e+001dB,1.77892986130117e+002°)
4.36515832240171e+003	(5.11224204576902e+001dB,1.77876758485828e+002°)
4.39879105595049e+003	(5.11223640639704e+001dB,1.77860405962003e+002°)
4.43268292346014e+003	(5.11223067985576e+001dB,1.77843927599993e+002°)
4.46683592150969e+003	(5.11222486479878e+001dB,1.77827322433843e+002°)
4.50125206206139e+003	(5.11221895985899e+001dB,1.77810589490240e+002°)
4.53593337257933e+003	(5.11221296364821e+001dB,1.77793727788460e+002°)
4.57088189614881e+003	(5.11220687475679e+001dB,1.77776736340307e+002°)
4.60609969159672e+003	(5.11220069175343e+001dB,1.77759614150063e+002°)
4.64158883361284e+003	(5.11219441318467e+001dB,1.77742360214428e+002°)
4.67735141287204e+003	(5.11218803757465e+001dB,1.77724973522469e+002°)
4.71338953615747e+003	(5.11218156342488e+001dB,1.77707453055558e+002°)
4.74970532648462e+003	(5.11217498921362e+001dB,1.77689797787317e+002°)
4.78630092322645e+003	(5.11216831339578e+001dB,1.77672006683562e+002°)
4.82317848223937e+003	(5.11216153440234e+001dB,1.77654078702242e+002°)
4.86034017599028e+003	(5.11215465064021e+001dB,1.77636012793384e+002°)
4.89778819368453e+003	(5.11214766049169e+001dB,1.77617807899034e+002°)
4.93552474139487e+003	(5.11214056231415e+001dB,1.77599462953194e+002°)
4.97355204219146e+003	(5.11213335443967e+001dB,1.77580976881770e+002°)
5.01187233627279e+003	(5.11212603517457e+001dB,1.77562348602503e+002°)
5.05048788109766e+003	(5.11211860279916e+001dB,1.77543577024918e+002°)
5.08940095151816e+003	(5.11211105556718e+001dB,1.77524661050256e+002°)
5.12861383991372e+003	(5.11210339170548e+001dB,1.77505599571418e+002°)
5.16812885632611e+003	(5.11209560941359e+001dB,1.77486391472902e+002°)
5.20794832859554e+003	(5.11208770686337e+001dB,1.77467035630738e+002°)
5.24807460249780e+003	(5.11207968219841e+001dB,1.77447530912432e+002°)
5.28851004188245e+003	(5.11207153353382e+001dB,1.77427876176899e+002°)
5.32925702881208e+003	(5.11206325895555e+001dB,1.77408070274400e+002°)
5.37031796370260e+003	(5.11205485652017e+001dB,1.77388112046482e+002°)
5.41169526546471e+003	(5.11204632425432e+001dB,1.77368000325908e+002°)
5.45339137164635e+003	(5.11203766015412e+001dB,1.77347733936600e+002°)
5.49540873857633e+003	(5.11202886218506e+001dB,1.77327311693569e+002°)
5.53774984150898e+003	(5.11201992828111e+001dB,1.77306732402852e+002°)
5.58041717477005e+003	(5.11201085634451e+001dB,1.77285994861446e+002°)
5.62341325190357e+003	(5.11200164424524e+001dB,1.77265097857242e+002°)
5.66674060582000e+003	(5.11199228982036e+001dB,1.77244040168960e+002°)
5.71040178894535e+003	(5.11198279087385e+001dB,1.77222820566078e+002°)
5.75439937337165e+003	(5.11197314517565e+001dB,1.77201437808773e+002°)
5.79873595100840e+003	(5.11196335046155e+001dB,1.77179890647841e+002°)
5.84341413373526e+003	(5.11195340443245e+001dB,1.77158177824643e+002°)
5.88843655355598e+003	(5.11194330475387e+001dB,1.77136298071024e+002°)
5.93380586275337e+003	(5.11193304905539e+001dB,1.77114250109254e+002°)
5.97952473404561e+003	(5.11192263493014e+001dB,1.77092032651950e+002°)
6.02559586074367e+003	(5.11191205993416e+001dB,1.77069644402013e+002°)
6.07202195690998e+003	(5.11190132158608e+001dB,1.77047084052555e+002°)
6.11880575751831e+003	(5.11189041736615e+001dB,1.77024350286827e+002°)
6.16595001861492e+003	(5.11187934471602e+001dB,1.77001441778152e+002°)
6.21345751748085e+003	(5.11186810103787e+001dB,1.76978357189847e+002°)
6.26133105279562e+003	(5.11185668369401e+001dB,1.76955095175159e+002°)
6.30957344480203e+003	(5.11184509000628e+001dB,1.76931654377186e+002°)
6.35818753547233e+003	(5.11183331725511e+001dB,1.76908033428805e+002°)
6.40717618867564e+003	(5.11182136267937e+001dB,1.76884230952605e+002°)
6.45654229034666e+003	(5.11180922347529e+001dB,1.76860245560804e+002°)
6.50628874865568e+003	(5.11179689679617e+001dB,1.76836075855182e+002°)
6.55641849417989e+003	(5.11178437975143e+001dB,1.76811720427002e+002°)
6.60693448007607e+003	(5.11177166940614e+001dB,1.76787177856938e+002°)
6.65783968225447e+003	(5.11175876278033e+001dB,1.76762446714998e+002°)
6.70913709955422e+003	(5.11174565684813e+001dB,1.76737525560448e+002°)
6.76082975391993e+003	(5.11173234853728e+001dB,1.76712412941735e+002°)
6.81292069057972e+003	(5.11171883472823e+001dB,1.76687107396414e+002°)
6.86541297822466e+003	(5.11170511225362e+001dB,1.76661607451065e+002°)
6.91830970918948e+003	(5.11169117789740e+001dB,1.76635911621219e+002°)
6.97161399963479e+003	(5.11167702839415e+001dB,1.76610018411278e+002°)
7.02532898973064e+003	(5.11166266042834e+001dB,1.76583926314440e+002°)
7.07945784384150e+003	(5.11164807063346e+001dB,1.76557633812614e+002°)
7.13400375071268e+003	(5.11163325559146e+001dB,1.76531139376348e+002°)
7.18896992365819e+003	(5.11161821183170e+001dB,1.76504441464741e+002°)
7.24435960075002e+003	(5.11160293583032e+001dB,1.76477538525368e+002°)
7.30017604500890e+003	(5.11158742400943e+001dB,1.76450428994200e+002°)
7.35642254459654e+003	(5.11157167273624e+001dB,1.76423111295518e+002°)
7.41310241300930e+003	(5.11155567832217e+001dB,1.76395583841834e+002°)
7.47021898927344e+003	(5.11153943702216e+001dB,1.76367845033812e+002°)
7.52777563814179e+003	(5.11152294503362e+001dB,1.76339893260178e+002°)
7.58577575029197e+003	(5.11150619849570e+001dB,1.76311726897646e+002°)
7.64422274252613e+003	(5.11148919348836e+001dB,1.76283344310826e+002°)
7.70312005797228e+003	(5.11147192603152e+001dB,1.76254743852146e+002°)
7.76247116628705e+003	(5.11145439208395e+001dB,1.76225923861767e+002°)
7.82227956386016e+003	(5.11143658754259e+001dB,1.76196882667495e+002°)
7.88254877402035e+003	(5.11141850824153e+001dB,1.76167618584701e+002°)
7.94328234724295e+003	(5.11140014995097e+001dB,1.76138129916228e+002°)
8.00448386135906e+003	(5.11138150837631e+001dB,1.76108414952316e+002°)
8.06615692176628e+003	(5.11136257915726e+001dB,1.76078471970503e+002°)
8.12830516164114e+003	(5.11134335786663e+001dB,1.76048299235550e+002°)
8.19093224215312e+003	(5.11132384000957e+001dB,1.76017894999343e+002°)
8.25404185268033e+003	(5.11130402102231e+001dB,1.75987257500815e+002°)
8.31763771102686e+003	(5.11128389627130e+001dB,1.75956384965850e+002°)
8.38172356364177e+003	(5.11126346105205e+001dB,1.75925275607202e+002°)
8.44630318583984e+003	(5.11124271058808e+001dB,1.75893927624400e+002°)
8.51138038202392e+003	(5.11122164002986e+001dB,1.75862339203659e+002°)
