Freq.	V(vout)
Step Information: Run=13  (Run: 13/15)
1.00000000000000e+003	(5.09641587642003e+001dB,1.79519507480424e+002°)
1.00770481413610e+003	(5.09641558903972e+001dB,1.79515805451223e+002°)
1.01546899243308e+003	(5.09641529721412e+001dB,1.79512074900354e+002°)
1.02329299228075e+003	(5.09641500087445e+001dB,1.79508315608103e+002°)
1.03117727459306e+003	(5.09641469995089e+001dB,1.79504527353067e+002°)
1.03912230383517e+003	(5.09641439437255e+001dB,1.79500709912135e+002°)
1.04712854805090e+003	(5.09641408406735e+001dB,1.79496863060481e+002°)
1.05519647889024e+003	(5.09641376896231e+001dB,1.79492986571545e+002°)
1.06332657163716e+003	(5.09641344898307e+001dB,1.79489080217025e+002°)
1.07151930523761e+003	(5.09641312405434e+001dB,1.79485143766858e+002°)
1.07977516232771e+003	(5.09641279409947e+001dB,1.79481176989213e+002°)
1.08809462926223e+003	(5.09641245904077e+001dB,1.79477179650471e+002°)
1.09647819614319e+003	(5.09641211879925e+001dB,1.79473151515217e+002°)
1.10492635684876e+003	(5.09641177329480e+001dB,1.79469092346220e+002°)
1.11343960906236e+003	(5.09641142244597e+001dB,1.79465001904424e+002°)
1.12201845430197e+003	(5.09641106617015e+001dB,1.79460879948934e+002°)
1.13066339794964e+003	(5.09641070438335e+001dB,1.79456726236999e+002°)
1.13937494928134e+003	(5.09641033700033e+001dB,1.79452540523996e+002°)
1.14815362149688e+003	(5.09640996393456e+001dB,1.79448322563424e+002°)
1.15699993175021e+003	(5.09640958509814e+001dB,1.79444072106880e+002°)
1.16591440117983e+003	(5.09640920040180e+001dB,1.79439788904051e+002°)
1.17489755493953e+003	(5.09640880975488e+001dB,1.79435472702694e+002°)
1.18394992222930e+003	(5.09640841306535e+001dB,1.79431123248626e+002°)
1.19307203632654e+003	(5.09640801023978e+001dB,1.79426740285708e+002°)
1.20226443461742e+003	(5.09640760118323e+001dB,1.79422323555826e+002°)
1.21152765862859e+003	(5.09640718579934e+001dB,1.79417872798882e+002°)
1.22086225405907e+003	(5.09640676399023e+001dB,1.79413387752774e+002°)
1.23026877081238e+003	(5.09640633565653e+001dB,1.79408868153381e+002°)
1.23974776302895e+003	(5.09640590069733e+001dB,1.79404313734551e+002°)
1.24929978911874e+003	(5.09640545901011e+001dB,1.79399724228082e+002°)
1.25892541179417e+003	(5.09640501049088e+001dB,1.79395099363708e+002°)
1.26862519810326e+003	(5.09640455503388e+001dB,1.79390438869081e+002°)
1.27839971946303e+003	(5.09640409253188e+001dB,1.79385742469757e+002°)
1.28824955169314e+003	(5.09640362287586e+001dB,1.79381009889181e+002°)
1.29817527504985e+003	(5.09640314595518e+001dB,1.79376240848666e+002°)
1.30817747426020e+003	(5.09640266165752e+001dB,1.79371435067383e+002°)
1.31825673855641e+003	(5.09640216986874e+001dB,1.79366592262340e+002°)
1.32841366171065e+003	(5.09640167047297e+001dB,1.79361712148364e+002°)
1.33864884207000e+003	(5.09640116335258e+001dB,1.79356794438092e+002°)
1.34896288259166e+003	(5.09640064838807e+001dB,1.79351838841945e+002°)
1.35935639087853e+003	(5.09640012545815e+001dB,1.79346845068117e+002°)
1.36982997921497e+003	(5.09639959443957e+001dB,1.79341812822555e+002°)
1.38038426460289e+003	(5.09639905520726e+001dB,1.79336741808943e+002°)
1.39101986879806e+003	(5.09639850763419e+001dB,1.79331631728685e+002°)
1.40173741834677e+003	(5.09639795159130e+001dB,1.79326482280886e+002°)
1.41253754462276e+003	(5.09639738694766e+001dB,1.79321293162336e+002°)
1.42342088386435e+003	(5.09639681357019e+001dB,1.79316064067489e+002°)
1.43438807721197e+003	(5.09639623132383e+001dB,1.79310794688451e+002°)
1.44543977074593e+003	(5.09639564007139e+001dB,1.79305484714956e+002°)
1.45657661552446e+003	(5.09639503967362e+001dB,1.79300133834350e+002°)
1.46779926762207e+003	(5.09639442998905e+001dB,1.79294741731574e+002°)
1.47910838816821e+003	(5.09639381087401e+001dB,1.79289308089144e+002°)
1.49050464338620e+003	(5.09639318218273e+001dB,1.79283832587132e+002°)
1.50198870463249e+003	(5.09639254376701e+001dB,1.79278314903150e+002°)
1.51356124843621e+003	(5.09639189547648e+001dB,1.79272754712327e+002°)
1.52522295653902e+003	(5.09639123715843e+001dB,1.79267151687293e+002°)
1.53697451593528e+003	(5.09639056865775e+001dB,1.79261505498158e+002°)
1.54881661891249e+003	(5.09638988981696e+001dB,1.79255815812495e+002°)
1.56074996309212e+003	(5.09638920047616e+001dB,1.79250082295319e+002°)
1.57277525147067e+003	(5.09638850047288e+001dB,1.79244304609065e+002°)
1.58489319246112e+003	(5.09638778964236e+001dB,1.79238482413573e+002°)
1.59710449993461e+003	(5.09638706781699e+001dB,1.79232615366066e+002°)
1.60940989326254e+003	(5.09638633482679e+001dB,1.79226703121127e+002°)
1.62181009735894e+003	(5.09638559049909e+001dB,1.79220745330685e+002°)
1.63430584272314e+003	(5.09638483465855e+001dB,1.79214741643988e+002°)
1.64689786548288e+003	(5.09638406712706e+001dB,1.79208691707586e+002°)
1.65958690743757e+003	(5.09638328772389e+001dB,1.79202595165311e+002°)
1.67237371610209e+003	(5.09638249626538e+001dB,1.79196451658254e+002°)
1.68525904475076e+003	(5.09638169256509e+001dB,1.79190260824746e+002°)
1.69824365246175e+003	(5.09638087643372e+001dB,1.79184022300333e+002°)
1.71132830416179e+003	(5.09638004767896e+001dB,1.79177735717760e+002°)
1.72451377067121e+003	(5.09637920610566e+001dB,1.79171400706947e+002°)
1.73780082874938e+003	(5.09637835151553e+001dB,1.79165016894965e+002°)
1.75119026114047e+003	(5.09637748370724e+001dB,1.79158583906018e+002°)
1.76468285661951e+003	(5.09637660247642e+001dB,1.79152101361419e+002°)
1.77827941003893e+003	(5.09637570761541e+001dB,1.79145568879569e+002°)
1.79198072237534e+003	(5.09637479891348e+001dB,1.79138986075931e+002°)
1.80578760077673e+003	(5.09637387615653e+001dB,1.79132352563015e+002°)
1.81970085860999e+003	(5.09637293912726e+001dB,1.79125667950347e+002°)
1.83372131550889e+003	(5.09637198760490e+001dB,1.79118931844452e+002°)
1.84784979742230e+003	(5.09637102136528e+001dB,1.79112143848827e+002°)
1.86208713666288e+003	(5.09637004018087e+001dB,1.79105303563922e+002°)
1.87643417195610e+003	(5.09636904382051e+001dB,1.79098410587113e+002°)
1.89089174848965e+003	(5.09636803204952e+001dB,1.79091464512679e+002°)
1.90546071796326e+003	(5.09636700462956e+001dB,1.79084464931780e+002°)
1.92014193863881e+003	(5.09636596131865e+001dB,1.79077411432433e+002°)
1.93493627539096e+003	(5.09636490187097e+001dB,1.79070303599487e+002°)
1.94984459975806e+003	(5.09636382603706e+001dB,1.79063141014597e+002°)
1.96486778999348e+003	(5.09636273356349e+001dB,1.79055923256203e+002°)
1.98000673111740e+003	(5.09636162419292e+001dB,1.79048649899503e+002°)
1.99526231496889e+003	(5.09636049766401e+001dB,1.79041320516430e+002°)
2.01063544025850e+003	(5.09635935371148e+001dB,1.79033934675625e+002°)
2.02612701262116e+003	(5.09635819206585e+001dB,1.79026491942413e+002°)
2.04173794466954e+003	(5.09635701245353e+001dB,1.79018991878778e+002°)
2.05746915604785e+003	(5.09635581459670e+001dB,1.79011434043335e+002°)
2.07332157348597e+003	(5.09635459821316e+001dB,1.79003817991310e+002°)
2.08929613085405e+003	(5.09635336301649e+001dB,1.78996143274504e+002°)
2.10539376921757e+003	(5.09635210871567e+001dB,1.78988409441279e+002°)
2.12161543689270e+003	(5.09635083501540e+001dB,1.78980616036523e+002°)
2.13796208950225e+003	(5.09634954161558e+001dB,1.78972762601624e+002°)
2.15443469003190e+003	(5.09634822821164e+001dB,1.78964848674449e+002°)
2.17103420888697e+003	(5.09634689449421e+001dB,1.78956873789312e+002°)
2.18776162394957e+003	(5.09634554014923e+001dB,1.78948837476946e+002°)
2.20461792063620e+003	(5.09634416485766e+001dB,1.78940739264481e+002°)
2.22160409195583e+003	(5.09634276829566e+001dB,1.78932578675412e+002°)
2.23872113856835e+003	(5.09634135013426e+001dB,1.78924355229572e+002°)
2.25597006884359e+003	(5.09633991003948e+001dB,1.78916068443105e+002°)
2.27335189892065e+003	(5.09633844767217e+001dB,1.78907717828437e+002°)
2.29086765276779e+003	(5.09633696268797e+001dB,1.78899302894249e+002°)
2.30851836224278e+003	(5.09633545473710e+001dB,1.78890823145445e+002°)
2.32630506715364e+003	(5.09633392346444e+001dB,1.78882278083128e+002°)
2.34422881531994e+003	(5.09633236850938e+001dB,1.78873667204566e+002°)
2.36229066263448e+003	(5.09633078950577e+001dB,1.78864990003168e+002°)
2.38049167312553e+003	(5.09632918608168e+001dB,1.78856245968449e+002°)
2.39883291901951e+003	(5.09632755785955e+001dB,1.78847434586005e+002°)
2.41731548080412e+003	(5.09632590445596e+001dB,1.78838555337479e+002°)
2.43594044729204e+003	(5.09632422548151e+001dB,1.78829607700534e+002°)
2.45470891568505e+003	(5.09632252054087e+001dB,1.78820591148821e+002°)
2.47362199163864e+003	(5.09632078923252e+001dB,1.78811505151951e+002°)
2.49268078932720e+003	(5.09631903114877e+001dB,1.78802349175459e+002°)
2.51188643150960e+003	(5.09631724587564e+001dB,1.78793122680777e+002°)
2.53124004959538e+003	(5.09631543299273e+001dB,1.78783825125203e+002°)
2.55074278371138e+003	(5.09631359207310e+001dB,1.78774455961867e+002°)
2.57039578276888e+003	(5.09631172268331e+001dB,1.78765014639700e+002°)
2.59020020453134e+003	(5.09630982438320e+001dB,1.78755500603403e+002°)
2.61015721568256e+003	(5.09630789672574e+001dB,1.78745913293415e+002°)
2.63026799189540e+003	(5.09630593925706e+001dB,1.78736252145878e+002°)
2.65053371790110e+003	(5.09630395151619e+001dB,1.78726516592607e+002°)
2.67095558755901e+003	(5.09630193303517e+001dB,1.78716706061055e+002°)
2.69153480392694e+003	(5.09629988333867e+001dB,1.78706819974282e+002°)
2.71227257933205e+003	(5.09629780194418e+001dB,1.78696857750920e+002°)
2.73317013544226e+003	(5.09629568836152e+001dB,1.78686818805140e+002°)
2.75422870333819e+003	(5.09629354209312e+001dB,1.78676702546616e+002°)
2.77544952358573e+003	(5.09629136263363e+001dB,1.78666508380493e+002°)
2.79683384630910e+003	(5.09628914946994e+001dB,1.78656235707354e+002°)
2.81838293126448e+003	(5.09628690208093e+001dB,1.78645883923181e+002°)
2.84009804791424e+003	(5.09628461993752e+001dB,1.78635452419323e+002°)
2.86198047550173e+003	(5.09628230250244e+001dB,1.78624940582460e+002°)
2.88403150312663e+003	(5.09627994923008e+001dB,1.78614347794568e+002°)
2.90625242982089e+003	(5.09627755956641e+001dB,1.78603673432883e+002°)
2.92864456462526e+003	(5.09627513294885e+001dB,1.78592916869862e+002°)
2.95120922666641e+003	(5.09627266880612e+001dB,1.78582077473154e+002°)
2.97394774523463e+003	(5.09627016655816e+001dB,1.78571154605555e+002°)
2.99686145986215e+003	(5.09626762561587e+001dB,1.78560147624978e+002°)
3.01995172040204e+003	(5.09626504538114e+001dB,1.78549055884412e+002°)
3.04321988710775e+003	(5.09626242524651e+001dB,1.78537878731884e+002°)
3.06666733071321e+003	(5.09625976459525e+001dB,1.78526615510425e+002°)
3.09029543251362e+003	(5.09625706280103e+001dB,1.78515265558031e+002°)
3.11410558444679e+003	(5.09625431922788e+001dB,1.78503828207620e+002°)
3.13809918917516e+003	(5.09625153322995e+001dB,1.78492302787002e+002°)
3.16227766016841e+003	(5.09624870415150e+001dB,1.78480688618832e+002°)
3.18664242178676e+003	(5.09624583132662e+001dB,1.78468985020577e+002°)
3.21119490936485e+003	(5.09624291407908e+001dB,1.78457191304474e+002°)
3.23593656929631e+003	(5.09623995172225e+001dB,1.78445306777489e+002°)
3.26086885911896e+003	(5.09623694355889e+001dB,1.78433330741280e+002°)
3.28599324760069e+003	(5.09623388888099e+001dB,1.78421262492155e+002°)
3.31131121482594e+003	(5.09623078696957e+001dB,1.78409101321034e+002°)
3.33682425228297e+003	(5.09622763709462e+001dB,1.78396846513403e+002°)
3.36253386295166e+003	(5.09622443851478e+001dB,1.78384497349279e+002°)
3.38844156139206e+003	(5.09622119047727e+001dB,1.78372053103165e+002°)
3.41454887383364e+003	(5.09621789221774e+001dB,1.78359513044008e+002°)
3.44085733826517e+003	(5.09621454295991e+001dB,1.78346876435160e+002°)
3.46736850452535e+003	(5.09621114191566e+001dB,1.78334142534331e+002°)
3.49408393439410e+003	(5.09620768828458e+001dB,1.78321310593553e+002°)
3.52100520168456e+003	(5.09620418125393e+001dB,1.78308379859132e+002°)
3.54813389233579e+003	(5.09620061999853e+001dB,1.78295349571603e+002°)
3.57547160450625e+003	(5.09619700368030e+001dB,1.78282218965695e+002°)
3.60301994866789e+003	(5.09619333144831e+001dB,1.78268987270277e+002°)
3.63078054770105e+003	(5.09618960243846e+001dB,1.78255653708321e+002°)
3.65875503699007e+003	(5.09618581577332e+001dB,1.78242217496856e+002°)
3.68694506451962e+003	(5.09618197056196e+001dB,1.78228677846920e+002°)
3.71535229097177e+003	(5.09617806589961e+001dB,1.78215033963518e+002°)
3.74397838982385e+003	(5.09617410086756e+001dB,1.78201285045576e+002°)
3.77282504744704e+003	(5.09617007453300e+001dB,1.78187430285896e+002°)
3.80189396320565e+003	(5.09616598594860e+001dB,1.78173468871106e+002°)
3.83118684955733e+003	(5.09616183415248e+001dB,1.78159399981621e+002°)
3.86070543215386e+003	(5.09615761816788e+001dB,1.78145222791587e+002°)
3.89045144994285e+003	(5.09615333700302e+001dB,1.78130936468841e+002°)
3.92042665527020e+003	(5.09614898965072e+001dB,1.78116540174862e+002°)
3.95063281398328e+003	(5.09614457508835e+001dB,1.78102033064720e+002°)
3.98107170553502e+003	(5.09614009227741e+001dB,1.78087414287033e+002°)
4.01174512308867e+003	(5.09613554016347e+001dB,1.78072682983913e+002°)
4.04265487362349e+003	(5.09613091767573e+001dB,1.78057838290923e+002°)
4.07380277804117e+003	(5.09612622372696e+001dB,1.78042879337023e+002°)
4.10519067127313e+003	(5.09612145721305e+001dB,1.78027805244522e+002°)
4.13682040238856e+003	(5.09611661701297e+001dB,1.78012615129032e+002°)
4.16869383470340e+003	(5.09611170198829e+001dB,1.77997308099410e+002°)
4.20081284589012e+003	(5.09610671098305e+001dB,1.77981883257716e+002°)
4.23317932808826e+003	(5.09610164282353e+001dB,1.77966339699154e+002°)
4.26579518801598e+003	(5.09609649631776e+001dB,1.77950676512029e+002°)
4.29866234708233e+003	(5.09609127025548e+001dB,1.77934892777687e+002°)
4.33178274150047e+003	(5.09608596340776e+001dB,1.77918987570471e+002°)
4.36515832240171e+003	(5.09608057452666e+001dB,1.77902959957663e+002°)
4.39879105595049e+003	(5.09607510234503e+001dB,1.77886808999432e+002°)
4.43268292346014e+003	(5.09606954557619e+001dB,1.77870533748784e+002°)
4.46683592150969e+003	(5.09606390291356e+001dB,1.77854133251507e+002°)
4.50125206206139e+003	(5.09605817303045e+001dB,1.77837606546116e+002°)
4.53593337257933e+003	(5.09605235457970e+001dB,1.77820952663799e+002°)
4.57088189614881e+003	(5.09604644619333e+001dB,1.77804170628364e+002°)
4.60609969159672e+003	(5.09604044648236e+001dB,1.77787259456183e+002°)
4.64158883361284e+003	(5.09603435403631e+001dB,1.77770218156138e+002°)
4.67735141287204e+003	(5.09602816742302e+001dB,1.77753045729562e+002°)
4.71338953615747e+003	(5.09602188518814e+001dB,1.77735741170189e+002°)
4.74970532648462e+003	(5.09601550585503e+001dB,1.77718303464088e+002°)
4.78630092322645e+003	(5.09600902792417e+001dB,1.77700731589618e+002°)
4.82317848223937e+003	(5.09600244987299e+001dB,1.77683024517360e+002°)
4.86034017599028e+003	(5.09599577015550e+001dB,1.77665181210067e+002°)
4.89778819368453e+003	(5.09598898720168e+001dB,1.77647200622602e+002°)
4.93552474139487e+003	(5.09598209941752e+001dB,1.77629081701880e+002°)
4.97355204219146e+003	(5.09597510518436e+001dB,1.77610823386811e+002°)
5.01187233627279e+003	(5.09596800285857e+001dB,1.77592424608239e+002°)
5.05048788109766e+003	(5.09596079077126e+001dB,1.77573884288885e+002°)
5.08940095151816e+003	(5.09595346722775e+001dB,1.77555201343281e+002°)
5.12861383991372e+003	(5.09594603050723e+001dB,1.77536374677718e+002°)
5.16812885632611e+003	(5.09593847886251e+001dB,1.77517403190179e+002°)
5.20794832859554e+003	(5.09593081051932e+001dB,1.77498285770279e+002°)
5.24807460249780e+003	(5.09592302367611e+001dB,1.77479021299207e+002°)
5.28851004188245e+003	(5.09591511650365e+001dB,1.77459608649658e+002°)
5.32925702881208e+003	(5.09590708714447e+001dB,1.77440046685776e+002°)
5.37031796370260e+003	(5.09589893371247e+001dB,1.77420334263087e+002°)
5.41169526546471e+003	(5.09589065429247e+001dB,1.77400470228439e+002°)
5.45339137164635e+003	(5.09588224693989e+001dB,1.77380453419937e+002°)
5.49540873857633e+003	(5.09587370968018e+001dB,1.77360282666878e+002°)
5.53774984150898e+003	(5.09586504050830e+001dB,1.77339956789689e+002°)
5.58041717477005e+003	(5.09585623738842e+001dB,1.77319474599858e+002°)
5.62341325190357e+003	(5.09584729825335e+001dB,1.77298834899875e+002°)
5.66674060582000e+003	(5.09583822100403e+001dB,1.77278036483159e+002°)
5.71040178894535e+003	(5.09582900350915e+001dB,1.77257078133996e+002°)
5.75439937337165e+003	(5.09581964360452e+001dB,1.77235958627473e+002°)
5.79873595100840e+003	(5.09581013909272e+001dB,1.77214676729409e+002°)
5.84341413373526e+003	(5.09580048774237e+001dB,1.77193231196287e+002°)
5.88843655355598e+003	(5.09579068728794e+001dB,1.77171620775190e+002°)
5.93380586275337e+003	(5.09578073542890e+001dB,1.77149844203726e+002°)
5.97952473404561e+003	(5.09577062982932e+001dB,1.77127900209968e+002°)
6.02559586074367e+003	(5.09576036811743e+001dB,1.77105787512376e+002°)
6.07202195690998e+003	(5.09574994788483e+001dB,1.77083504819734e+002°)
6.11880575751831e+003	(5.09573936668619e+001dB,1.77061050831076e+002°)
6.16595001861492e+003	(5.09572862203849e+001dB,1.77038424235618e+002°)
6.21345751748085e+003	(5.09571771142056e+001dB,1.77015623712685e+002°)
6.26133105279562e+003	(5.09570663227242e+001dB,1.76992647931642e+002°)
6.30957344480203e+003	(5.09569538199472e+001dB,1.76969495551819e+002°)
6.35818753547233e+003	(5.09568395794822e+001dB,1.76946165222443e+002°)
6.40717618867564e+003	(5.09567235745295e+001dB,1.76922655582562e+002°)
6.45654229034666e+003	(5.09566057778789e+001dB,1.76898965260972e+002°)
6.50628874865568e+003	(5.09564861619009e+001dB,1.76875092876145e+002°)
6.55641849417989e+003	(5.09563646985417e+001dB,1.76851037036155e+002°)
6.60693448007607e+003	(5.09562413593161e+001dB,1.76826796338602e+002°)
6.65783968225447e+003	(5.09561161153014e+001dB,1.76802369370538e+002°)
6.70913709955422e+003	(5.09559889371300e+001dB,1.76777754708393e+002°)
6.76082975391993e+003	(5.09558597949838e+001dB,1.76752950917897e+002°)
6.81292069057972e+003	(5.09557286585856e+001dB,1.76727956554005e+002°)
6.86541297822466e+003	(5.09555954971943e+001dB,1.76702770160820e+002°)
6.91830970918948e+003	(5.09554602795952e+001dB,1.76677390271517e+002°)
6.97161399963479e+003	(5.09553229740951e+001dB,1.76651815408262e+002°)
7.02532898973064e+003	(5.09551835485142e+001dB,1.76626044082139e+002°)
7.07945784384150e+003	(5.09550419701778e+001dB,1.76600074793068e+002°)
7.13400375071268e+003	(5.09548982059102e+001dB,1.76573906029729e+002°)
7.18896992365819e+003	(5.09547522220259e+001dB,1.76547536269479e+002°)
7.24435960075002e+003	(5.09546039843229e+001dB,1.76520963978274e+002°)
7.30017604500890e+003	(5.09544534580735e+001dB,1.76494187610590e+002°)
7.35642254459654e+003	(5.09543006080178e+001dB,1.76467205609341e+002°)
7.41310241300930e+003	(5.09541453983548e+001dB,1.76440016405799e+002°)
7.47021898927344e+003	(5.09539877927334e+001dB,1.76412618419511e+002°)
7.52777563814179e+003	(5.09538277542456e+001dB,1.76385010058218e+002°)
7.58577575029197e+003	(5.09536652454174e+001dB,1.76357189717773e+002°)
7.64422274252613e+003	(5.09535002281995e+001dB,1.76329155782056e+002°)
7.70312005797228e+003	(5.09533326639591e+001dB,1.76300906622895e+002°)
7.76247116628705e+003	(5.09531625134719e+001dB,1.76272440599976e+002°)
7.82227956386016e+003	(5.09529897369122e+001dB,1.76243756060766e+002°)
7.88254877402035e+003	(5.09528142938420e+001dB,1.76214851340422e+002°)
7.94328234724295e+003	(5.09526361432060e+001dB,1.76185724761712e+002°)
8.00448386135906e+003	(5.09524552433182e+001dB,1.76156374634924e+002°)
8.06615692176628e+003	(5.09522715518547e+001dB,1.76126799257783e+002°)
8.12830516164114e+003	(5.09520850258429e+001dB,1.76096996915365e+002°)
8.19093224215312e+003	(5.09518956216521e+001dB,1.76066965880010e+002°)
8.25404185268033e+003	(5.09517032949831e+001dB,1.76036704411232e+002°)
8.31763771102686e+003	(5.09515080008585e+001dB,1.76006210755637e+002°)
8.38172356364177e+003	(5.09513096936130e+001dB,1.75975483146831e+002°)
8.44630318583984e+003	(5.09511083268810e+001dB,1.75944519805330e+002°)
8.51138038202392e+003	(5.09509038535885e+001dB,1.75913318938478e+002°)
