Freq.	V(vout)
Step Information: Run=10  (Run: 10/15)
1.00000000000000e+003	(5.11902430689290e+001dB,1.79512354702820e+002°)
1.00770481413610e+003	(5.11902401025657e+001dB,1.79508597566458e+002°)
1.01546899243308e+003	(5.11902370903174e+001dB,1.79504811483922e+002°)
1.02329299228075e+003	(5.11902340314745e+001dB,1.79500996232231e+002°)
1.03117727459306e+003	(5.11902309253168e+001dB,1.79497151586687e+002°)
1.03912230383517e+003	(5.11902277711114e+001dB,1.79493277320860e+002°)
1.04712854805090e+003	(5.11902245681160e+001dB,1.79489373206579e+002°)
1.05519647889024e+003	(5.11902213155755e+001dB,1.79485439013914e+002°)
1.06332657163716e+003	(5.11902180127236e+001dB,1.79481474511166e+002°)
1.07151930523761e+003	(5.11902146587823e+001dB,1.79477479464851e+002°)
1.07977516232771e+003	(5.11902112529613e+001dB,1.79473453639687e+002°)
1.08809462926223e+003	(5.11902077944577e+001dB,1.79469396798581e+002°)
1.09647819614319e+003	(5.11902042824571e+001dB,1.79465308702615e+002°)
1.10492635684876e+003	(5.11902007161322e+001dB,1.79461189111030e+002°)
1.11343960906236e+003	(5.11901970946421e+001dB,1.79457037781215e+002°)
1.12201845430197e+003	(5.11901934171342e+001dB,1.79452854468689e+002°)
1.13066339794964e+003	(5.11901896827417e+001dB,1.79448638927091e+002°)
1.13937494928134e+003	(5.11901858905847e+001dB,1.79444390908160e+002°)
1.14815362149688e+003	(5.11901820397699e+001dB,1.79440110161727e+002°)
1.15699993175021e+003	(5.11901781293898e+001dB,1.79435796435695e+002°)
1.16591440117983e+003	(5.11901741585233e+001dB,1.79431449476027e+002°)
1.17489755493953e+003	(5.11901701262350e+001dB,1.79427069026729e+002°)
1.18394992222930e+003	(5.11901660315744e+001dB,1.79422654829837e+002°)
1.19307203632654e+003	(5.11901618735768e+001dB,1.79418206625401e+002°)
1.20226443461742e+003	(5.11901576512629e+001dB,1.79413724151470e+002°)
1.21152765862859e+003	(5.11901533636377e+001dB,1.79409207144075e+002°)
1.22086225405907e+003	(5.11901490096911e+001dB,1.79404655337216e+002°)
1.23026877081238e+003	(5.11901445883973e+001dB,1.79400068462846e+002°)
1.23974776302895e+003	(5.11901400987145e+001dB,1.79395446250853e+002°)
1.24929978911874e+003	(5.11901355395848e+001dB,1.79390788429045e+002°)
1.25892541179417e+003	(5.11901309099347e+001dB,1.79386094723138e+002°)
1.26862519810326e+003	(5.11901262086726e+001dB,1.79381364856733e+002°)
1.27839971946303e+003	(5.11901214346915e+001dB,1.79376598551305e+002°)
1.28824955169314e+003	(5.11901165868663e+001dB,1.79371795526184e+002°)
1.29817527504985e+003	(5.11901116640550e+001dB,1.79366955498542e+002°)
1.30817747426020e+003	(5.11901066650978e+001dB,1.79362078183370e+002°)
1.31825673855641e+003	(5.11901015888166e+001dB,1.79357163293469e+002°)
1.32841366171065e+003	(5.11900964340160e+001dB,1.79352210539427e+002°)
1.33864884207000e+003	(5.11900911994815e+001dB,1.79347219629605e+002°)
1.34896288259166e+003	(5.11900858839794e+001dB,1.79342190270119e+002°)
1.35935639087853e+003	(5.11900804862580e+001dB,1.79337122164824e+002°)
1.36982997921497e+003	(5.11900750050448e+001dB,1.79332015015294e+002°)
1.38038426460289e+003	(5.11900694390494e+001dB,1.79326868520808e+002°)
1.39101986879806e+003	(5.11900637869596e+001dB,1.79321682378328e+002°)
1.40173741834677e+003	(5.11900580474448e+001dB,1.79316456282487e+002°)
1.41253754462276e+003	(5.11900522191521e+001dB,1.79311189925564e+002°)
1.42342088386435e+003	(5.11900463007084e+001dB,1.79305882997473e+002°)
1.43438807721197e+003	(5.11900402907196e+001dB,1.79300535185739e+002°)
1.44543977074593e+003	(5.11900341877699e+001dB,1.79295146175485e+002°)
1.45657661552446e+003	(5.11900279904215e+001dB,1.79289715649409e+002°)
1.46779926762207e+003	(5.11900216972140e+001dB,1.79284243287766e+002°)
1.47910838816821e+003	(5.11900153066652e+001dB,1.79278728768353e+002°)
1.49050464338620e+003	(5.11900088172696e+001dB,1.79273171766486e+002°)
1.50198870463249e+003	(5.11900022274981e+001dB,1.79267571954983e+002°)
1.51356124843621e+003	(5.11899955357983e+001dB,1.79261929004144e+002°)
1.52522295653902e+003	(5.11899887405943e+001dB,1.79256242581733e+002°)
1.53697451593528e+003	(5.11899818402846e+001dB,1.79250512352955e+002°)
1.54881661891249e+003	(5.11899748332438e+001dB,1.79244737980442e+002°)
1.56074996309212e+003	(5.11899677178217e+001dB,1.79238919124228e+002°)
1.57277525147067e+003	(5.11899604923410e+001dB,1.79233055441732e+002°)
1.58489319246112e+003	(5.11899531551004e+001dB,1.79227146587737e+002°)
1.59710449993461e+003	(5.11899457043714e+001dB,1.79221192214371e+002°)
1.60940989326254e+003	(5.11899381383985e+001dB,1.79215191971083e+002°)
1.62181009735894e+003	(5.11899304553993e+001dB,1.79209145504628e+002°)
1.63430584272314e+003	(5.11899226535641e+001dB,1.79203052459041e+002°)
1.64689786548288e+003	(5.11899147310549e+001dB,1.79196912475620e+002°)
1.65958690743757e+003	(5.11899066860053e+001dB,1.79190725192902e+002°)
1.67237371610209e+003	(5.11898985165204e+001dB,1.79184490246645e+002°)
1.68525904475076e+003	(5.11898902206752e+001dB,1.79178207269803e+002°)
1.69824365246175e+003	(5.11898817965165e+001dB,1.79171875892509e+002°)
1.71132830416179e+003	(5.11898732420587e+001dB,1.79165495742049e+002°)
1.72451377067121e+003	(5.11898645552875e+001dB,1.79159066442843e+002°)
1.73780082874938e+003	(5.11898557341560e+001dB,1.79152587616420e+002°)
1.75119026114047e+003	(5.11898467765866e+001dB,1.79146058881401e+002°)
1.76468285661951e+003	(5.11898376804690e+001dB,1.79139479853472e+002°)
1.77827941003893e+003	(5.11898284436611e+001dB,1.79132850145363e+002°)
1.79198072237534e+003	(5.11898190639860e+001dB,1.79126169366825e+002°)
1.80578760077673e+003	(5.11898095392352e+001dB,1.79119437124610e+002°)
1.81970085860999e+003	(5.11897998671652e+001dB,1.79112653022442e+002°)
1.83372131550889e+003	(5.11897900454971e+001dB,1.79105816661001e+002°)
1.84784979742230e+003	(5.11897800719174e+001dB,1.79098927637893e+002°)
1.86208713666288e+003	(5.11897699440772e+001dB,1.79091985547633e+002°)
1.87643417195610e+003	(5.11897596595907e+001dB,1.79084989981615e+002°)
1.89089174848965e+003	(5.11897492160351e+001dB,1.79077940528092e+002°)
1.90546071796326e+003	(5.11897386109510e+001dB,1.79070836772151e+002°)
1.92014193863881e+003	(5.11897278418401e+001dB,1.79063678295688e+002°)
1.93493627539096e+003	(5.11897169061657e+001dB,1.79056464677387e+002°)
1.94984459975806e+003	(5.11897058013520e+001dB,1.79049195492688e+002°)
1.96486778999348e+003	(5.11896945247834e+001dB,1.79041870313772e+002°)
1.98000673111740e+003	(5.11896830738042e+001dB,1.79034488709526e+002°)
1.99526231496889e+003	(5.11896714457168e+001dB,1.79027050245527e+002°)
2.01063544025850e+003	(5.11896596377822e+001dB,1.79019554484009e+002°)
2.02612701262116e+003	(5.11896476472200e+001dB,1.79012000983843e+002°)
2.04173794466954e+003	(5.11896354712053e+001dB,1.79004389300507e+002°)
2.05746915604785e+003	(5.11896231068705e+001dB,1.78996718986064e+002°)
2.07332157348597e+003	(5.11896105513032e+001dB,1.78988989589133e+002°)
2.08929613085405e+003	(5.11895978015468e+001dB,1.78981200654863e+002°)
2.10539376921757e+003	(5.11895848545978e+001dB,1.78973351724909e+002°)
2.12161543689270e+003	(5.11895717074071e+001dB,1.78965442337402e+002°)
2.13796208950225e+003	(5.11895583568784e+001dB,1.78957472026923e+002°)
2.15443469003190e+003	(5.11895447998672e+001dB,1.78949440324477e+002°)
2.17103420888697e+003	(5.11895310331806e+001dB,1.78941346757464e+002°)
2.18776162394957e+003	(5.11895170535763e+001dB,1.78933190849654e+002°)
2.20461792063620e+003	(5.11895028577621e+001dB,1.78924972121156e+002°)
2.22160409195583e+003	(5.11894884423943e+001dB,1.78916690088392e+002°)
2.23872113856835e+003	(5.11894738040781e+001dB,1.78908344264070e+002°)
2.25597006884359e+003	(5.11894589393658e+001dB,1.78899934157151e+002°)
2.27335189892065e+003	(5.11894438447575e+001dB,1.78891459272827e+002°)
2.29086765276779e+003	(5.11894285166974e+001dB,1.78882919112486e+002°)
2.30851836224278e+003	(5.11894129515764e+001dB,1.78874313173687e+002°)
2.32630506715364e+003	(5.11893971457287e+001dB,1.78865640950129e+002°)
2.34422881531994e+003	(5.11893810954317e+001dB,1.78856901931621e+002°)
2.36229066263448e+003	(5.11893647969062e+001dB,1.78848095604054e+002°)
2.38049167312553e+003	(5.11893482463133e+001dB,1.78839221449372e+002°)
2.39883291901951e+003	(5.11893314397562e+001dB,1.78830278945537e+002°)
2.41731548080412e+003	(5.11893143732766e+001dB,1.78821267566504e+002°)
2.43594044729204e+003	(5.11892970428562e+001dB,1.78812186782187e+002°)
2.45470891568505e+003	(5.11892794444133e+001dB,1.78803036058432e+002°)
2.47362199163864e+003	(5.11892615738042e+001dB,1.78793814856979e+002°)
2.49268078932720e+003	(5.11892434268204e+001dB,1.78784522635438e+002°)
2.51188643150960e+003	(5.11892249991892e+001dB,1.78775158847255e+002°)
2.53124004959538e+003	(5.11892062865711e+001dB,1.78765722941678e+002°)
2.55074278371138e+003	(5.11891872845600e+001dB,1.78756214363729e+002°)
2.57039578276888e+003	(5.11891679886812e+001dB,1.78746632554167e+002°)
2.59020020453134e+003	(5.11891483943912e+001dB,1.78736976949460e+002°)
2.61015721568256e+003	(5.11891284970769e+001dB,1.78727246981750e+002°)
2.63026799189540e+003	(5.11891082920525e+001dB,1.78717442078821e+002°)
2.65053371790110e+003	(5.11890877745611e+001dB,1.78707561664064e+002°)
2.67095558755901e+003	(5.11890669397716e+001dB,1.78697605156446e+002°)
2.69153480392694e+003	(5.11890457827783e+001dB,1.78687571970475e+002°)
2.71227257933205e+003	(5.11890242985999e+001dB,1.78677461516167e+002°)
2.73317013544226e+003	(5.11890024821782e+001dB,1.78667273199009e+002°)
2.75422870333819e+003	(5.11889803283765e+001dB,1.78657006419929e+002°)
2.77544952358573e+003	(5.11889578319792e+001dB,1.78646660575257e+002°)
2.79683384630910e+003	(5.11889349876895e+001dB,1.78636235056694e+002°)
2.81838293126448e+003	(5.11889117901294e+001dB,1.78625729251272e+002°)
2.84009804791424e+003	(5.11888882338370e+001dB,1.78615142541324e+002°)
2.86198047550173e+003	(5.11888643132675e+001dB,1.78604474304444e+002°)
2.88403150312663e+003	(5.11888400227885e+001dB,1.78593723913453e+002°)
2.90625242982089e+003	(5.11888153566822e+001dB,1.78582890736363e+002°)
2.92864456462526e+003	(5.11887903091416e+001dB,1.78571974136339e+002°)
2.95120922666641e+003	(5.11887648742696e+001dB,1.78560973471662e+002°)
2.97394774523463e+003	(5.11887390460797e+001dB,1.78549888095695e+002°)
2.99686145986215e+003	(5.11887128184910e+001dB,1.78538717356843e+002°)
3.01995172040204e+003	(5.11886861853300e+001dB,1.78527460598514e+002°)
3.04321988710775e+003	(5.11886591403270e+001dB,1.78516117159085e+002°)
3.06666733071321e+003	(5.11886316771159e+001dB,1.78504686371862e+002°)
3.09029543251362e+003	(5.11886037892324e+001dB,1.78493167565040e+002°)
3.11410558444679e+003	(5.11885754701113e+001dB,1.78481560061667e+002°)
3.13809918917516e+003	(5.11885467130877e+001dB,1.78469863179603e+002°)
3.16227766016841e+003	(5.11885175113924e+001dB,1.78458076231481e+002°)
3.18664242178676e+003	(5.11884878581519e+001dB,1.78446198524669e+002°)
3.21119490936485e+003	(5.11884577463872e+001dB,1.78434229361226e+002°)
3.23593656929631e+003	(5.11884271690108e+001dB,1.78422168037869e+002°)
3.26086885911896e+003	(5.11883961188257e+001dB,1.78410013845925e+002°)
3.28599324760069e+003	(5.11883645885249e+001dB,1.78397766071294e+002°)
3.31131121482594e+003	(5.11883325706867e+001dB,1.78385423994409e+002°)
3.33682425228297e+003	(5.11883000577764e+001dB,1.78372986890190e+002°)
3.36253386295166e+003	(5.11882670421421e+001dB,1.78360454028009e+002°)
3.38844156139206e+003	(5.11882335160140e+001dB,1.78347824671641e+002°)
3.41454887383364e+003	(5.11881994715022e+001dB,1.78335098079228e+002°)
3.44085733826517e+003	(5.11881649005950e+001dB,1.78322273503233e+002°)
3.46736850452535e+003	(5.11881297951572e+001dB,1.78309350190395e+002°)
3.49408393439410e+003	(5.11880941469278e+001dB,1.78296327381692e+002°)
3.52100520168456e+003	(5.11880579475183e+001dB,1.78283204312293e+002°)
3.54813389233579e+003	(5.11880211884108e+001dB,1.78269980211514e+002°)
3.57547160450625e+003	(5.11879838609552e+001dB,1.78256654302777e+002°)
3.60301994866789e+003	(5.11879459563696e+001dB,1.78243225803561e+002°)
3.63078054770105e+003	(5.11879074657336e+001dB,1.78229693925362e+002°)
3.65875503699007e+003	(5.11878683799920e+001dB,1.78216057873645e+002°)
3.68694506451962e+003	(5.11878286899485e+001dB,1.78202316847800e+002°)
3.71535229097177e+003	(5.11877883862648e+001dB,1.78188470041095e+002°)
3.74397838982385e+003	(5.11877474594589e+001dB,1.78174516640631e+002°)
3.77282504744704e+003	(5.11877058999018e+001dB,1.78160455827293e+002°)
3.80189396320565e+003	(5.11876636978163e+001dB,1.78146286775709e+002°)
3.83118684955733e+003	(5.11876208432743e+001dB,1.78132008654197e+002°)
3.86070543215386e+003	(5.11875773261945e+001dB,1.78117620624720e+002°)
3.89045144994285e+003	(5.11875331363399e+001dB,1.78103121842839e+002°)
3.92042665527020e+003	(5.11874882633154e+001dB,1.78088511457664e+002°)
3.95063281398328e+003	(5.11874426965655e+001dB,1.78073788611806e+002°)
3.98107170553502e+003	(5.11873964253723e+001dB,1.78058952441326e+002°)
4.01174512308867e+003	(5.11873494388519e+001dB,1.78044002075690e+002°)
4.04265487362349e+003	(5.11873017259523e+001dB,1.78028936637718e+002°)
4.07380277804117e+003	(5.11872532754517e+001dB,1.78013755243531e+002°)
4.10519067127313e+003	(5.11872040759552e+001dB,1.77998457002505e+002°)
4.13682040238856e+003	(5.11871541158907e+001dB,1.77983041017219e+002°)
4.16869383470340e+003	(5.11871033835091e+001dB,1.77967506383404e+002°)
4.20081284589012e+003	(5.11870518668793e+001dB,1.77951852189892e+002°)
4.23317932808826e+003	(5.11869995538868e+001dB,1.77936077518564e+002°)
4.26579518801598e+003	(5.11869464322292e+001dB,1.77920181444298e+002°)
4.29866234708233e+003	(5.11868924894149e+001dB,1.77904163034918e+002°)
4.33178274150047e+003	(5.11868377127595e+001dB,1.77888021351140e+002°)
4.36515832240171e+003	(5.11867820893835e+001dB,1.77871755446519e+002°)
4.39879105595049e+003	(5.11867256062076e+001dB,1.77855364367396e+002°)
4.43268292346014e+003	(5.11866682499519e+001dB,1.77838847152846e+002°)
4.46683592150969e+003	(5.11866100071308e+001dB,1.77822202834619e+002°)
4.50125206206139e+003	(5.11865508640517e+001dB,1.77805430437090e+002°)
4.53593337257933e+003	(5.11864908068099e+001dB,1.77788528977205e+002°)
4.57088189614881e+003	(5.11864298212870e+001dB,1.77771497464420e+002°)
4.60609969159672e+003	(5.11863678931461e+001dB,1.77754334900649e+002°)
4.64158883361284e+003	(5.11863050078305e+001dB,1.77737040280211e+002°)
4.67735141287204e+003	(5.11862411505577e+001dB,1.77719612589766e+002°)
4.71338953615747e+003	(5.11861763063178e+001dB,1.77702050808266e+002°)
4.74970532648462e+003	(5.11861104598699e+001dB,1.77684353906893e+002°)
4.78630092322645e+003	(5.11860435957382e+001dB,1.77666520849002e+002°)
4.82317848223937e+003	(5.11859756982074e+001dB,1.77648550590065e+002°)
4.86034017599028e+003	(5.11859067513206e+001dB,1.77630442077611e+002°)
4.89778819368453e+003	(5.11858367388755e+001dB,1.77612194251168e+002°)
4.93552474139487e+003	(5.11857656444190e+001dB,1.77593806042202e+002°)
4.97355204219146e+003	(5.11856934512451e+001dB,1.77575276374062e+002°)
5.01187233627279e+003	(5.11856201423900e+001dB,1.77556604161915e+002°)
5.05048788109766e+003	(5.11855457006293e+001dB,1.77537788312687e+002°)
5.08940095151816e+003	(5.11854701084719e+001dB,1.77518827725004e+002°)
5.12861383991372e+003	(5.11853933481585e+001dB,1.77499721289131e+002°)
5.16812885632611e+003	(5.11853154016550e+001dB,1.77480467886908e+002°)
5.20794832859554e+003	(5.11852362506507e+001dB,1.77461066391689e+002°)
5.24807460249780e+003	(5.11851558765516e+001dB,1.77441515668280e+002°)
5.28851004188245e+003	(5.11850742604787e+001dB,1.77421814572877e+002°)
5.32925702881208e+003	(5.11849913832603e+001dB,1.77401961953000e+002°)
5.37031796370260e+003	(5.11849072254314e+001dB,1.77381956647435e+002°)
5.41169526546471e+003	(5.11848217672257e+001dB,1.77361797486162e+002°)
5.45339137164635e+003	(5.11847349885738e+001dB,1.77341483290298e+002°)
5.49540873857633e+003	(5.11846468690963e+001dB,1.77321012872028e+002°)
5.53774984150898e+003	(5.11845573881003e+001dB,1.77300385034539e+002°)
5.58041717477005e+003	(5.11844665245743e+001dB,1.77279598571958e+002°)
5.62341325190357e+003	(5.11843742571834e+001dB,1.77258652269284e+002°)
5.66674060582000e+003	(5.11842805642645e+001dB,1.77237544902320e+002°)
5.71040178894535e+003	(5.11841854238203e+001dB,1.77216275237608e+002°)
5.75439937337165e+003	(5.11840888135158e+001dB,1.77194842032360e+002°)
5.79873595100840e+003	(5.11839907106716e+001dB,1.77173244034393e+002°)
5.84341413373526e+003	(5.11838910922596e+001dB,1.77151479982058e+002°)
5.88843655355598e+003	(5.11837899348974e+001dB,1.77129548604170e+002°)
5.93380586275337e+003	(5.11836872148426e+001dB,1.77107448619944e+002°)
5.97952473404561e+003	(5.11835829079872e+001dB,1.77085178738921e+002°)
6.02559586074367e+003	(5.11834769898533e+001dB,1.77062737660900e+002°)
6.07202195690998e+003	(5.11833694355858e+001dB,1.77040124075866e+002°)
6.11880575751831e+003	(5.11832602199472e+001dB,1.77017336663920e+002°)
6.16595001861492e+003	(5.11831493173120e+001dB,1.76994374095210e+002°)
6.21345751748085e+003	(5.11830367016605e+001dB,1.76971235029855e+002°)
6.26133105279562e+003	(5.11829223465733e+001dB,1.76947918117876e+002°)
6.30957344480203e+003	(5.11828062252243e+001dB,1.76924421999121e+002°)
6.35818753547233e+003	(5.11826883103751e+001dB,1.76900745303196e+002°)
6.40717618867564e+003	(5.11825685743690e+001dB,1.76876886649385e+002°)
6.45654229034666e+003	(5.11824469891232e+001dB,1.76852844646583e+002°)
6.50628874865568e+003	(5.11823235261239e+001dB,1.76828617893217e+002°)
6.55641849417989e+003	(5.11821981564194e+001dB,1.76804204977173e+002°)
6.60693448007607e+003	(5.11820708506121e+001dB,1.76779604475720e+002°)
6.65783968225447e+003	(5.11819415788540e+001dB,1.76754814955435e+002°)
6.70913709955422e+003	(5.11818103108370e+001dB,1.76729834972127e+002°)
6.76082975391993e+003	(5.11816770157891e+001dB,1.76704663070759e+002°)
6.81292069057972e+003	(5.11815416624639e+001dB,1.76679297785372e+002°)
6.86541297822466e+003	(5.11814042191366e+001dB,1.76653737639008e+002°)
6.91830970918948e+003	(5.11812646535938e+001dB,1.76627981143633e+002°)
6.97161399963479e+003	(5.11811229331286e+001dB,1.76602026800053e+002°)
7.02532898973064e+003	(5.11809790245313e+001dB,1.76575873097843e+002°)
7.07945784384150e+003	(5.11808328940829e+001dB,1.76549518515263e+002°)
7.13400375071268e+003	(5.11806845075458e+001dB,1.76522961519179e+002°)
7.18896992365819e+003	(5.11805338301583e+001dB,1.76496200564984e+002°)
7.24435960075002e+003	(5.11803808266240e+001dB,1.76469234096517e+002°)
7.30017604500890e+003	(5.11802254611055e+001dB,1.76442060545980e+002°)
7.35642254459654e+003	(5.11800676972149e+001dB,1.76414678333860e+002°)
7.41310241300930e+003	(5.11799074980072e+001dB,1.76387085868845e+002°)
7.47021898927344e+003	(5.11797448259704e+001dB,1.76359281547740e+002°)
7.52777563814179e+003	(5.11795796430161e+001dB,1.76331263755391e+002°)
7.58577575029197e+003	(5.11794119104730e+001dB,1.76303030864591e+002°)
7.64422274252613e+003	(5.11792415890767e+001dB,1.76274581236008e+002°)
7.70312005797228e+003	(5.11790686389600e+001dB,1.76245913218092e+002°)
7.76247116628705e+003	(5.11788930196461e+001dB,1.76217025146994e+002°)
7.82227956386016e+003	(5.11787146900363e+001dB,1.76187915346482e+002°)
7.88254877402035e+003	(5.11785336084028e+001dB,1.76158582127855e+002°)
7.94328234724295e+003	(5.11783497323788e+001dB,1.76129023789854e+002°)
8.00448386135906e+003	(5.11781630189480e+001dB,1.76099238618583e+002°)
8.06615692176628e+003	(5.11779734244351e+001dB,1.76069224887413e+002°)
8.12830516164114e+003	(5.11777809044962e+001dB,1.76038980856904e+002°)
8.19093224215312e+003	(5.11775854141082e+001dB,1.76008504774710e+002°)
8.25404185268033e+003	(5.11773869075594e+001dB,1.75977794875498e+002°)
8.31763771102686e+003	(5.11771853384368e+001dB,1.75946849380852e+002°)
8.38172356364177e+003	(5.11769806596188e+001dB,1.75915666499191e+002°)
8.44630318583984e+003	(5.11767728232615e+001dB,1.75884244425678e+002°)
8.51138038202392e+003	(5.11765617807892e+001dB,1.75852581342129e+002°)
