Freq.	V(vout)
Step Information: Run=3  (Run: 3/15)
1.00000000000000e+003	(5.12137709477349e+001dB,1.79511746469920e+002°)
1.00770481413610e+003	(5.12137679806827e+001dB,1.79507984646987e+002°)
1.01546899243308e+003	(5.12137649677351e+001dB,1.79504193841764e+002°)
1.02329299228075e+003	(5.12137619081819e+001dB,1.79500373830994e+002°)
1.03117727459306e+003	(5.12137588013028e+001dB,1.79496524389695e+002°)
1.03912230383517e+003	(5.12137556463648e+001dB,1.79492645291158e+002°)
1.04712854805090e+003	(5.12137524426256e+001dB,1.79488736306925e+002°)
1.05519647889024e+003	(5.12137491893295e+001dB,1.79484797206780e+002°)
1.06332657163716e+003	(5.12137458857105e+001dB,1.79480827758733e+002°)
1.07151930523761e+003	(5.12137425309901e+001dB,1.79476827729010e+002°)
1.07977516232771e+003	(5.12137391243778e+001dB,1.79472796882034e+002°)
1.08809462926223e+003	(5.12137356650712e+001dB,1.79468734980418e+002°)
1.09647819614319e+003	(5.12137321522549e+001dB,1.79464641784944e+002°)
1.10492635684876e+003	(5.12137285851014e+001dB,1.79460517054553e+002°)
1.11343960906236e+003	(5.12137249627701e+001dB,1.79456360546330e+002°)
1.12201845430197e+003	(5.12137212844081e+001dB,1.79452172015490e+002°)
1.13066339794964e+003	(5.12137175491479e+001dB,1.79447951215363e+002°)
1.13937494928134e+003	(5.12137137561102e+001dB,1.79443697897380e+002°)
1.14815362149688e+003	(5.12137099044006e+001dB,1.79439411811058e+002°)
1.15699993175021e+003	(5.12137059931121e+001dB,1.79435092703986e+002°)
1.16591440117983e+003	(5.12137020213235e+001dB,1.79430740321808e+002°)
1.17489755493953e+003	(5.12136979880979e+001dB,1.79426354408212e+002°)
1.18394992222930e+003	(5.12136938924856e+001dB,1.79421934704911e+002°)
1.19307203632654e+003	(5.12136897335223e+001dB,1.79417480951632e+002°)
1.20226443461742e+003	(5.12136855102274e+001dB,1.79412992886094e+002°)
1.21152765862859e+003	(5.12136812216058e+001dB,1.79408470244001e+002°)
1.22086225405907e+003	(5.12136768666476e+001dB,1.79403912759019e+002°)
1.23026877081238e+003	(5.12136724443263e+001dB,1.79399320162767e+002°)
1.23974776302895e+003	(5.12136679536002e+001dB,1.79394692184795e+002°)
1.24929978911874e+003	(5.12136633934110e+001dB,1.79390028552572e+002°)
1.25892541179417e+003	(5.12136587626848e+001dB,1.79385328991470e+002°)
1.26862519810326e+003	(5.12136540603300e+001dB,1.79380593224746e+002°)
1.27839971946303e+003	(5.12136492852397e+001dB,1.79375820973526e+002°)
1.28824955169314e+003	(5.12136444362879e+001dB,1.79371011956791e+002°)
1.29817527504985e+003	(5.12136395123322e+001dB,1.79366165891357e+002°)
1.30817747426020e+003	(5.12136345122130e+001dB,1.79361282491862e+002°)
1.31825673855641e+003	(5.12136294347522e+001dB,1.79356361470746e+002°)
1.32841366171065e+003	(5.12136242787534e+001dB,1.79351402538236e+002°)
1.33864884207000e+003	(5.12136190430017e+001dB,1.79346405402329e+002°)
1.34896288259166e+003	(5.12136137262643e+001dB,1.79341369768773e+002°)
1.35935639087853e+003	(5.12136083272878e+001dB,1.79336295341054e+002°)
1.36982997921497e+003	(5.12136028448005e+001dB,1.79331181820372e+002°)
1.38038426460289e+003	(5.12135972775110e+001dB,1.79326028905631e+002°)
1.39101986879806e+003	(5.12135916241074e+001dB,1.79320836293415e+002°)
1.40173741834677e+003	(5.12135858832579e+001dB,1.79315603677973e+002°)
1.41253754462276e+003	(5.12135800536097e+001dB,1.79310330751202e+002°)
1.42342088386435e+003	(5.12135741337902e+001dB,1.79305017202628e+002°)
1.43438807721197e+003	(5.12135681224039e+001dB,1.79299662719385e+002°)
1.44543977074593e+003	(5.12135620180349e+001dB,1.79294266986202e+002°)
1.45657661552446e+003	(5.12135558192451e+001dB,1.79288829685380e+002°)
1.46779926762207e+003	(5.12135495245741e+001dB,1.79283350496776e+002°)
1.47910838816821e+003	(5.12135431325390e+001dB,1.79277829097784e+002°)
1.49050464338620e+003	(5.12135366416340e+001dB,1.79272265163313e+002°)
1.50198870463249e+003	(5.12135300503301e+001dB,1.79266658365773e+002°)
1.51356124843621e+003	(5.12135233570738e+001dB,1.79261008375052e+002°)
1.52522295653902e+003	(5.12135165602887e+001dB,1.79255314858497e+002°)
1.53697451593528e+003	(5.12135096583739e+001dB,1.79249577480897e+002°)
1.54881661891249e+003	(5.12135026497030e+001dB,1.79243795904461e+002°)
1.56074996309212e+003	(5.12134955326254e+001dB,1.79237969788798e+002°)
1.57277525147067e+003	(5.12134883054637e+001dB,1.79232098790898e+002°)
1.58489319246112e+003	(5.12134809665162e+001dB,1.79226182565114e+002°)
1.59710449993461e+003	(5.12134735140535e+001dB,1.79220220763137e+002°)
1.60940989326254e+003	(5.12134659463199e+001dB,1.79214213033979e+002°)
1.62181009735894e+003	(5.12134582615330e+001dB,1.79208159023954e+002°)
1.63430584272314e+003	(5.12134504578819e+001dB,1.79202058376650e+002°)
1.64689786548288e+003	(5.12134425335287e+001dB,1.79195910732917e+002°)
1.65958690743757e+003	(5.12134344866071e+001dB,1.79189715730841e+002°)
1.67237371610209e+003	(5.12134263152206e+001dB,1.79183473005723e+002°)
1.68525904475076e+003	(5.12134180174445e+001dB,1.79177182190060e+002°)
1.69824365246175e+003	(5.12134095913247e+001dB,1.79170842913520e+002°)
1.71132830416179e+003	(5.12134010348754e+001dB,1.79164454802925e+002°)
1.72451377067121e+003	(5.12133923460818e+001dB,1.79158017482223e+002°)
1.73780082874938e+003	(5.12133835228965e+001dB,1.79151530572471e+002°)
1.75119026114047e+003	(5.12133745632415e+001dB,1.79144993691813e+002°)
1.76468285661951e+003	(5.12133654650059e+001dB,1.79138406455454e+002°)
1.77827941003893e+003	(5.12133562260468e+001dB,1.79131768475638e+002°)
1.79198072237534e+003	(5.12133468441877e+001dB,1.79125079361631e+002°)
1.80578760077673e+003	(5.12133373172189e+001dB,1.79118338719689e+002°)
1.81970085860999e+003	(5.12133276428957e+001dB,1.79111546153043e+002°)
1.83372131550889e+003	(5.12133178189399e+001dB,1.79104701261872e+002°)
1.84784979742230e+003	(5.12133078430373e+001dB,1.79097803643281e+002°)
1.86208713666288e+003	(5.12132977128374e+001dB,1.79090852891273e+002°)
1.87643417195610e+003	(5.12132874259548e+001dB,1.79083848596734e+002°)
1.89089174848965e+003	(5.12132769799660e+001dB,1.79076790347401e+002°)
1.90546071796326e+003	(5.12132663724110e+001dB,1.79069677727841e+002°)
1.92014193863881e+003	(5.12132556007905e+001dB,1.79062510319429e+002°)
1.93493627539096e+003	(5.12132446625678e+001dB,1.79055287700317e+002°)
1.94984459975806e+003	(5.12132335551660e+001dB,1.79048009445419e+002°)
1.96486778999348e+003	(5.12132222759694e+001dB,1.79040675126375e+002°)
1.98000673111740e+003	(5.12132108223209e+001dB,1.79033284311537e+002°)
1.99526231496889e+003	(5.12131991915228e+001dB,1.79025836565934e+002°)
2.01063544025850e+003	(5.12131873808357e+001dB,1.79018331451255e+002°)
2.02612701262116e+003	(5.12131753874778e+001dB,1.79010768525817e+002°)
2.04173794466954e+003	(5.12131632086240e+001dB,1.79003147344542e+002°)
2.05746915604785e+003	(5.12131508414059e+001dB,1.78995467458931e+002°)
2.07332157348597e+003	(5.12131382829109e+001dB,1.78987728417039e+002°)
2.08929613085405e+003	(5.12131255301806e+001dB,1.78979929763445e+002°)
2.10539376921757e+003	(5.12131125802121e+001dB,1.78972071039230e+002°)
2.12161543689270e+003	(5.12130994299546e+001dB,1.78964151781945e+002°)
2.13796208950225e+003	(5.12130860763115e+001dB,1.78956171525589e+002°)
2.15443469003190e+003	(5.12130725161372e+001dB,1.78948129800579e+002°)
2.17103420888697e+003	(5.12130587462383e+001dB,1.78940026133724e+002°)
2.18776162394957e+003	(5.12130447633720e+001dB,1.78931860048195e+002°)
2.20461792063620e+003	(5.12130305642446e+001dB,1.78923631063503e+002°)
2.22160409195583e+003	(5.12130161455125e+001dB,1.78915338695461e+002°)
2.23872113856835e+003	(5.12130015037792e+001dB,1.78906982456167e+002°)
2.25597006884359e+003	(5.12129866355975e+001dB,1.78898561853968e+002°)
2.27335189892065e+003	(5.12129715374648e+001dB,1.78890076393433e+002°)
2.29086765276779e+003	(5.12129562058260e+001dB,1.78881525575327e+002°)
2.30851836224278e+003	(5.12129406370703e+001dB,1.78872908896579e+002°)
2.32630506715364e+003	(5.12129248275312e+001dB,1.78864225850252e+002°)
2.34422881531994e+003	(5.12129087734855e+001dB,1.78855475925516e+002°)
2.36229066263448e+003	(5.12128924711527e+001dB,1.78846658607618e+002°)
2.38049167312553e+003	(5.12128759166937e+001dB,1.78837773377851e+002°)
2.39883291901951e+003	(5.12128591062097e+001dB,1.78828819713523e+002°)
2.41731548080412e+003	(5.12128420357423e+001dB,1.78819797087930e+002°)
2.43594044729204e+003	(5.12128247012718e+001dB,1.78810704970319e+002°)
2.45470891568505e+003	(5.12128070987158e+001dB,1.78801542825867e+002°)
2.47362199163864e+003	(5.12127892239292e+001dB,1.78792310115639e+002°)
2.49268078932720e+003	(5.12127710727034e+001dB,1.78783006296564e+002°)
2.51188643150960e+003	(5.12127526407638e+001dB,1.78773630821402e+002°)
2.53124004959538e+003	(5.12127339237700e+001dB,1.78764183138710e+002°)
2.55074278371138e+003	(5.12127149173150e+001dB,1.78754662692813e+002°)
2.57039578276888e+003	(5.12126956169227e+001dB,1.78745068923768e+002°)
2.59020020453134e+003	(5.12126760180496e+001dB,1.78735401267337e+002°)
2.61015721568256e+003	(5.12126561160798e+001dB,1.78725659154947e+002°)
2.63026799189540e+003	(5.12126359063278e+001dB,1.78715842013665e+002°)
2.65053371790110e+003	(5.12126153840351e+001dB,1.78705949266157e+002°)
2.67095558755901e+003	(5.12125945443692e+001dB,1.78695980330661e+002°)
2.69153480392694e+003	(5.12125733824234e+001dB,1.78685934620950e+002°)
2.71227257933205e+003	(5.12125518932151e+001dB,1.78675811546297e+002°)
2.73317013544226e+003	(5.12125300716853e+001dB,1.78665610511444e+002°)
2.75422870333819e+003	(5.12125079126955e+001dB,1.78655330916564e+002°)
2.77544952358573e+003	(5.12124854110286e+001dB,1.78644972157231e+002°)
2.79683384630910e+003	(5.12124625613877e+001dB,1.78634533624380e+002°)
2.81838293126448e+003	(5.12124393583923e+001dB,1.78624014704274e+002°)
2.84009804791424e+003	(5.12124157965803e+001dB,1.78613414778468e+002°)
2.86198047550173e+003	(5.12123918704045e+001dB,1.78602733223775e+002°)
2.88403150312663e+003	(5.12123675742318e+001dB,1.78591969412226e+002°)
2.90625242982089e+003	(5.12123429023427e+001dB,1.78581122711039e+002°)
2.92864456462526e+003	(5.12123178489288e+001dB,1.78570192482577e+002°)
2.95120922666641e+003	(5.12122924080920e+001dB,1.78559178084316e+002°)
2.97394774523463e+003	(5.12122665738436e+001dB,1.78548078868804e+002°)
2.99686145986215e+003	(5.12122403401019e+001dB,1.78536894183626e+002°)
3.01995172040204e+003	(5.12122137006918e+001dB,1.78525623371365e+002°)
3.04321988710775e+003	(5.12121866493415e+001dB,1.78514265769565e+002°)
3.06666733071321e+003	(5.12121591796841e+001dB,1.78502820710692e+002°)
3.09029543251362e+003	(5.12121312852530e+001dB,1.78491287522096e+002°)
3.11410558444679e+003	(5.12121029594823e+001dB,1.78479665525972e+002°)
3.13809918917516e+003	(5.12120741957048e+001dB,1.78467954039322e+002°)
3.16227766016841e+003	(5.12120449871497e+001dB,1.78456152373913e+002°)
3.18664242178676e+003	(5.12120153269423e+001dB,1.78444259836240e+002°)
3.21119490936485e+003	(5.12119852081014e+001dB,1.78432275727484e+002°)
3.23593656929631e+003	(5.12119546235375e+001dB,1.78420199343475e+002°)
3.26086885911896e+003	(5.12119235660530e+001dB,1.78408029974647e+002°)
3.28599324760069e+003	(5.12118920283376e+001dB,1.78395766906001e+002°)
3.31131121482594e+003	(5.12118600029695e+001dB,1.78383409417061e+002°)
3.33682425228297e+003	(5.12118274824104e+001dB,1.78370956781834e+002°)
3.36253386295166e+003	(5.12117944590077e+001dB,1.78358408268771e+002°)
3.38844156139206e+003	(5.12117609249892e+001dB,1.78345763140719e+002°)
3.41454887383364e+003	(5.12117268724632e+001dB,1.78333020654883e+002°)
3.44085733826517e+003	(5.12116922934164e+001dB,1.78320180062782e+002°)
3.46736850452535e+003	(5.12116571797107e+001dB,1.78307240610207e+002°)
3.49408393439410e+003	(5.12116215230841e+001dB,1.78294201537177e+002°)
3.52100520168456e+003	(5.12115853151451e+001dB,1.78281062077895e+002°)
3.54813389233579e+003	(5.12115485473742e+001dB,1.78267821460704e+002°)
3.57547160450625e+003	(5.12115112111192e+001dB,1.78254478908046e+002°)
3.60301994866789e+003	(5.12114732975954e+001dB,1.78241033636411e+002°)
3.63078054770105e+003	(5.12114347978816e+001dB,1.78227484856300e+002°)
3.65875503699007e+003	(5.12113957029192e+001dB,1.78213831772174e+002°)
3.68694506451962e+003	(5.12113560035094e+001dB,1.78200073582411e+002°)
3.71535229097177e+003	(5.12113156903127e+001dB,1.78186209479258e+002°)
3.74397838982385e+003	(5.12112747538434e+001dB,1.78172238648789e+002°)
3.77282504744704e+003	(5.12112331844712e+001dB,1.78158160270855e+002°)
3.80189396320565e+003	(5.12111909724160e+001dB,1.78143973519038e+002°)
3.83118684955733e+003	(5.12111481077476e+001dB,1.78129677560604e+002°)
3.86070543215386e+003	(5.12111045803817e+001dB,1.78115271556456e+002°)
3.89045144994285e+003	(5.12110603800789e+001dB,1.78100754661087e+002°)
3.92042665527020e+003	(5.12110154964417e+001dB,1.78086126022530e+002°)
3.95063281398328e+003	(5.12109699189117e+001dB,1.78071384782308e+002°)
3.98107170553502e+003	(5.12109236367683e+001dB,1.78056530075390e+002°)
4.01174512308867e+003	(5.12108766391249e+001dB,1.78041561030140e+002°)
4.04265487362349e+003	(5.12108289149269e+001dB,1.78026476768263e+002°)
4.07380277804117e+003	(5.12107804529501e+001dB,1.78011276404764e+002°)
4.10519067127313e+003	(5.12107312417951e+001dB,1.77995959047887e+002°)
4.13682040238856e+003	(5.12106812698889e+001dB,1.77980523799075e+002°)
4.16869383470340e+003	(5.12106305254785e+001dB,1.77964969752911e+002°)
4.20081284589012e+003	(5.12105789966298e+001dB,1.77949295997071e+002°)
4.23317932808826e+003	(5.12105266712251e+001dB,1.77933501612270e+002°)
4.26579518801598e+003	(5.12104735369587e+001dB,1.77917585672214e+002°)
4.29866234708233e+003	(5.12104195813366e+001dB,1.77901547243543e+002°)
4.33178274150047e+003	(5.12103647916707e+001dB,1.77885385385778e+002°)
4.36515832240171e+003	(5.12103091550780e+001dB,1.77869099151274e+002°)
4.39879105595049e+003	(5.12102526584763e+001dB,1.77852687585159e+002°)
4.43268292346014e+003	(5.12101952885823e+001dB,1.77836149725286e+002°)
4.46683592150969e+003	(5.12101370319068e+001dB,1.77819484602176e+002°)
4.50125206206139e+003	(5.12100778747535e+001dB,1.77802691238963e+002°)
4.53593337257933e+003	(5.12100178032146e+001dB,1.77785768651339e+002°)
4.57088189614881e+003	(5.12099568031677e+001dB,1.77768715847503e+002°)
4.60609969159672e+003	(5.12098948602725e+001dB,1.77751531828097e+002°)
4.64158883361284e+003	(5.12098319599679e+001dB,1.77734215586159e+002°)
4.67735141287204e+003	(5.12097680874687e+001dB,1.77716766107060e+002°)
4.71338953615747e+003	(5.12097032277603e+001dB,1.77699182368450e+002°)
4.74970532648462e+003	(5.12096373655981e+001dB,1.77681463340198e+002°)
4.78630092322645e+003	(5.12095704855019e+001dB,1.77663607984340e+002°)
4.82317848223937e+003	(5.12095025717531e+001dB,1.77645615255014e+002°)
4.86034017599028e+003	(5.12094336083906e+001dB,1.77627484098407e+002°)
4.89778819368453e+003	(5.12093635792067e+001dB,1.77609213452693e+002°)
4.93552474139487e+003	(5.12092924677456e+001dB,1.77590802247974e+002°)
4.97355204219146e+003	(5.12092202572957e+001dB,1.77572249406224e+002°)
5.01187233627279e+003	(5.12091469308895e+001dB,1.77553553841222e+002°)
5.05048788109766e+003	(5.12090724712977e+001dB,1.77534714458500e+002°)
5.08940095151816e+003	(5.12089968610250e+001dB,1.77515730155274e+002°)
5.12861383991372e+003	(5.12089200823071e+001dB,1.77496599820390e+002°)
5.16812885632611e+003	(5.12088421171050e+001dB,1.77477322334256e+002°)
5.20794832859554e+003	(5.12087629471037e+001dB,1.77457896568785e+002°)
5.24807460249780e+003	(5.12086825537041e+001dB,1.77438321387329e+002°)
5.28851004188245e+003	(5.12086009180215e+001dB,1.77418595644618e+002°)
5.32925702881208e+003	(5.12085180208803e+001dB,1.77398718186697e+002°)
5.37031796370260e+003	(5.12084338428093e+001dB,1.77378687850859e+002°)
5.41169526546471e+003	(5.12083483640382e+001dB,1.77358503465588e+002°)
5.45339137164635e+003	(5.12082615644908e+001dB,1.77338163850484e+002°)
5.49540873857633e+003	(5.12081734237827e+001dB,1.77317667816209e+002°)
5.53774984150898e+003	(5.12080839212158e+001dB,1.77297014164413e+002°)
5.58041717477005e+003	(5.12079930357730e+001dB,1.77276201687673e+002°)
5.62341325190357e+003	(5.12079007461135e+001dB,1.77255229169425e+002°)
5.66674060582000e+003	(5.12078070305680e+001dB,1.77234095383900e+002°)
5.71040178894535e+003	(5.12077118671337e+001dB,1.77212799096050e+002°)
5.75439937337165e+003	(5.12076152334691e+001dB,1.77191339061490e+002°)
5.79873595100840e+003	(5.12075171068895e+001dB,1.77169714026422e+002°)
5.84341413373526e+003	(5.12074174643597e+001dB,1.77147922727570e+002°)
5.88843655355598e+003	(5.12073162824912e+001dB,1.77125963892114e+002°)
5.93380586275337e+003	(5.12072135375350e+001dB,1.77103836237614e+002°)
5.97952473404561e+003	(5.12071092053768e+001dB,1.77081538471947e+002°)
6.02559586074367e+003	(5.12070032615318e+001dB,1.77059069293231e+002°)
6.07202195690998e+003	(5.12068956811381e+001dB,1.77036427389761e+002°)
6.11880575751831e+003	(5.12067864389513e+001dB,1.77013611439931e+002°)
6.16595001861492e+003	(5.12066755093385e+001dB,1.76990620112169e+002°)
6.21345751748085e+003	(5.12065628662731e+001dB,1.76967452064860e+002°)
6.26133105279562e+003	(5.12064484833283e+001dB,1.76944105946278e+002°)
6.30957344480203e+003	(5.12063323336705e+001dB,1.76920580394508e+002°)
6.35818753547233e+003	(5.12062143900534e+001dB,1.76896874037379e+002°)
6.40717618867564e+003	(5.12060946248131e+001dB,1.76872985492386e+002°)
6.45654229034666e+003	(5.12059730098585e+001dB,1.76848913366618e+002°)
6.50628874865568e+003	(5.12058495166682e+001dB,1.76824656256681e+002°)
6.55641849417989e+003	(5.12057241162817e+001dB,1.76800212748628e+002°)
6.60693448007607e+003	(5.12055967792936e+001dB,1.76775581417877e+002°)
6.65783968225447e+003	(5.12054674758469e+001dB,1.76750760829141e+002°)
6.70913709955422e+003	(5.12053361756256e+001dB,1.76725749536348e+002°)
6.76082975391993e+003	(5.12052028478480e+001dB,1.76700546082566e+002°)
6.81292069057972e+003	(5.12050674612599e+001dB,1.76675148999927e+002°)
6.86541297822466e+003	(5.12049299841261e+001dB,1.76649556809545e+002°)
6.91830970918948e+003	(5.12047903842250e+001dB,1.76623768021442e+002°)
6.97161399963479e+003	(5.12046486288399e+001dB,1.76597781134469e+002°)
7.02532898973064e+003	(5.12045046847515e+001dB,1.76571594636226e+002°)
7.07945784384150e+003	(5.12043585182303e+001dB,1.76545207002981e+002°)
7.13400375071268e+003	(5.12042100950298e+001dB,1.76518616699596e+002°)
7.18896992365819e+003	(5.12040593803772e+001dB,1.76491822179440e+002°)
7.24435960075002e+003	(5.12039063389662e+001dB,1.76464821884310e+002°)
7.30017604500890e+003	(5.12037509349491e+001dB,1.76437614244354e+002°)
7.35642254459654e+003	(5.12035931319271e+001dB,1.76410197677985e+002°)
7.41310241300930e+003	(5.12034328929440e+001dB,1.76382570591799e+002°)
7.47021898927344e+003	(5.12032701804764e+001dB,1.76354731380496e+002°)
7.52777563814179e+003	(5.12031049564253e+001dB,1.76326678426793e+002°)
7.58577575029197e+003	(5.12029371821074e+001dB,1.76298410101344e+002°)
7.64422274252613e+003	(5.12027668182465e+001dB,1.76269924762653e+002°)
7.70312005797228e+003	(5.12025938249636e+001dB,1.76241220756994e+002°)
7.76247116628705e+003	(5.12024181617688e+001dB,1.76212296418320e+002°)
7.82227956386016e+003	(5.12022397875520e+001dB,1.76183150068185e+002°)
7.88254877402035e+003	(5.12020586605719e+001dB,1.76153780015655e+002°)
7.94328234724295e+003	(5.12018747384497e+001dB,1.76124184557219e+002°)
8.00448386135906e+003	(5.12016879781549e+001dB,1.76094361976710e+002°)
8.06615692176628e+003	(5.12014983359995e+001dB,1.76064310545210e+002°)
8.12830516164114e+003	(5.12013057676251e+001dB,1.76034028520971e+002°)
8.19093224215312e+003	(5.12011102279953e+001dB,1.76003514149319e+002°)
8.25404185268033e+003	(5.12009116713833e+001dB,1.75972765662572e+002°)
8.31763771102686e+003	(5.12007100513627e+001dB,1.75941781279949e+002°)
8.38172356364177e+003	(5.12005053207961e+001dB,1.75910559207483e+002°)
8.44630318583984e+003	(5.12002974318253e+001dB,1.75879097637929e+002°)
8.51138038202392e+003	(5.12000863358588e+001dB,1.75847394750675e+002°)
