Freq.	V(vout)
Step Information: Run=12  (Run: 12/15)
1.00000000000000e+003	(5.11945888211868e+001dB,1.79512030557662e+002°)
1.00770481413610e+003	(5.11945858624335e+001dB,1.79508270922974e+002°)
1.01546899243308e+003	(5.11945828579158e+001dB,1.79504482322844e+002°)
1.02329299228075e+003	(5.11945798069205e+001dB,1.79500664534141e+002°)
1.03117727459306e+003	(5.11945767087332e+001dB,1.79496817332016e+002°)
1.03912230383517e+003	(5.11945735626205e+001dB,1.79492940489890e+002°)
1.04712854805090e+003	(5.11945703678432e+001dB,1.79489033779438e+002°)
1.05519647889024e+003	(5.11945671236488e+001dB,1.79485096970576e+002°)
1.06332657163716e+003	(5.11945638292718e+001dB,1.79481129831452e+002°)
1.07151930523761e+003	(5.11945604839354e+001dB,1.79477132128425e+002°)
1.07977516232771e+003	(5.11945570868521e+001dB,1.79473103626055e+002°)
1.08809462926223e+003	(5.11945536372221e+001dB,1.79469044087092e+002°)
1.09647819614319e+003	(5.11945501342329e+001dB,1.79464953272458e+002°)
1.10492635684876e+003	(5.11945465770578e+001dB,1.79460830941233e+002°)
1.11343960906236e+003	(5.11945429648604e+001dB,1.79456676850642e+002°)
1.12201845430197e+003	(5.11945392967885e+001dB,1.79452490756044e+002°)
1.13066339794964e+003	(5.11945355719765e+001dB,1.79448272410909e+002°)
1.13937494928134e+003	(5.11945317895489e+001dB,1.79444021566815e+002°)
1.14815362149688e+003	(5.11945279486147e+001dB,1.79439737973422e+002°)
1.15699993175021e+003	(5.11945240482677e+001dB,1.79435421378465e+002°)
1.16591440117983e+003	(5.11945200875890e+001dB,1.79431071527738e+002°)
1.17489755493953e+003	(5.11945160656447e+001dB,1.79426688165075e+002°)
1.18394992222930e+003	(5.11945119814897e+001dB,1.79422271032340e+002°)
1.19307203632654e+003	(5.11945078341603e+001dB,1.79417819869409e+002°)
1.20226443461742e+003	(5.11945036226783e+001dB,1.79413334414156e+002°)
1.21152765862859e+003	(5.11944993460536e+001dB,1.79408814402434e+002°)
1.22086225405907e+003	(5.11944950032777e+001dB,1.79404259568067e+002°)
1.23026877081238e+003	(5.11944905933260e+001dB,1.79399669642827e+002°)
1.23974776302895e+003	(5.11944861151610e+001dB,1.79395044356421e+002°)
1.24929978911874e+003	(5.11944815677288e+001dB,1.79390383436477e+002°)
1.25892541179417e+003	(5.11944769499554e+001dB,1.79385686608524e+002°)
1.26862519810326e+003	(5.11944722607545e+001dB,1.79380953595981e+002°)
1.27839971946303e+003	(5.11944674990208e+001dB,1.79376184120135e+002°)
1.28824955169314e+003	(5.11944626636319e+001dB,1.79371377900129e+002°)
1.29817527504985e+003	(5.11944577534490e+001dB,1.79366534652943e+002°)
1.30817747426020e+003	(5.11944527673174e+001dB,1.79361654093380e+002°)
1.31825673855641e+003	(5.11944477040591e+001dB,1.79356735934047e+002°)
1.32841366171065e+003	(5.11944425624819e+001dB,1.79351779885338e+002°)
1.33864884207000e+003	(5.11944373413766e+001dB,1.79346785655420e+002°)
1.34896288259166e+003	(5.11944320395092e+001dB,1.79341752950211e+002°)
1.35935639087853e+003	(5.11944266556353e+001dB,1.79336681473367e+002°)
1.36982997921497e+003	(5.11944211884825e+001dB,1.79331570926262e+002°)
1.38038426460289e+003	(5.11944156367661e+001dB,1.79326421007974e+002°)
1.39101986879806e+003	(5.11944099991750e+001dB,1.79321231415262e+002°)
1.40173741834677e+003	(5.11944042743830e+001dB,1.79316001842552e+002°)
1.41253754462276e+003	(5.11943984610403e+001dB,1.79310731981920e+002°)
1.42342088386435e+003	(5.11943925577787e+001dB,1.79305421523070e+002°)
1.43438807721197e+003	(5.11943865632067e+001dB,1.79300070153318e+002°)
1.44543977074593e+003	(5.11943804759107e+001dB,1.79294677557574e+002°)
1.45657661552446e+003	(5.11943742944601e+001dB,1.79289243418324e+002°)
1.46779926762207e+003	(5.11943680173949e+001dB,1.79283767415610e+002°)
1.47910838816821e+003	(5.11943616432385e+001dB,1.79278249227011e+002°)
1.49050464338620e+003	(5.11943551704877e+001dB,1.79272688527625e+002°)
1.50198870463249e+003	(5.11943485976206e+001dB,1.79267084990050e+002°)
1.51356124843621e+003	(5.11943419230843e+001dB,1.79261438284365e+002°)
1.52522295653902e+003	(5.11943351453096e+001dB,1.79255748078110e+002°)
1.53697451593528e+003	(5.11943282626975e+001dB,1.79250014036267e+002°)
1.54881661891249e+003	(5.11943212736300e+001dB,1.79244235821240e+002°)
1.56074996309212e+003	(5.11943141764589e+001dB,1.79238413092834e+002°)
1.57277525147067e+003	(5.11943069695094e+001dB,1.79232545508238e+002°)
1.58489319246112e+003	(5.11942996510878e+001dB,1.79226632722004e+002°)
1.59710449993461e+003	(5.11942922194684e+001dB,1.79220674386024e+002°)
1.60940989326254e+003	(5.11942846729011e+001dB,1.79214670149513e+002°)
1.62181009735894e+003	(5.11942770096060e+001dB,1.79208619658987e+002°)
1.63430584272314e+003	(5.11942692277807e+001dB,1.79202522558242e+002°)
1.64689786548288e+003	(5.11942613255898e+001dB,1.79196378488335e+002°)
1.65958690743757e+003	(5.11942533011737e+001dB,1.79190187087559e+002°)
1.67237371610209e+003	(5.11942451526401e+001dB,1.79183947991426e+002°)
1.68525904475076e+003	(5.11942368780711e+001dB,1.79177660832646e+002°)
1.69824365246175e+003	(5.11942284755160e+001dB,1.79171325241099e+002°)
1.71132830416179e+003	(5.11942199429968e+001dB,1.79164940843822e+002°)
1.72451377067121e+003	(5.11942112785031e+001dB,1.79158507264981e+002°)
1.73780082874938e+003	(5.11942024799921e+001dB,1.79152024125851e+002°)
1.75119026114047e+003	(5.11941935453937e+001dB,1.79145491044795e+002°)
1.76468285661951e+003	(5.11941844726026e+001dB,1.79138907637240e+002°)
1.77827941003893e+003	(5.11941752594812e+001dB,1.79132273515654e+002°)
1.79198072237534e+003	(5.11941659038587e+001dB,1.79125588289527e+002°)
1.80578760077673e+003	(5.11941564035337e+001dB,1.79118851565343e+002°)
1.81970085860999e+003	(5.11941467562634e+001dB,1.79112062946560e+002°)
1.83372131550889e+003	(5.11941369597802e+001dB,1.79105222033589e+002°)
1.84784979742230e+003	(5.11941270117754e+001dB,1.79098328423763e+002°)
1.86208713666288e+003	(5.11941169099045e+001dB,1.79091381711323e+002°)
1.87643417195610e+003	(5.11941066517888e+001dB,1.79084381487387e+002°)
1.89089174848965e+003	(5.11940962350107e+001dB,1.79077327339931e+002°)
1.90546071796326e+003	(5.11940856571192e+001dB,1.79070218853761e+002°)
1.92014193863881e+003	(5.11940749156198e+001dB,1.79063055610491e+002°)
1.93493627539096e+003	(5.11940640079836e+001dB,1.79055837188517e+002°)
1.94984459975806e+003	(5.11940529316417e+001dB,1.79048563162996e+002°)
1.96486778999348e+003	(5.11940416839856e+001dB,1.79041233105816e+002°)
1.98000673111740e+003	(5.11940302623638e+001dB,1.79033846585574e+002°)
1.99526231496889e+003	(5.11940186640892e+001dB,1.79026403167552e+002°)
2.01063544025850e+003	(5.11940068864274e+001dB,1.79018902413689e+002°)
2.02612701262116e+003	(5.11939949266044e+001dB,1.79011343882555e+002°)
2.04173794466954e+003	(5.11939827818055e+001dB,1.79003727129329e+002°)
2.05746915604785e+003	(5.11939704491677e+001dB,1.78996051705769e+002°)
2.07332157348597e+003	(5.11939579257882e+001dB,1.78988317160189e+002°)
2.08929613085405e+003	(5.11939452087155e+001dB,1.78980523037429e+002°)
2.10539376921757e+003	(5.11939322949565e+001dB,1.78972668878832e+002°)
2.12161543689270e+003	(5.11939191814671e+001dB,1.78964754222216e+002°)
2.13796208950225e+003	(5.11939058651612e+001dB,1.78956778601847e+002°)
2.15443469003190e+003	(5.11938923428995e+001dB,1.78948741548410e+002°)
2.17103420888697e+003	(5.11938786115016e+001dB,1.78940642588986e+002°)
2.18776162394957e+003	(5.11938646677306e+001dB,1.78932481247020e+002°)
2.20461792063620e+003	(5.11938505083027e+001dB,1.78924257042295e+002°)
2.22160409195583e+003	(5.11938361298823e+001dB,1.78915969490905e+002°)
2.23872113856835e+003	(5.11938215290850e+001dB,1.78907618105224e+002°)
2.25597006884359e+003	(5.11938067024717e+001dB,1.78899202393882e+002°)
2.27335189892065e+003	(5.11937916465484e+001dB,1.78890721861732e+002°)
2.29086765276779e+003	(5.11937763577729e+001dB,1.78882176009823e+002°)
2.30851836224278e+003	(5.11937608325428e+001dB,1.78873564335372e+002°)
2.32630506715364e+003	(5.11937450672017e+001dB,1.78864886331732e+002°)
2.34422881531994e+003	(5.11937290580385e+001dB,1.78856141488366e+002°)
2.36229066263448e+003	(5.11937128012803e+001dB,1.78847329290813e+002°)
2.38049167312553e+003	(5.11936962930998e+001dB,1.78838449220663e+002°)
2.39883291901951e+003	(5.11936795296089e+001dB,1.78829500755524e+002°)
2.41731548080412e+003	(5.11936625068625e+001dB,1.78820483368989e+002°)
2.43594044729204e+003	(5.11936452208497e+001dB,1.78811396530613e+002°)
2.45470891568505e+003	(5.11936276675011e+001dB,1.78802239705872e+002°)
2.47362199163864e+003	(5.11936098426799e+001dB,1.78793012356143e+002°)
2.49268078932720e+003	(5.11935917421918e+001dB,1.78783713938663e+002°)
2.51188643150960e+003	(5.11935733617773e+001dB,1.78774343906504e+002°)
2.53124004959538e+003	(5.11935546971014e+001dB,1.78764901708537e+002°)
2.55074278371138e+003	(5.11935357437733e+001dB,1.78755386789403e+002°)
2.57039578276888e+003	(5.11935164973295e+001dB,1.78745798589480e+002°)
2.59020020453134e+003	(5.11934969532372e+001dB,1.78736136544847e+002°)
2.61015721568256e+003	(5.11934771068966e+001dB,1.78726400087259e+002°)
2.63026799189540e+003	(5.11934569536311e+001dB,1.78716588644105e+002°)
2.65053371790110e+003	(5.11934364886976e+001dB,1.78706701638381e+002°)
2.67095558755901e+003	(5.11934157072782e+001dB,1.78696738488657e+002°)
2.69153480392694e+003	(5.11933946044786e+001dB,1.78686698609036e+002°)
2.71227257933205e+003	(5.11933731753300e+001dB,1.78676581409128e+002°)
2.73317013544226e+003	(5.11933514147866e+001dB,1.78666386294013e+002°)
2.75422870333819e+003	(5.11933293177254e+001dB,1.78656112664205e+002°)
2.77544952358573e+003	(5.11933068789449e+001dB,1.78645759915619e+002°)
2.79683384630910e+003	(5.11932840931619e+001dB,1.78635327439537e+002°)
2.81838293126448e+003	(5.11932609550093e+001dB,1.78624814622569e+002°)
2.84009804791424e+003	(5.11932374590433e+001dB,1.78614220846621e+002°)
2.86198047550173e+003	(5.11932135997303e+001dB,1.78603545488857e+002°)
2.88403150312663e+003	(5.11931893714515e+001dB,1.78592787921666e+002°)
2.90625242982089e+003	(5.11931647685067e+001dB,1.78581947512622e+002°)
2.92864456462526e+003	(5.11931397851017e+001dB,1.78571023624451e+002°)
2.95120922666641e+003	(5.11931144153537e+001dB,1.78560015614989e+002°)
2.97394774523463e+003	(5.11930886532943e+001dB,1.78548922837153e+002°)
2.99686145986215e+003	(5.11930624928537e+001dB,1.78537744638895e+002°)
3.01995172040204e+003	(5.11930359278783e+001dB,1.78526480363168e+002°)
3.04321988710775e+003	(5.11930089521124e+001dB,1.78515129347891e+002°)
3.06666733071321e+003	(5.11929815592039e+001dB,1.78503690925907e+002°)
3.09029543251362e+003	(5.11929537427109e+001dB,1.78492164424944e+002°)
3.11410558444679e+003	(5.11929254960812e+001dB,1.78480549167580e+002°)
3.13809918917516e+003	(5.11928968126650e+001dB,1.78468844471200e+002°)
3.16227766016841e+003	(5.11928676857109e+001dB,1.78457049647960e+002°)
3.18664242178676e+003	(5.11928381083670e+001dB,1.78445164004744e+002°)
3.21119490936485e+003	(5.11928080736678e+001dB,1.78433186843127e+002°)
3.23593656929631e+003	(5.11927775745453e+001dB,1.78421117459334e+002°)
3.26086885911896e+003	(5.11927466038206e+001dB,1.78408955144197e+002°)
3.28599324760069e+003	(5.11927151542043e+001dB,1.78396699183118e+002°)
3.31131121482594e+003	(5.11926832182946e+001dB,1.78384348856027e+002°)
3.33682425228297e+003	(5.11926507885771e+001dB,1.78371903437337e+002°)
3.36253386295166e+003	(5.11926178574174e+001dB,1.78359362195909e+002°)
3.38844156139206e+003	(5.11925844170649e+001dB,1.78346724395002e+002°)
3.41454887383364e+003	(5.11925504596518e+001dB,1.78333989292238e+002°)
3.44085733826517e+003	(5.11925159771855e+001dB,1.78321156139554e+002°)
3.46736850452535e+003	(5.11924809615511e+001dB,1.78308224183162e+002°)
3.49408393439410e+003	(5.11924454045088e+001dB,1.78295192663507e+002°)
3.52100520168456e+003	(5.11924092976921e+001dB,1.78282060815218e+002°)
3.54813389233579e+003	(5.11923726326035e+001dB,1.78268827867070e+002°)
3.57547160450625e+003	(5.11923354006160e+001dB,1.78255493041936e+002°)
3.60301994866789e+003	(5.11922975929685e+001dB,1.78242055556746e+002°)
3.63078054770105e+003	(5.11922592007644e+001dB,1.78228514622438e+002°)
3.65875503699007e+003	(5.11922202149700e+001dB,1.78214869443915e+002°)
3.68694506451962e+003	(5.11921806264127e+001dB,1.78201119220002e+002°)
3.71535229097177e+003	(5.11921404257817e+001dB,1.78187263143396e+002°)
3.74397838982385e+003	(5.11920996036129e+001dB,1.78173300400621e+002°)
3.77282504744704e+003	(5.11920581503055e+001dB,1.78159230171983e+002°)
3.80189396320565e+003	(5.11920160561043e+001dB,1.78145051631523e+002°)
3.83118684955733e+003	(5.11919733111099e+001dB,1.78130763946968e+002°)
3.86070543215386e+003	(5.11919299052625e+001dB,1.78116366279686e+002°)
3.89045144994285e+003	(5.11918858283533e+001dB,1.78101857784635e+002°)
3.92042665527020e+003	(5.11918410700124e+001dB,1.78087237610321e+002°)
3.95063281398328e+003	(5.11917956197120e+001dB,1.78072504898740e+002°)
3.98107170553502e+003	(5.11917494667605e+001dB,1.78057658785341e+002°)
4.01174512308867e+003	(5.11917026003008e+001dB,1.78042698398964e+002°)
4.04265487362349e+003	(5.11916550093114e+001dB,1.78027622861801e+002°)
4.07380277804117e+003	(5.11916066825958e+001dB,1.78012431289341e+002°)
4.10519067127313e+003	(5.11915576087899e+001dB,1.77997122790322e+002°)
4.13682040238856e+003	(5.11915077763497e+001dB,1.77981696466678e+002°)
4.16869383470340e+003	(5.11914571735560e+001dB,1.77966151413488e+002°)
4.20081284589012e+003	(5.11914057885068e+001dB,1.77950486718930e+002°)
4.23317932808826e+003	(5.11913536091179e+001dB,1.77934701464223e+002°)
4.26579518801598e+003	(5.11913006231201e+001dB,1.77918794723579e+002°)
4.29866234708233e+003	(5.11912468180515e+001dB,1.77902765564146e+002°)
4.33178274150047e+003	(5.11911921812611e+001dB,1.77886613045963e+002°)
4.36515832240171e+003	(5.11911366998997e+001dB,1.77870336221898e+002°)
4.39879105595049e+003	(5.11910803609202e+001dB,1.77853934137601e+002°)
4.43268292346014e+003	(5.11910231510803e+001dB,1.77837405831449e+002°)
4.46683592150969e+003	(5.11909650569254e+001dB,1.77820750334490e+002°)
4.50125206206139e+003	(5.11909060647973e+001dB,1.77803966670388e+002°)
4.53593337257933e+003	(5.11908461608267e+001dB,1.77787053855371e+002°)
4.57088189614881e+003	(5.11907853309285e+001dB,1.77770010898172e+002°)
4.60609969159672e+003	(5.11907235608053e+001dB,1.77752836799979e+002°)
4.64158883361284e+003	(5.11906608359333e+001dB,1.77735530554371e+002°)
4.67735141287204e+003	(5.11905971415708e+001dB,1.77718091147268e+002°)
4.71338953615747e+003	(5.11905324627433e+001dB,1.77700517556870e+002°)
4.74970532648462e+003	(5.11904667842487e+001dB,1.77682808753605e+002°)
4.78630092322645e+003	(5.11904000906501e+001dB,1.77664963700064e+002°)
4.82317848223937e+003	(5.11903323662715e+001dB,1.77646981350948e+002°)
4.86034017599028e+003	(5.11902635951943e+001dB,1.77628860653010e+002°)
4.89778819368453e+003	(5.11901937612553e+001dB,1.77610600544993e+002°)
4.93552474139487e+003	(5.11901228480475e+001dB,1.77592199957573e+002°)
4.97355204219146e+003	(5.11900508389049e+001dB,1.77573657813298e+002°)
5.01187233627279e+003	(5.11899777169048e+001dB,1.77554973026530e+002°)
5.05048788109766e+003	(5.11899034648662e+001dB,1.77536144503383e+002°)
5.08940095151816e+003	(5.11898280653423e+001dB,1.77517171141660e+002°)
5.12861383991372e+003	(5.11897515006173e+001dB,1.77498051830798e+002°)
5.16812885632611e+003	(5.11896737527025e+001dB,1.77478785451800e+002°)
5.20794832859554e+003	(5.11895948033323e+001dB,1.77459370877176e+002°)
5.24807460249780e+003	(5.11895146339592e+001dB,1.77439806970880e+002°)
5.28851004188245e+003	(5.11894332257516e+001dB,1.77420092588249e+002°)
5.32925702881208e+003	(5.11893505595836e+001dB,1.77400226575934e+002°)
5.37031796370260e+003	(5.11892666160421e+001dB,1.77380207771843e+002°)
5.41169526546471e+003	(5.11891813754073e+001dB,1.77360035005074e+002°)
5.45339137164635e+003	(5.11890948176599e+001dB,1.77339707095849e+002°)
5.49540873857633e+003	(5.11890069224729e+001dB,1.77319222855453e+002°)
5.53774984150898e+003	(5.11889176692027e+001dB,1.77298581086162e+002°)
5.58041717477005e+003	(5.11888270368899e+001dB,1.77277780581185e+002°)
5.62341325190357e+003	(5.11887350042538e+001dB,1.77256820124593e+002°)
5.66674060582000e+003	(5.11886415496851e+001dB,1.77235698491254e+002°)
5.71040178894535e+003	(5.11885466512393e+001dB,1.77214414446762e+002°)
5.75439937337165e+003	(5.11884502866367e+001dB,1.77192966747377e+002°)
5.79873595100840e+003	(5.11883524332577e+001dB,1.77171354139952e+002°)
5.84341413373526e+003	(5.11882530681258e+001dB,1.77149575361863e+002°)
5.88843655355598e+003	(5.11881521679205e+001dB,1.77127629140945e+002°)
5.93380586275337e+003	(5.11880497089550e+001dB,1.77105514195420e+002°)
5.97952473404561e+003	(5.11879456671832e+001dB,1.77083229233826e+002°)
6.02559586074367e+003	(5.11878400181858e+001dB,1.77060772954952e+002°)
6.07202195690998e+003	(5.11877327371714e+001dB,1.77038144047762e+002°)
6.11880575751831e+003	(5.11876237989602e+001dB,1.77015341191325e+002°)
6.16595001861492e+003	(5.11875131779954e+001dB,1.76992363054747e+002°)
6.21345751748085e+003	(5.11874008483156e+001dB,1.76969208297094e+002°)
6.26133105279562e+003	(5.11872867835718e+001dB,1.76945875567327e+002°)
6.30957344480203e+003	(5.11871709569991e+001dB,1.76922363504220e+002°)
6.35818753547233e+003	(5.11870533414274e+001dB,1.76898670736295e+002°)
6.40717618867564e+003	(5.11869339092694e+001dB,1.76874795881741e+002°)
6.45654229034666e+003	(5.11868126325089e+001dB,1.76850737548347e+002°)
6.50628874865568e+003	(5.11866894827046e+001dB,1.76826494333426e+002°)
6.55641849417989e+003	(5.11865644309751e+001dB,1.76802064823734e+002°)
6.60693448007607e+003	(5.11864374479919e+001dB,1.76777447595400e+002°)
6.65783968225447e+003	(5.11863085039821e+001dB,1.76752641213852e+002°)
6.70913709955422e+003	(5.11861775687136e+001dB,1.76727644233735e+002°)
6.76082975391993e+003	(5.11860446114835e+001dB,1.76702455198838e+002°)
6.81292069057972e+003	(5.11859096011280e+001dB,1.76677072642015e+002°)
6.86541297822466e+003	(5.11857725059956e+001dB,1.76651495085110e+002°)
6.91830970918948e+003	(5.11856332939520e+001dB,1.76625721038874e+002°)
6.97161399963479e+003	(5.11854919323708e+001dB,1.76599749002895e+002°)
7.02532898973064e+003	(5.11853483881233e+001dB,1.76573577465508e+002°)
7.07945784384150e+003	(5.11852026275710e+001dB,1.76547204903725e+002°)
7.13400375071268e+003	(5.11850546165592e+001dB,1.76520629783150e+002°)
7.18896992365819e+003	(5.11849043204127e+001dB,1.76493850557900e+002°)
7.24435960075002e+003	(5.11847517039182e+001dB,1.76466865670521e+002°)
7.30017604500890e+003	(5.11845967313246e+001dB,1.76439673551920e+002°)
7.35642254459654e+003	(5.11844393663335e+001dB,1.76412272621261e+002°)
7.41310241300930e+003	(5.11842795720906e+001dB,1.76384661285905e+002°)
7.47021898927344e+003	(5.11841173111715e+001dB,1.76356837941312e+002°)
7.52777563814179e+003	(5.11839525455798e+001dB,1.76328800970967e+002°)
7.58577575029197e+003	(5.11837852367386e+001dB,1.76300548746293e+002°)
7.64422274252613e+003	(5.11836153454755e+001dB,1.76272079626567e+002°)
7.70312005797228e+003	(5.11834428320241e+001dB,1.76243391958836e+002°)
7.76247116628705e+003	(5.11832676559983e+001dB,1.76214484077833e+002°)
7.82227956386016e+003	(5.11830897764024e+001dB,1.76185354305894e+002°)
7.88254877402035e+003	(5.11829091516069e+001dB,1.76156000952865e+002°)
7.94328234724295e+003	(5.11827257393475e+001dB,1.76126422316023e+002°)
8.00448386135906e+003	(5.11825394967093e+001dB,1.76096616679992e+002°)
8.06615692176628e+003	(5.11823503801196e+001dB,1.76066582316644e+002°)
8.12830516164114e+003	(5.11821583453450e+001dB,1.76036317485024e+002°)
8.19093224215312e+003	(5.11819633474658e+001dB,1.76005820431256e+002°)
8.25404185268033e+003	(5.11817653408807e+001dB,1.75975089388456e+002°)
8.31763771102686e+003	(5.11815642792862e+001dB,1.75944122576648e+002°)
8.38172356364177e+003	(5.11813601156702e+001dB,1.75912918202663e+002°)
8.44630318583984e+003	(5.11811528023070e+001dB,1.75881474460065e+002°)
8.51138038202392e+003	(5.11809422907311e+001dB,1.75849789529049e+002°)
