Freq.	V(vout)
Step Information: Run=2  (Run: 2/15)
1.00000000000000e+003	(5.10512633244318e+001dB,1.79517203349108e+002°)
1.00770481413610e+003	(5.10512604311494e+001dB,1.79513483567417e+002°)
1.01546899243308e+003	(5.10512574931124e+001dB,1.79509735127287e+002°)
1.02329299228075e+003	(5.10512545096289e+001dB,1.79505957807953e+002°)
1.03117727459306e+003	(5.10512514799959e+001dB,1.79502151386947e+002°)
1.03912230383517e+003	(5.10512484034989e+001dB,1.79498315640092e+002°)
1.04712854805090e+003	(5.10512452794139e+001dB,1.79494450341480e+002°)
1.05519647889024e+003	(5.10512421070048e+001dB,1.79490555263467e+002°)
1.06332657163716e+003	(5.10512388855232e+001dB,1.79486630176655e+002°)
1.07151930523761e+003	(5.10512356142107e+001dB,1.79482674849880e+002°)
1.07977516232771e+003	(5.10512322922966e+001dB,1.79478689050197e+002°)
1.08809462926223e+003	(5.10512289189981e+001dB,1.79474672542867e+002°)
1.09647819614319e+003	(5.10512254935203e+001dB,1.79470625091347e+002°)
1.10492635684876e+003	(5.10512220150565e+001dB,1.79466546457268e+002°)
1.11343960906236e+003	(5.10512184827867e+001dB,1.79462436400429e+002°)
1.12201845430197e+003	(5.10512148958787e+001dB,1.79458294678778e+002°)
1.13066339794964e+003	(5.10512112534875e+001dB,1.79454121048400e+002°)
1.13937494928134e+003	(5.10512075547548e+001dB,1.79449915263501e+002°)
1.14815362149688e+003	(5.10512037988097e+001dB,1.79445677076396e+002°)
1.15699993175021e+003	(5.10511999847663e+001dB,1.79441406237492e+002°)
1.16591440117983e+003	(5.10511961117265e+001dB,1.79437102495274e+002°)
1.17489755493953e+003	(5.10511921787778e+001dB,1.79432765596292e+002°)
1.18394992222930e+003	(5.10511881849935e+001dB,1.79428395285143e+002°)
1.19307203632654e+003	(5.10511841294329e+001dB,1.79423991304458e+002°)
1.20226443461742e+003	(5.10511800111400e+001dB,1.79419553394889e+002°)
1.21152765862859e+003	(5.10511758291448e+001dB,1.79415081295088e+002°)
1.22086225405907e+003	(5.10511715824620e+001dB,1.79410574741696e+002°)
1.23026877081238e+003	(5.10511672700910e+001dB,1.79406033469328e+002°)
1.23974776302895e+003	(5.10511628910154e+001dB,1.79401457210554e+002°)
1.24929978911874e+003	(5.10511584442041e+001dB,1.79396845695886e+002°)
1.25892541179417e+003	(5.10511539286090e+001dB,1.79392198653762e+002°)
1.26862519810326e+003	(5.10511493431668e+001dB,1.79387515810528e+002°)
1.27839971946303e+003	(5.10511446867962e+001dB,1.79382796890426e+002°)
1.28824955169314e+003	(5.10511399584009e+001dB,1.79378041615571e+002°)
1.29817527504985e+003	(5.10511351568667e+001dB,1.79373249705944e+002°)
1.30817747426020e+003	(5.10511302810622e+001dB,1.79368420879366e+002°)
1.31825673855641e+003	(5.10511253298387e+001dB,1.79363554851489e+002°)
1.32841366171065e+003	(5.10511203020301e+001dB,1.79358651335774e+002°)
1.33864884207000e+003	(5.10511151964514e+001dB,1.79353710043478e+002°)
1.34896288259166e+003	(5.10511100118997e+001dB,1.79348730683635e+002°)
1.35935639087853e+003	(5.10511047471539e+001dB,1.79343712963040e+002°)
1.36982997921497e+003	(5.10510994009733e+001dB,1.79338656586228e+002°)
1.38038426460289e+003	(5.10510939720987e+001dB,1.79333561255464e+002°)
1.39101986879806e+003	(5.10510884592510e+001dB,1.79328426670720e+002°)
1.40173741834677e+003	(5.10510828611310e+001dB,1.79323252529658e+002°)
1.41253754462276e+003	(5.10510771764201e+001dB,1.79318038527612e+002°)
1.42342088386435e+003	(5.10510714037794e+001dB,1.79312784357575e+002°)
1.43438807721197e+003	(5.10510655418484e+001dB,1.79307489710173e+002°)
1.44543977074593e+003	(5.10510595892463e+001dB,1.79302154273654e+002°)
1.45657661552446e+003	(5.10510535445705e+001dB,1.79296777733865e+002°)
1.46779926762207e+003	(5.10510474063972e+001dB,1.79291359774235e+002°)
1.47910838816821e+003	(5.10510411732805e+001dB,1.79285900075759e+002°)
1.49050464338620e+003	(5.10510348437513e+001dB,1.79280398316975e+002°)
1.50198870463249e+003	(5.10510284163192e+001dB,1.79274854173948e+002°)
1.51356124843621e+003	(5.10510218894694e+001dB,1.79269267320250e+002°)
1.52522295653902e+003	(5.10510152616648e+001dB,1.79263637426941e+002°)
1.53697451593528e+003	(5.10510085313436e+001dB,1.79257964162549e+002°)
1.54881661891249e+003	(5.10510016969205e+001dB,1.79252247193054e+002°)
1.56074996309212e+003	(5.10509947567850e+001dB,1.79246486181864e+002°)
1.57277525147067e+003	(5.10509877093025e+001dB,1.79240680789795e+002°)
1.58489319246112e+003	(5.10509805528131e+001dB,1.79234830675057e+002°)
1.59710449993461e+003	(5.10509732856301e+001dB,1.79228935493228e+002°)
1.60940989326254e+003	(5.10509659060419e+001dB,1.79222994897237e+002°)
1.62181009735894e+003	(5.10509584123102e+001dB,1.79217008537341e+002°)
1.63430584272314e+003	(5.10509508026694e+001dB,1.79210976061109e+002°)
1.64689786548288e+003	(5.10509430753270e+001dB,1.79204897113394e+002°)
1.65958690743757e+003	(5.10509352284626e+001dB,1.79198771336322e+002°)
1.67237371610209e+003	(5.10509272602276e+001dB,1.79192598369263e+002°)
1.68525904475076e+003	(5.10509191687452e+001dB,1.79186377848812e+002°)
1.69824365246175e+003	(5.10509109521092e+001dB,1.79180109408769e+002°)
1.71132830416179e+003	(5.10509026083838e+001dB,1.79173792680118e+002°)
1.72451377067121e+003	(5.10508941356035e+001dB,1.79167427291004e+002°)
1.73780082874938e+003	(5.10508855317727e+001dB,1.79161012866710e+002°)
1.75119026114047e+003	(5.10508767948643e+001dB,1.79154549029638e+002°)
1.76468285661951e+003	(5.10508679228205e+001dB,1.79148035399286e+002°)
1.77827941003893e+003	(5.10508589135511e+001dB,1.79141471592224e+002°)
1.79198072237534e+003	(5.10508497649338e+001dB,1.79134857222073e+002°)
1.80578760077673e+003	(5.10508404748140e+001dB,1.79128191899483e+002°)
1.81970085860999e+003	(5.10508310410028e+001dB,1.79121475232109e+002°)
1.83372131550889e+003	(5.10508214612785e+001dB,1.79114706824589e+002°)
1.84784979742230e+003	(5.10508117333840e+001dB,1.79107886278520e+002°)
1.86208713666288e+003	(5.10508018550285e+001dB,1.79101013192434e+002°)
1.87643417195610e+003	(5.10507918238844e+001dB,1.79094087161778e+002°)
1.89089174848965e+003	(5.10507816375896e+001dB,1.79087107778885e+002°)
1.90546071796326e+003	(5.10507712937437e+001dB,1.79080074632956e+002°)
1.92014193863881e+003	(5.10507607899113e+001dB,1.79072987310032e+002°)
1.93493627539096e+003	(5.10507501236174e+001dB,1.79065845392970e+002°)
1.94984459975806e+003	(5.10507392923501e+001dB,1.79058648461421e+002°)
1.96486778999348e+003	(5.10507282935581e+001dB,1.79051396091803e+002°)
1.98000673111740e+003	(5.10507171246505e+001dB,1.79044087857278e+002°)
1.99526231496889e+003	(5.10507057829968e+001dB,1.79036723327725e+002°)
2.01063544025850e+003	(5.10506942659249e+001dB,1.79029302069718e+002°)
2.02612701262116e+003	(5.10506825707232e+001dB,1.79021823646498e+002°)
2.04173794466954e+003	(5.10506706946366e+001dB,1.79014287617948e+002°)
2.05746915604785e+003	(5.10506586348673e+001dB,1.79006693540567e+002°)
2.07332157348597e+003	(5.10506463885756e+001dB,1.78999040967448e+002°)
2.08929613085405e+003	(5.10506339528766e+001dB,1.78991329448245e+002°)
2.10539376921757e+003	(5.10506213248413e+001dB,1.78983558529152e+002°)
2.12161543689270e+003	(5.10506085014961e+001dB,1.78975727752875e+002°)
2.13796208950225e+003	(5.10505954798199e+001dB,1.78967836658606e+002°)
2.15443469003190e+003	(5.10505822567462e+001dB,1.78959884781994e+002°)
2.17103420888697e+003	(5.10505688291608e+001dB,1.78951871655120e+002°)
2.18776162394957e+003	(5.10505551939011e+001dB,1.78943796806469e+002°)
2.20461792063620e+003	(5.10505413477555e+001dB,1.78935659760902e+002°)
2.22160409195583e+003	(5.10505272874632e+001dB,1.78927460039630e+002°)
2.23872113856835e+003	(5.10505130097127e+001dB,1.78919197160184e+002°)
2.25597006884359e+003	(5.10504985111417e+001dB,1.78910870636388e+002°)
2.27335189892065e+003	(5.10504837883352e+001dB,1.78902479978330e+002°)
2.29086765276779e+003	(5.10504688378261e+001dB,1.78894024692335e+002°)
2.30851836224278e+003	(5.10504536560936e+001dB,1.78885504280935e+002°)
2.32630506715364e+003	(5.10504382395618e+001dB,1.78876918242839e+002°)
2.34422881531994e+003	(5.10504225846002e+001dB,1.78868266072907e+002°)
2.36229066263448e+003	(5.10504066875227e+001dB,1.78859547262117e+002°)
2.38049167312553e+003	(5.10503905445850e+001dB,1.78850761297538e+002°)
2.39883291901951e+003	(5.10503741519855e+001dB,1.78841907662298e+002°)
2.41731548080412e+003	(5.10503575058640e+001dB,1.78832985835556e+002°)
2.43594044729204e+003	(5.10503406023005e+001dB,1.78823995292471e+002°)
2.45470891568505e+003	(5.10503234373140e+001dB,1.78814935504171e+002°)
2.47362199163864e+003	(5.10503060068632e+001dB,1.78805805937722e+002°)
2.49268078932720e+003	(5.10502883068427e+001dB,1.78796606056099e+002°)
2.51188643150960e+003	(5.10502703330847e+001dB,1.78787335318150e+002°)
2.53124004959538e+003	(5.10502520813570e+001dB,1.78777993178572e+002°)
2.55074278371138e+003	(5.10502335473616e+001dB,1.78768579087873e+002°)
2.57039578276888e+003	(5.10502147267341e+001dB,1.78759092492343e+002°)
2.59020020453134e+003	(5.10501956150430e+001dB,1.78749532834019e+002°)
2.61015721568256e+003	(5.10501762077880e+001dB,1.78739899550659e+002°)
2.63026799189540e+003	(5.10501565003992e+001dB,1.78730192075700e+002°)
2.65053371790110e+003	(5.10501364882363e+001dB,1.78720409838234e+002°)
2.67095558755901e+003	(5.10501161665874e+001dB,1.78710552262970e+002°)
2.69153480392694e+003	(5.10500955306674e+001dB,1.78700618770202e+002°)
2.71227257933205e+003	(5.10500745756179e+001dB,1.78690608775773e+002°)
2.73317013544226e+003	(5.10500532965045e+001dB,1.78680521691046e+002°)
2.75422870333819e+003	(5.10500316883169e+001dB,1.78670356922865e+002°)
2.77544952358573e+003	(5.10500097459682e+001dB,1.78660113873525e+002°)
2.79683384630910e+003	(5.10499874642920e+001dB,1.78649791940734e+002°)
2.81838293126448e+003	(5.10499648380423e+001dB,1.78639390517578e+002°)
2.84009804791424e+003	(5.10499418618921e+001dB,1.78628908992488e+002°)
2.86198047550173e+003	(5.10499185304315e+001dB,1.78618346749205e+002°)
2.88403150312663e+003	(5.10498948381682e+001dB,1.78607703166741e+002°)
2.90625242982089e+003	(5.10498707795243e+001dB,1.78596977619346e+002°)
2.92864456462526e+003	(5.10498463488357e+001dB,1.78586169476471e+002°)
2.95120922666641e+003	(5.10498215403510e+001dB,1.78575278102731e+002°)
2.97394774523463e+003	(5.10497963482297e+001dB,1.78564302857869e+002°)
2.99686145986215e+003	(5.10497707665419e+001dB,1.78553243096720e+002°)
3.01995172040204e+003	(5.10497447892645e+001dB,1.78542098169169e+002°)
3.04321988710775e+003	(5.10497184102830e+001dB,1.78530867420121e+002°)
3.06666733071321e+003	(5.10496916233877e+001dB,1.78519550189455e+002°)
3.09029543251362e+003	(5.10496644222724e+001dB,1.78508145811994e+002°)
3.11410558444679e+003	(5.10496368005349e+001dB,1.78496653617460e+002°)
3.13809918917516e+003	(5.10496087516729e+001dB,1.78485072930439e+002°)
3.16227766016841e+003	(5.10495802690842e+001dB,1.78473403070339e+002°)
3.18664242178676e+003	(5.10495513460640e+001dB,1.78461643351356e+002°)
3.21119490936485e+003	(5.10495219758052e+001dB,1.78449793082428e+002°)
3.23593656929631e+003	(5.10494921513944e+001dB,1.78437851567202e+002°)
3.26086885911896e+003	(5.10494618658119e+001dB,1.78425818103986e+002°)
3.28599324760069e+003	(5.10494311119297e+001dB,1.78413691985717e+002°)
3.31131121482594e+003	(5.10493998825090e+001dB,1.78401472499914e+002°)
3.33682425228297e+003	(5.10493681702002e+001dB,1.78389158928639e+002°)
3.36253386295166e+003	(5.10493359675396e+001dB,1.78376750548458e+002°)
3.38844156139206e+003	(5.10493032669482e+001dB,1.78364246630395e+002°)
3.41454887383364e+003	(5.10492700607302e+001dB,1.78351646439894e+002°)
3.44085733826517e+003	(5.10492363410712e+001dB,1.78338949236776e+002°)
3.46736850452535e+003	(5.10492021000351e+001dB,1.78326154275193e+002°)
3.49408393439410e+003	(5.10491673295647e+001dB,1.78313260803591e+002°)
3.52100520168456e+003	(5.10491320214775e+001dB,1.78300268064663e+002°)
3.54813389233579e+003	(5.10490961674642e+001dB,1.78287175295306e+002°)
3.57547160450625e+003	(5.10490597590887e+001dB,1.78273981726578e+002°)
3.60301994866789e+003	(5.10490227877834e+001dB,1.78260686583654e+002°)
3.63078054770105e+003	(5.10489852448483e+001dB,1.78247289085781e+002°)
3.65875503699007e+003	(5.10489471214502e+001dB,1.78233788446234e+002°)
3.68694506451962e+003	(5.10489084086186e+001dB,1.78220183872271e+002°)
3.71535229097177e+003	(5.10488690972454e+001dB,1.78206474565086e+002°)
3.74397838982385e+003	(5.10488291780804e+001dB,1.78192659719765e+002°)
3.77282504744704e+003	(5.10487886417322e+001dB,1.78178738525242e+002°)
3.80189396320565e+003	(5.10487474786635e+001dB,1.78164710164247e+002°)
3.83118684955733e+003	(5.10487056791899e+001dB,1.78150573813264e+002°)
3.86070543215386e+003	(5.10486632334778e+001dB,1.78136328642484e+002°)
3.89045144994285e+003	(5.10486201315417e+001dB,1.78121973815754e+002°)
3.92042665527020e+003	(5.10485763632421e+001dB,1.78107508490534e+002°)
3.95063281398328e+003	(5.10485319182825e+001dB,1.78092931817846e+002°)
3.98107170553502e+003	(5.10484867862079e+001dB,1.78078242942226e+002°)
4.01174512308867e+003	(5.10484409564023e+001dB,1.78063441001676e+002°)
4.04265487362349e+003	(5.10483944180851e+001dB,1.78048525127614e+002°)
4.07380277804117e+003	(5.10483471603101e+001dB,1.78033494444827e+002°)
4.10519067127313e+003	(5.10482991719613e+001dB,1.78018348071418e+002°)
4.13682040238856e+003	(5.10482504417521e+001dB,1.78003085118759e+002°)
4.16869383470340e+003	(5.10482009582209e+001dB,1.77987704691438e+002°)
4.20081284589012e+003	(5.10481507097300e+001dB,1.77972205887210e+002°)
4.23317932808826e+003	(5.10480996844622e+001dB,1.77956587796945e+002°)
4.26579518801598e+003	(5.10480478704169e+001dB,1.77940849504577e+002°)
4.29866234708233e+003	(5.10479952554096e+001dB,1.77924990087052e+002°)
4.33178274150047e+003	(5.10479418270673e+001dB,1.77909008614274e+002°)
4.36515832240171e+003	(5.10478875728257e+001dB,1.77892904149056e+002°)
4.39879105595049e+003	(5.10478324799277e+001dB,1.77876675747065e+002°)
4.43268292346014e+003	(5.10477765354186e+001dB,1.77860322456769e+002°)
4.46683592150969e+003	(5.10477197261443e+001dB,1.77843843319382e+002°)
4.50125206206139e+003	(5.10476620387476e+001dB,1.77827237368811e+002°)
4.53593337257933e+003	(5.10476034596652e+001dB,1.77810503631603e+002°)
4.57088189614881e+003	(5.10475439751252e+001dB,1.77793641126889e+002°)
4.60609969159672e+003	(5.10474835711427e+001dB,1.77776648866326e+002°)
4.64158883361284e+003	(5.10474222335174e+001dB,1.77759525854048e+002°)
4.67735141287204e+003	(5.10473599478302e+001dB,1.77742271086603e+002°)
4.71338953615747e+003	(5.10472966994391e+001dB,1.77724883552900e+002°)
4.74970532648462e+003	(5.10472324734772e+001dB,1.77707362234156e+002°)
4.78630092322645e+003	(5.10471672548478e+001dB,1.77689706103829e+002°)
4.82317848223937e+003	(5.10471010282213e+001dB,1.77671914127571e+002°)
4.86034017599028e+003	(5.10470337780328e+001dB,1.77653985263164e+002°)
4.89778819368453e+003	(5.10469654884758e+001dB,1.77635918460463e+002°)
4.93552474139487e+003	(5.10468961435018e+001dB,1.77617712661339e+002°)
4.97355204219146e+003	(5.10468257268143e+001dB,1.77599366799617e+002°)
5.01187233627279e+003	(5.10467542218650e+001dB,1.77580879801019e+002°)
5.05048788109766e+003	(5.10466816118516e+001dB,1.77562250583104e+002°)
5.08940095151816e+003	(5.10466078797126e+001dB,1.77543478055206e+002°)
5.12861383991372e+003	(5.10465330081231e+001dB,1.77524561118373e+002°)
5.16812885632611e+003	(5.10464569794915e+001dB,1.77505498665310e+002°)
5.20794832859554e+003	(5.10463797759555e+001dB,1.77486289580314e+002°)
5.24807460249780e+003	(5.10463013793774e+001dB,1.77466932739211e+002°)
5.28851004188245e+003	(5.10462217713394e+001dB,1.77447427009298e+002°)
5.32925702881208e+003	(5.10461409331410e+001dB,1.77427771249276e+002°)
5.37031796370260e+003	(5.10460588457933e+001dB,1.77407964309190e+002°)
5.41169526546471e+003	(5.10459754900143e+001dB,1.77388005030364e+002°)
5.45339137164635e+003	(5.10458908462264e+001dB,1.77367892245336e+002°)
5.49540873857633e+003	(5.10458048945487e+001dB,1.77347624777797e+002°)
5.53774984150898e+003	(5.10457176147958e+001dB,1.77327201442521e+002°)
5.58041717477005e+003	(5.10456289864705e+001dB,1.77306621045307e+002°)
5.62341325190357e+003	(5.10455389887601e+001dB,1.77285882382905e+002°)
5.66674060582000e+003	(5.10454476005318e+001dB,1.77264984242956e+002°)
5.71040178894535e+003	(5.10453548003270e+001dB,1.77243925403925e+002°)
5.75439937337165e+003	(5.10452605663573e+001dB,1.77222704635029e+002°)
5.79873595100840e+003	(5.10451648764982e+001dB,1.77201320696178e+002°)
5.84341413373526e+003	(5.10450677082859e+001dB,1.77179772337899e+002°)
5.88843655355598e+003	(5.10449690389092e+001dB,1.77158058301273e+002°)
5.93380586275337e+003	(5.10448688452071e+001dB,1.77136177317865e+002°)
5.97952473404561e+003	(5.10447671036617e+001dB,1.77114128109652e+002°)
6.02559586074367e+003	(5.10446637903934e+001dB,1.77091909388961e+002°)
6.07202195690998e+003	(5.10445588811548e+001dB,1.77069519858390e+002°)
6.11880575751831e+003	(5.10444523513262e+001dB,1.77046958210744e+002°)
6.16595001861492e+003	(5.10443441759082e+001dB,1.77024223128961e+002°)
6.21345751748085e+003	(5.10442343295181e+001dB,1.77001313286043e+002°)
6.26133105279562e+003	(5.10441227863817e+001dB,1.76978227344982e+002°)
6.30957344480203e+003	(5.10440095203289e+001dB,1.76954963958689e+002°)
6.35818753547233e+003	(5.10438945047872e+001dB,1.76931521769923e+002°)
6.40717618867564e+003	(5.10437777127753e+001dB,1.76907899411215e+002°)
6.45654229034666e+003	(5.10436591168970e+001dB,1.76884095504795e+002°)
6.50628874865568e+003	(5.10435386893355e+001dB,1.76860108662523e+002°)
6.55641849417989e+003	(5.10434164018459e+001dB,1.76835937485805e+002°)
6.60693448007607e+003	(5.10432922257488e+001dB,1.76811580565530e+002°)
6.65783968225447e+003	(5.10431661319248e+001dB,1.76787036481984e+002°)
6.70913709955422e+003	(5.10430380908067e+001dB,1.76762303804781e+002°)
6.76082975391993e+003	(5.10429080723734e+001dB,1.76737381092786e+002°)
6.81292069057972e+003	(5.10427760461413e+001dB,1.76712266894036e+002°)
6.86541297822466e+003	(5.10426419811600e+001dB,1.76686959745663e+002°)
6.91830970918948e+003	(5.10425058460024e+001dB,1.76661458173822e+002°)
6.97161399963479e+003	(5.10423676087599e+001dB,1.76635760693604e+002°)
7.02532898973064e+003	(5.10422272370330e+001dB,1.76609865808968e+002°)
7.07945784384150e+003	(5.10420846979249e+001dB,1.76583772012652e+002°)
7.13400375071268e+003	(5.10419399580336e+001dB,1.76557477786102e+002°)
7.18896992365819e+003	(5.10417929834444e+001dB,1.76530981599387e+002°)
7.24435960075002e+003	(5.10416437397226e+001dB,1.76504281911123e+002°)
7.30017604500890e+003	(5.10414921919035e+001dB,1.76477377168388e+002°)
7.35642254459654e+003	(5.10413383044873e+001dB,1.76450265806645e+002°)
7.41310241300930e+003	(5.10411820414290e+001dB,1.76422946249658e+002°)
7.47021898927344e+003	(5.10410233661295e+001dB,1.76395416909410e+002°)
7.52777563814179e+003	(5.10408622414300e+001dB,1.76367676186024e+002°)
7.58577575029197e+003	(5.10406986296005e+001dB,1.76339722467676e+002°)
7.64422274252613e+003	(5.10405324923327e+001dB,1.76311554130514e+002°)
7.70312005797228e+003	(5.10403637907307e+001dB,1.76283169538573e+002°)
7.76247116628705e+003	(5.10401924853028e+001dB,1.76254567043695e+002°)
7.82227956386016e+003	(5.10400185359508e+001dB,1.76225744985437e+002°)
7.88254877402035e+003	(5.10398419019623e+001dB,1.76196701690993e+002°)
7.94328234724295e+003	(5.10396625420018e+001dB,1.76167435475106e+002°)
8.00448386135906e+003	(5.10394804140991e+001dB,1.76137944639981e+002°)
8.06615692176628e+003	(5.10392954756415e+001dB,1.76108227475200e+002°)
8.12830516164114e+003	(5.10391076833629e+001dB,1.76078282257636e+002°)
8.19093224215312e+003	(5.10389169933358e+001dB,1.76048107251364e+002°)
8.25404185268033e+003	(5.10387233609586e+001dB,1.76017700707574e+002°)
8.31763771102686e+003	(5.10385267409471e+001dB,1.75987060864486e+002°)
8.38172356364177e+003	(5.10383270873242e+001dB,1.75956185947257e+002°)
8.44630318583984e+003	(5.10381243534082e+001dB,1.75925074167893e+002°)
8.51138038202392e+003	(5.10379184918039e+001dB,1.75893723725166e+002°)
