Freq.	V(vout)
Step Information: Run=6  (Run: 6/15)
1.00000000000000e+003	(5.10799377357205e+001dB,1.79515776094606e+002°)
1.00770481413610e+003	(5.10799348072790e+001dB,1.79512045318182e+002°)
1.01546899243308e+003	(5.10799318335395e+001dB,1.79508285798653e+002°)
1.02329299228075e+003	(5.10799288138013e+001dB,1.79504497314603e+002°)
1.03117727459306e+003	(5.10799257473524e+001dB,1.79500679642908e+002°)
1.03912230383517e+003	(5.10799226334707e+001dB,1.79496832558728e+002°)
1.04712854805090e+003	(5.10799194714220e+001dB,1.79492955835491e+002°)
1.05519647889024e+003	(5.10799162604622e+001dB,1.79489049244881e+002°)
1.06332657163716e+003	(5.10799129998341e+001dB,1.79485112556822e+002°)
1.07151930523761e+003	(5.10799096887696e+001dB,1.79481145539470e+002°)
1.07977516232771e+003	(5.10799063264884e+001dB,1.79477147959191e+002°)
1.08809462926223e+003	(5.10799029121987e+001dB,1.79473119580557e+002°)
1.09647819614319e+003	(5.10798994450953e+001dB,1.79469060166323e+002°)
1.10492635684876e+003	(5.10798959243623e+001dB,1.79464969477421e+002°)
1.11343960906236e+003	(5.10798923491694e+001dB,1.79460847272940e+002°)
1.12201845430197e+003	(5.10798887186746e+001dB,1.79456693310115e+002°)
1.13066339794964e+003	(5.10798850320224e+001dB,1.79452507344310e+002°)
1.13937494928134e+003	(5.10798812883444e+001dB,1.79448289129008e+002°)
1.14815362149688e+003	(5.10798774867583e+001dB,1.79444038415793e+002°)
1.15699993175021e+003	(5.10798736263685e+001dB,1.79439754954337e+002°)
1.16591440117983e+003	(5.10798697062656e+001dB,1.79435438492382e+002°)
1.17489755493953e+003	(5.10798657255255e+001dB,1.79431088775733e+002°)
1.18394992222930e+003	(5.10798616832108e+001dB,1.79426705548232e+002°)
1.19307203632654e+003	(5.10798575783691e+001dB,1.79422288551754e+002°)
1.20226443461742e+003	(5.10798534100332e+001dB,1.79417837526183e+002°)
1.21152765862859e+003	(5.10798491772209e+001dB,1.79413352209404e+002°)
1.22086225405907e+003	(5.10798448789348e+001dB,1.79408832337280e+002°)
1.23026877081238e+003	(5.10798405141625e+001dB,1.79404277643644e+002°)
1.23974776302895e+003	(5.10798360818756e+001dB,1.79399687860279e+002°)
1.24929978911874e+003	(5.10798315810297e+001dB,1.79395062716902e+002°)
1.25892541179417e+003	(5.10798270105642e+001dB,1.79390401941150e+002°)
1.26862519810326e+003	(5.10798223694028e+001dB,1.79385705258565e+002°)
1.27839971946303e+003	(5.10798176564518e+001dB,1.79380972392574e+002°)
1.28824955169314e+003	(5.10798128706009e+001dB,1.79376203064476e+002°)
1.29817527504985e+003	(5.10798080107225e+001dB,1.79371396993424e+002°)
1.30817747426020e+003	(5.10798030756714e+001dB,1.79366553896410e+002°)
1.31825673855641e+003	(5.10797980642851e+001dB,1.79361673488248e+002°)
1.32841366171065e+003	(5.10797929753833e+001dB,1.79356755481554e+002°)
1.33864884207000e+003	(5.10797878077662e+001dB,1.79351799586736e+002°)
1.34896288259166e+003	(5.10797825602172e+001dB,1.79346805511970e+002°)
1.35935639087853e+003	(5.10797772314993e+001dB,1.79341772963187e+002°)
1.36982997921497e+003	(5.10797718203575e+001dB,1.79336701644054e+002°)
1.38038426460289e+003	(5.10797663255173e+001dB,1.79331591255958e+002°)
1.39101986879806e+003	(5.10797607456832e+001dB,1.79326441497987e+002°)
1.40173741834677e+003	(5.10797550795414e+001dB,1.79321252066913e+002°)
1.41253754462276e+003	(5.10797493257567e+001dB,1.79316022657175e+002°)
1.42342088386435e+003	(5.10797434829738e+001dB,1.79310752960860e+002°)
1.43438807721197e+003	(5.10797375498157e+001dB,1.79305442667684e+002°)
1.44543977074593e+003	(5.10797315248853e+001dB,1.79300091464977e+002°)
1.45657661552446e+003	(5.10797254067626e+001dB,1.79294699037661e+002°)
1.46779926762207e+003	(5.10797191940067e+001dB,1.79289265068236e+002°)
1.47910838816821e+003	(5.10797128851535e+001dB,1.79283789236755e+002°)
1.49050464338620e+003	(5.10797064787171e+001dB,1.79278271220812e+002°)
1.50198870463249e+003	(5.10796999731880e+001dB,1.79272710695517e+002°)
1.51356124843621e+003	(5.10796933670339e+001dB,1.79267107333483e+002°)
1.52522295653902e+003	(5.10796866586984e+001dB,1.79261460804803e+002°)
1.53697451593528e+003	(5.10796798466009e+001dB,1.79255770777028e+002°)
1.54881661891249e+003	(5.10796729291368e+001dB,1.79250036915157e+002°)
1.56074996309212e+003	(5.10796659046764e+001dB,1.79244258881606e+002°)
1.57277525147067e+003	(5.10796587715650e+001dB,1.79238436336195e+002°)
1.58489319246112e+003	(5.10796515281223e+001dB,1.79232568936129e+002°)
1.59710449993461e+003	(5.10796441726416e+001dB,1.79226656335973e+002°)
1.60940989326254e+003	(5.10796367033901e+001dB,1.79220698187635e+002°)
1.62181009735894e+003	(5.10796291186088e+001dB,1.79214694140343e+002°)
1.63430584272314e+003	(5.10796214165103e+001dB,1.79208643840631e+002°)
1.64689786548288e+003	(5.10796135952804e+001dB,1.79202546932309e+002°)
1.65958690743757e+003	(5.10796056530766e+001dB,1.79196403056449e+002°)
1.67237371610209e+003	(5.10795975880281e+001dB,1.79190211851362e+002°)
1.68525904475076e+003	(5.10795893982352e+001dB,1.79183972952575e+002°)
1.69824365246175e+003	(5.10795810817683e+001dB,1.79177685992812e+002°)
1.71132830416179e+003	(5.10795726366683e+001dB,1.79171350601972e+002°)
1.72451377067121e+003	(5.10795640609458e+001dB,1.79164966407109e+002°)
1.73780082874938e+003	(5.10795553525813e+001dB,1.79158533032403e+002°)
1.75119026114047e+003	(5.10795465095225e+001dB,1.79152050099150e+002°)
1.76468285661951e+003	(5.10795375296869e+001dB,1.79145517225727e+002°)
1.77827941003893e+003	(5.10795284109592e+001dB,1.79138934027580e+002°)
1.79198072237534e+003	(5.10795191511910e+001dB,1.79132300117195e+002°)
1.80578760077673e+003	(5.10795097482017e+001dB,1.79125615104078e+002°)
1.81970085860999e+003	(5.10795001997756e+001dB,1.79118878594734e+002°)
1.83372131550889e+003	(5.10794905036644e+001dB,1.79112090192638e+002°)
1.84784979742230e+003	(5.10794806575832e+001dB,1.79105249498219e+002°)
1.86208713666288e+003	(5.10794706592134e+001dB,1.79098356108830e+002°)
1.87643417195610e+003	(5.10794605061999e+001dB,1.79091409618732e+002°)
1.89089174848965e+003	(5.10794501961504e+001dB,1.79084409619061e+002°)
1.90546071796326e+003	(5.10794397266375e+001dB,1.79077355697813e+002°)
1.92014193863881e+003	(5.10794290951946e+001dB,1.79070247439814e+002°)
1.93493627539096e+003	(5.10794182993172e+001dB,1.79063084426698e+002°)
1.94984459975806e+003	(5.10794073364628e+001dB,1.79055866236882e+002°)
1.96486778999348e+003	(5.10793962040490e+001dB,1.79048592445544e+002°)
1.98000673111740e+003	(5.10793848994536e+001dB,1.79041262624593e+002°)
1.99526231496889e+003	(5.10793734200143e+001dB,1.79033876342648e+002°)
2.01063544025850e+003	(5.10793617630270e+001dB,1.79026433165011e+002°)
2.02612701262116e+003	(5.10793499257466e+001dB,1.79018932653643e+002°)
2.04173794466954e+003	(5.10793379053839e+001dB,1.79011374367139e+002°)
2.05746915604785e+003	(5.10793256991085e+001dB,1.79003757860697e+002°)
2.07332157348597e+003	(5.10793133040453e+001dB,1.78996082686101e+002°)
2.08929613085405e+003	(5.10793007172751e+001dB,1.78988348391686e+002°)
2.10539376921757e+003	(5.10792879358330e+001dB,1.78980554522316e+002°)
2.12161543689270e+003	(5.10792749567089e+001dB,1.78972700619360e+002°)
2.13796208950225e+003	(5.10792617768459e+001dB,1.78964786220658e+002°)
2.15443469003190e+003	(5.10792483931398e+001dB,1.78956810860500e+002°)
2.17103420888697e+003	(5.10792348024385e+001dB,1.78948774069599e+002°)
2.18776162394957e+003	(5.10792210015410e+001dB,1.78940675375058e+002°)
2.20461792063620e+003	(5.10792069871975e+001dB,1.78932514300350e+002°)
2.22160409195583e+003	(5.10791927561067e+001dB,1.78924290365283e+002°)
2.23872113856835e+003	(5.10791783049178e+001dB,1.78916003085977e+002°)
2.25597006884359e+003	(5.10791636302266e+001dB,1.78907651974834e+002°)
2.27335189892065e+003	(5.10791487285777e+001dB,1.78899236540511e+002°)
2.29086765276779e+003	(5.10791335964614e+001dB,1.78890756287888e+002°)
2.30851836224278e+003	(5.10791182303142e+001dB,1.78882210718042e+002°)
2.32630506715364e+003	(5.10791026265171e+001dB,1.78873599328219e+002°)
2.34422881531994e+003	(5.10790867813960e+001dB,1.78864921611801e+002°)
2.36229066263448e+003	(5.10790706912191e+001dB,1.78856177058279e+002°)
2.38049167312553e+003	(5.10790543521971e+001dB,1.78847365153223e+002°)
2.39883291901951e+003	(5.10790377604821e+001dB,1.78838485378254e+002°)
2.41731548080412e+003	(5.10790209121673e+001dB,1.78829537211008e+002°)
2.43594044729204e+003	(5.10790038032856e+001dB,1.78820520125111e+002°)
2.45470891568505e+003	(5.10789864298072e+001dB,1.78811433590149e+002°)
2.47362199163864e+003	(5.10789687876415e+001dB,1.78802277071631e+002°)
2.49268078932720e+003	(5.10789508726339e+001dB,1.78793050030966e+002°)
2.51188643150960e+003	(5.10789326805659e+001dB,1.78783751925424e+002°)
2.53124004959538e+003	(5.10789142071539e+001dB,1.78774382208110e+002°)
2.55074278371138e+003	(5.10788954480478e+001dB,1.78764940327931e+002°)
2.57039578276888e+003	(5.10788763988300e+001dB,1.78755425729561e+002°)
2.59020020453134e+003	(5.10788570550160e+001dB,1.78745837853412e+002°)
2.61015721568256e+003	(5.10788374120503e+001dB,1.78736176135603e+002°)
2.63026799189540e+003	(5.10788174653079e+001dB,1.78726440007921e+002°)
2.65053371790110e+003	(5.10787972100923e+001dB,1.78716628897794e+002°)
2.67095558755901e+003	(5.10787766416343e+001dB,1.78706742228256e+002°)
2.69153480392694e+003	(5.10787557550911e+001dB,1.78696779417913e+002°)
2.71227257933205e+003	(5.10787345455447e+001dB,1.78686739880909e+002°)
2.73317013544226e+003	(5.10787130080016e+001dB,1.78676623026893e+002°)
2.75422870333819e+003	(5.10786911373910e+001dB,1.78666428260984e+002°)
2.77544952358573e+003	(5.10786689285636e+001dB,1.78656154983737e+002°)
2.79683384630910e+003	(5.10786463762903e+001dB,1.78645802591109e+002°)
2.81838293126448e+003	(5.10786234752618e+001dB,1.78635370474422e+002°)
2.84009804791424e+003	(5.10786002200867e+001dB,1.78624858020331e+002°)
2.86198047550173e+003	(5.10785766052900e+001dB,1.78614264610783e+002°)
2.88403150312663e+003	(5.10785526253121e+001dB,1.78603589622989e+002°)
2.90625242982089e+003	(5.10785282745079e+001dB,1.78592832429382e+002°)
2.92864456462526e+003	(5.10785035471446e+001dB,1.78581992397580e+002°)
2.95120922666641e+003	(5.10784784374011e+001dB,1.78571068890356e+002°)
2.97394774523463e+003	(5.10784529393660e+001dB,1.78560061265595e+002°)
2.99686145986215e+003	(5.10784270470371e+001dB,1.78548968876258e+002°)
3.01995172040204e+003	(5.10784007543197e+001dB,1.78537791070349e+002°)
3.04321988710775e+003	(5.10783740550240e+001dB,1.78526527190870e+002°)
3.06666733071321e+003	(5.10783469428655e+001dB,1.78515176575790e+002°)
3.09029543251362e+003	(5.10783194114621e+001dB,1.78503738558003e+002°)
3.11410558444679e+003	(5.10782914543334e+001dB,1.78492212465290e+002°)
3.13809918917516e+003	(5.10782630648986e+001dB,1.78480597620281e+002°)
3.16227766016841e+003	(5.10782342364755e+001dB,1.78468893340416e+002°)
3.18664242178676e+003	(5.10782049622784e+001dB,1.78457098937905e+002°)
3.21119490936485e+003	(5.10781752354173e+001dB,1.78445213719688e+002°)
3.23593656929631e+003	(5.10781450488953e+001dB,1.78433236987398e+002°)
3.26086885911896e+003	(5.10781143956082e+001dB,1.78421168037315e+002°)
3.28599324760069e+003	(5.10780832683405e+001dB,1.78409006160333e+002°)
3.31131121482594e+003	(5.10780516597669e+001dB,1.78396750641913e+002°)
3.33682425228297e+003	(5.10780195624486e+001dB,1.78384400762044e+002°)
3.36253386295166e+003	(5.10779869688311e+001dB,1.78371955795204e+002°)
3.38844156139206e+003	(5.10779538712445e+001dB,1.78359415010314e+002°)
3.41454887383364e+003	(5.10779202618990e+001dB,1.78346777670700e+002°)
3.44085733826517e+003	(5.10778861328860e+001dB,1.78334043034047e+002°)
3.46736850452535e+003	(5.10778514761735e+001dB,1.78321210352361e+002°)
3.49408393439410e+003	(5.10778162836067e+001dB,1.78308278871920e+002°)
3.52100520168456e+003	(5.10777805469041e+001dB,1.78295247833238e+002°)
3.54813389233579e+003	(5.10777442576558e+001dB,1.78282116471015e+002°)
3.57547160450625e+003	(5.10777074073235e+001dB,1.78268884014096e+002°)
3.60301994866789e+003	(5.10776699872362e+001dB,1.78255549685429e+002°)
3.63078054770105e+003	(5.10776319885889e+001dB,1.78242112702017e+002°)
3.65875503699007e+003	(5.10775934024412e+001dB,1.78228572274872e+002°)
3.68694506451962e+003	(5.10775542197143e+001dB,1.78214927608977e+002°)
3.71535229097177e+003	(5.10775144311895e+001dB,1.78201177903233e+002°)
3.74397838982385e+003	(5.10774740275056e+001dB,1.78187322350417e+002°)
3.77282504744704e+003	(5.10774329991568e+001dB,1.78173360137134e+002°)
3.80189396320565e+003	(5.10773913364909e+001dB,1.78159290443774e+002°)
3.83118684955733e+003	(5.10773490297062e+001dB,1.78145112444460e+002°)
3.86070543215386e+003	(5.10773060688510e+001dB,1.78130825307006e+002°)
3.89045144994285e+003	(5.10772624438181e+001dB,1.78116428192867e+002°)
3.92042665527020e+003	(5.10772181443458e+001dB,1.78101920257092e+002°)
3.95063281398328e+003	(5.10771731600134e+001dB,1.78087300648275e+002°)
3.98107170553502e+003	(5.10771274802398e+001dB,1.78072568508506e+002°)
4.01174512308867e+003	(5.10770810942798e+001dB,1.78057722973326e+002°)
4.04265487362349e+003	(5.10770339912235e+001dB,1.78042763171674e+002°)
4.07380277804117e+003	(5.10769861599914e+001dB,1.78027688225838e+002°)
4.10519067127313e+003	(5.10769375893346e+001dB,1.78012497251407e+002°)
4.13682040238856e+003	(5.10768882678290e+001dB,1.77997189357220e+002°)
4.16869383470340e+003	(5.10768381838752e+001dB,1.77981763645314e+002°)
4.20081284589012e+003	(5.10767873256951e+001dB,1.77966219210875e+002°)
4.23317932808826e+003	(5.10767356813282e+001dB,1.77950555142188e+002°)
4.26579518801598e+003	(5.10766832386292e+001dB,1.77934770520580e+002°)
4.29866234708233e+003	(5.10766299852667e+001dB,1.77918864420375e+002°)
4.33178274150047e+003	(5.10765759087183e+001dB,1.77902835908837e+002°)
4.36515832240171e+003	(5.10765209962681e+001dB,1.77886684046118e+002°)
4.39879105595049e+003	(5.10764652350046e+001dB,1.77870407885206e+002°)
4.43268292346014e+003	(5.10764086118177e+001dB,1.77854006471872e+002°)
4.46683592150969e+003	(5.10763511133934e+001dB,1.77837478844614e+002°)
4.50125206206139e+003	(5.10762927262142e+001dB,1.77820824034606e+002°)
4.53593337257933e+003	(5.10762334365530e+001dB,1.77804041065640e+002°)
4.57088189614881e+003	(5.10761732304717e+001dB,1.77787128954074e+002°)
4.60609969159672e+003	(5.10761120938165e+001dB,1.77770086708774e+002°)
4.64158883361284e+003	(5.10760500122167e+001dB,1.77752913331063e+002°)
4.67735141287204e+003	(5.10759869710783e+001dB,1.77735607814658e+002°)
4.71338953615747e+003	(5.10759229555833e+001dB,1.77718169145620e+002°)
4.74970532648462e+003	(5.10758579506856e+001dB,1.77700596302294e+002°)
4.78630092322645e+003	(5.10757919411063e+001dB,1.77682888255251e+002°)
4.82317848223937e+003	(5.10757249113316e+001dB,1.77665043967234e+002°)
4.86034017599028e+003	(5.10756568456083e+001dB,1.77647062393096e+002°)
4.89778819368453e+003	(5.10755877279397e+001dB,1.77628942479745e+002°)
4.93552474139487e+003	(5.10755175420845e+001dB,1.77610683166083e+002°)
4.97355204219146e+003	(5.10754462715492e+001dB,1.77592283382946e+002°)
5.01187233627279e+003	(5.10753738995867e+001dB,1.77573742053049e+002°)
5.05048788109766e+003	(5.10753004091921e+001dB,1.77555058090921e+002°)
5.08940095151816e+003	(5.10752257830982e+001dB,1.77536230402847e+002°)
5.12861383991372e+003	(5.10751500037723e+001dB,1.77517257886807e+002°)
5.16812885632611e+003	(5.10750730534102e+001dB,1.77498139432414e+002°)
5.20794832859554e+003	(5.10749949139355e+001dB,1.77478873920855e+002°)
5.24807460249780e+003	(5.10749155669915e+001dB,1.77459460224825e+002°)
5.28851004188245e+003	(5.10748349939393e+001dB,1.77439897208469e+002°)
5.32925702881208e+003	(5.10747531758533e+001dB,1.77420183727315e+002°)
5.37031796370260e+003	(5.10746700935161e+001dB,1.77400318628214e+002°)
5.41169526546471e+003	(5.10745857274143e+001dB,1.77380300749275e+002°)
5.45339137164635e+003	(5.10745000577340e+001dB,1.77360128919801e+002°)
5.49540873857633e+003	(5.10744130643563e+001dB,1.77339801960224e+002°)
5.53774984150898e+003	(5.10743247268523e+001dB,1.77319318682042e+002°)
5.58041717477005e+003	(5.10742350244790e+001dB,1.77298677887752e+002°)
5.62341325190357e+003	(5.10741439361738e+001dB,1.77277878370785e+002°)
5.66674060582000e+003	(5.10740514405495e+001dB,1.77256918915439e+002°)
5.71040178894535e+003	(5.10739575158906e+001dB,1.77235798296813e+002°)
5.75439937337165e+003	(5.10738621401461e+001dB,1.77214515280742e+002°)
5.79873595100840e+003	(5.10737652909263e+001dB,1.77193068623725e+002°)
5.84341413373526e+003	(5.10736669454973e+001dB,1.77171457072862e+002°)
5.88843655355598e+003	(5.10735670807749e+001dB,1.77149679365783e+002°)
5.93380586275337e+003	(5.10734656733196e+001dB,1.77127734230579e+002°)
5.97952473404561e+003	(5.10733626993318e+001dB,1.77105620385734e+002°)
6.02559586074367e+003	(5.10732581346449e+001dB,1.77083336540057e+002°)
6.07202195690998e+003	(5.10731519547215e+001dB,1.77060881392609e+002°)
6.11880575751831e+003	(5.10730441346456e+001dB,1.77038253632633e+002°)
6.16595001861492e+003	(5.10729346491199e+001dB,1.77015451939484e+002°)
6.21345751748085e+003	(5.10728234724555e+001dB,1.76992474982560e+002°)
6.26133105279562e+003	(5.10727105785704e+001dB,1.76969321421225e+002°)
6.30957344480203e+003	(5.10725959409813e+001dB,1.76945989904741e+002°)
6.35818753547233e+003	(5.10724795327964e+001dB,1.76922479072194e+002°)
6.40717618867564e+003	(5.10723613267121e+001dB,1.76898787552422e+002°)
6.45654229034666e+003	(5.10722412950042e+001dB,1.76874913963939e+002°)
6.50628874865568e+003	(5.10721194095223e+001dB,1.76850856914863e+002°)
6.55641849417989e+003	(5.10719956416847e+001dB,1.76826615002842e+002°)
6.60693448007607e+003	(5.10718699624685e+001dB,1.76802186814978e+002°)
6.65783968225447e+003	(5.10717423424054e+001dB,1.76777570927753e+002°)
6.70913709955422e+003	(5.10716127515751e+001dB,1.76752765906952e+002°)
6.76082975391993e+003	(5.10714811595975e+001dB,1.76727770307586e+002°)
6.81292069057972e+003	(5.10713475356253e+001dB,1.76702582673819e+002°)
6.86541297822466e+003	(5.10712118483374e+001dB,1.76677201538888e+002°)
6.91830970918948e+003	(5.10710740659318e+001dB,1.76651625425027e+002°)
6.97161399963479e+003	(5.10709341561191e+001dB,1.76625852843387e+002°)
7.02532898973064e+003	(5.10707920861125e+001dB,1.76599882293960e+002°)
7.07945784384150e+003	(5.10706478226227e+001dB,1.76573712265499e+002°)
7.13400375071268e+003	(5.10705013318497e+001dB,1.76547341235440e+002°)
7.18896992365819e+003	(5.10703525794740e+001dB,1.76520767669821e+002°)
7.24435960075002e+003	(5.10702015306496e+001dB,1.76493990023201e+002°)
7.30017604500890e+003	(5.10700481499961e+001dB,1.76467006738583e+002°)
7.35642254459654e+003	(5.10698924015901e+001dB,1.76439816247329e+002°)
7.41310241300930e+003	(5.10697342489566e+001dB,1.76412416969082e+002°)
7.47021898927344e+003	(5.10695736550615e+001dB,1.76384807311680e+002°)
7.52777563814179e+003	(5.10694105823034e+001dB,1.76356985671080e+002°)
7.58577575029197e+003	(5.10692449925030e+001dB,1.76328950431268e+002°)
7.64422274252613e+003	(5.10690768468966e+001dB,1.76300699964181e+002°)
7.70312005797228e+003	(5.10689061061252e+001dB,1.76272232629620e+002°)
7.76247116628705e+003	(5.10687327302272e+001dB,1.76243546775171e+002°)
7.82227956386016e+003	(5.10685566786287e+001dB,1.76214640736115e+002°)
7.88254877402035e+003	(5.10683779101334e+001dB,1.76185512835344e+002°)
7.94328234724295e+003	(5.10681963829142e+001dB,1.76156161383279e+002°)
8.00448386135906e+003	(5.10680120545026e+001dB,1.76126584677783e+002°)
8.06615692176628e+003	(5.10678248817804e+001dB,1.76096781004071e+002°)
8.12830516164114e+003	(5.10676348209686e+001dB,1.76066748634630e+002°)
8.19093224215312e+003	(5.10674418276177e+001dB,1.76036485829125e+002°)
8.25404185268033e+003	(5.10672458565974e+001dB,1.76005990834318e+002°)
8.31763771102686e+003	(5.10670468620880e+001dB,1.75975261883975e+002°)
8.38172356364177e+003	(5.10668447975667e+001dB,1.75944297198783e+002°)
8.44630318583984e+003	(5.10666396157989e+001dB,1.75913094986254e+002°)
8.51138038202392e+003	(5.10664312688289e+001dB,1.75881653440643e+002°)
