Freq.	V(vo)
1.00000000000000e+002	(-1.94169319138466e-003dB,-1.23537230342494e+000°)
1.00023028502082e+002	(-1.94258742766211e-003dB,-1.23565672312953e+000°)
1.00046062307284e+002	(-1.94348207569965e-003dB,-1.23594120828472e+000°)
1.00069101416826e+002	(-1.94437713569707e-003dB,-1.23622575890555e+000°)
1.00092145831930e+002	(-1.94527260783872e-003dB,-1.23651037500707e+000°)
1.00115195553817e+002	(-1.94616849231476e-003dB,-1.23679505660431e+000°)
1.00138250583710e+002	(-1.94706478931338e-003dB,-1.23707980371234e+000°)
1.00161310922831e+002	(-1.94796149903053e-003dB,-1.23736461634620e+000°)
1.00184376572403e+002	(-1.94885862164573e-003dB,-1.23764949452096e+000°)
1.00207447533648e+002	(-1.94975615735684e-003dB,-1.23793443825166e+000°)
1.00230523807790e+002	(-1.95065410635498e-003dB,-1.23821944755339e+000°)
1.00253605396052e+002	(-1.95155246882449e-003dB,-1.23850452244119e+000°)
1.00276692299659e+002	(-1.95245124495553e-003dB,-1.23878966293016e+000°)
1.00299784519833e+002	(-1.95335043494883e-003dB,-1.23907486903535e+000°)
1.00322882057800e+002	(-1.95425003898588e-003dB,-1.23936014077184e+000°)
1.00345984914784e+002	(-1.95515005725777e-003dB,-1.23964547815473e+000°)
1.00369093092010e+002	(-1.95605048995562e-003dB,-1.23993088119908e+000°)
1.00392206590702e+002	(-1.95695133727150e-003dB,-1.24021634992000e+000°)
1.00415325412088e+002	(-1.95785259939747e-003dB,-1.24050188433257e+000°)
1.00438449557391e+002	(-1.95875427652369e-003dB,-1.24078748445189e+000°)
1.00461579027839e+002	(-1.95965636884127e-003dB,-1.24107315029305e+000°)
1.00484713824658e+002	(-1.96055887653842e-003dB,-1.24135888187116e+000°)
1.00507853949074e+002	(-1.96146179980625e-003dB,-1.24164467920132e+000°)
1.00530999402313e+002	(-1.96236513883779e-003dB,-1.24193054229865e+000°)
1.00554150185604e+002	(-1.96326889382803e-003dB,-1.24221647117824e+000°)
1.00577306300174e+002	(-1.96417306496516e-003dB,-1.24250246585523e+000°)
1.00600467747249e+002	(-1.96507765244128e-003dB,-1.24278852634473e+000°)
1.00623634528060e+002	(-1.96598265644941e-003dB,-1.24307465266185e+000°)
1.00646806643832e+002	(-1.96688807717295e-003dB,-1.24336084482174e+000°)
1.00669984095796e+002	(-1.96779391481941e-003dB,-1.24364710283951e+000°)
1.00693166885180e+002	(-1.96870016956543e-003dB,-1.24393342673030e+000°)
1.00716355013213e+002	(-1.96960684160790e-003dB,-1.24421981650925e+000°)
1.00739548481125e+002	(-1.97051393114374e-003dB,-1.24450627219149e+000°)
1.00762747290145e+002	(-1.97142143835922e-003dB,-1.24479279379218e+000°)
1.00785951441503e+002	(-1.97232936344738e-003dB,-1.24507938132645e+000°)
1.00809160936429e+002	(-1.97323770660513e-003dB,-1.24536603480945e+000°)
1.00832375776155e+002	(-1.97414646802068e-003dB,-1.24565275425635e+000°)
1.00855595961910e+002	(-1.97505564788611e-003dB,-1.24593953968230e+000°)
1.00878821494927e+002	(-1.97596524639831e-003dB,-1.24622639110245e+000°)
1.00902052376435e+002	(-1.97687526374840e-003dB,-1.24651330853198e+000°)
1.00925288607668e+002	(-1.97778570012460e-003dB,-1.24680029198605e+000°)
1.00948530189857e+002	(-1.97869655572284e-003dB,-1.24708734147983e+000°)
1.00971777124234e+002	(-1.97960783074098e-003dB,-1.24737445702850e+000°)
1.00995029412032e+002	(-1.98051952536436e-003dB,-1.24766163864723e+000°)
1.01018287054483e+002	(-1.98143163978986e-003dB,-1.24794888635121e+000°)
1.01041550052821e+002	(-1.98234417421343e-003dB,-1.24823620015562e+000°)
1.01064818408279e+002	(-1.98325712882039e-003dB,-1.24852358007564e+000°)
1.01088092122091e+002	(-1.98417050381054e-003dB,-1.24881102612648e+000°)
1.01111371195490e+002	(-1.98508429937595e-003dB,-1.24909853832333e+000°)
1.01134655629712e+002	(-1.98599851570870e-003dB,-1.24938611668138e+000°)
1.01157945425989e+002	(-1.98691315300762e-003dB,-1.24967376121584e+000°)
1.01181240585558e+002	(-1.98782821145997e-003dB,-1.24996147194192e+000°)
1.01204541109654e+002	(-1.98874369126553e-003dB,-1.25024924887482e+000°)
1.01227846999511e+002	(-1.98965959260482e-003dB,-1.25053709202975e+000°)
1.01251158256365e+002	(-1.99057591569017e-003dB,-1.25082500142194e+000°)
1.01274474881453e+002	(-1.99149266070980e-003dB,-1.25111297706660e+000°)
1.01297796876010e+002	(-1.99240982784999e-003dB,-1.25140101897896e+000°)
1.01321124241273e+002	(-1.99332741731634e-003dB,-1.25168912717424e+000°)
1.01344456978479e+002	(-1.99424542929417e-003dB,-1.25197730166767e+000°)
1.01367795088864e+002	(-1.99516386398713e-003dB,-1.25226554247449e+000°)
1.01391138573667e+002	(-1.99608272157863e-003dB,-1.25255384960993e+000°)
1.01414487434125e+002	(-1.99700200227038e-003dB,-1.25284222308924e+000°)
1.01437841671476e+002	(-1.99792170625061e-003dB,-1.25313066292766e+000°)
1.01461201286958e+002	(-1.99884183372683e-003dB,-1.25341916914043e+000°)
1.01484566281809e+002	(-1.99976238488340e-003dB,-1.25370774174281e+000°)
1.01507936657269e+002	(-2.00068335991723e-003dB,-1.25399638075005e+000°)
1.01531312414576e+002	(-2.00160475902812e-003dB,-1.25428508617741e+000°)
1.01554693554969e+002	(-2.00252658240621e-003dB,-1.25457385804016e+000°)
1.01578080079690e+002	(-2.00344883024069e-003dB,-1.25486269635355e+000°)
1.01601471989976e+002	(-2.00437150274486e-003dB,-1.25515160113286e+000°)
1.01624869287069e+002	(-2.00529460009924e-003dB,-1.25544057239335e+000°)
1.01648271972209e+002	(-2.00621812250264e-003dB,-1.25572961015031e+000°)
1.01671680046637e+002	(-2.00714207015391e-003dB,-1.25601871441901e+000°)
1.01695093511594e+002	(-2.00806644325285e-003dB,-1.25630788521474e+000°)
1.01718512368321e+002	(-2.00899124197898e-003dB,-1.25659712255278e+000°)
1.01741936618060e+002	(-2.00991646654370e-003dB,-1.25688642644842e+000°)
1.01765366262053e+002	(-2.01084211713328e-003dB,-1.25717579691695e+000°)
1.01788801301542e+002	(-2.01176819395719e-003dB,-1.25746523397367e+000°)
1.01812241737769e+002	(-2.01269469719784e-003dB,-1.25775473763388e+000°)
1.01835687571978e+002	(-2.01362162705504e-003dB,-1.25804430791289e+000°)
1.01859138805411e+002	(-2.01454898373052e-003dB,-1.25833394482600e+000°)
1.01882595439312e+002	(-2.01547676741347e-003dB,-1.25862364838852e+000°)
1.01906057474924e+002	(-2.01640497830271e-003dB,-1.25891341861577e+000°)
1.01929524913492e+002	(-2.01733361659999e-003dB,-1.25920325552306e+000°)
1.01952997756260e+002	(-2.01826268249738e-003dB,-1.25949315912571e+000°)
1.01976476004471e+002	(-2.01919217619082e-003dB,-1.25978312943906e+000°)
1.01999959659371e+002	(-2.02012209788108e-003dB,-1.26007316647842e+000°)
1.02023448722206e+002	(-2.02105244775735e-003dB,-1.26036327025913e+000°)
1.02046943194219e+002	(-2.02198322602907e-003dB,-1.26065344079652e+000°)
1.02070443076658e+002	(-2.02291443288639e-003dB,-1.26094367810594e+000°)
1.02093948370767e+002	(-2.02384606852334e-003dB,-1.26123398220272e+000°)
1.02117459077794e+002	(-2.02477813314260e-003dB,-1.26152435310221e+000°)
1.02140975198984e+002	(-2.02571062693529e-003dB,-1.26181479081976e+000°)
1.02164496735585e+002	(-2.02664355011086e-003dB,-1.26210529537073e+000°)
1.02188023688843e+002	(-2.02757690285368e-003dB,-1.26239586677046e+000°)
1.02211556060006e+002	(-2.02851068536933e-003dB,-1.26268650503432e+000°)
1.02235093850322e+002	(-2.02944489785183e-003dB,-1.26297721017767e+000°)
1.02258637061039e+002	(-2.03037954050388e-003dB,-1.26326798221588e+000°)
1.02282185693404e+002	(-2.03131461351948e-003dB,-1.26355882116432e+000°)
1.02305739748666e+002	(-2.03225011709651e-003dB,-1.26384972703836e+000°)
1.02329299228075e+002	(-2.03318605143671e-003dB,-1.26414069985338e+000°)
1.02352864132878e+002	(-2.03412241673697e-003dB,-1.26443173962475e+000°)
1.02376434464327e+002	(-2.03505921319132e-003dB,-1.26472284636788e+000°)
1.02400010223669e+002	(-2.03599644100052e-003dB,-1.26501402009813e+000°)
1.02423591412156e+002	(-2.03693410036919e-003dB,-1.26530526083091e+000°)
1.02447178031037e+002	(-2.03787219148846e-003dB,-1.26559656858161e+000°)
1.02470770081564e+002	(-2.03881071456198e-003dB,-1.26588794336562e+000°)
1.02494367564986e+002	(-2.03974966978282e-003dB,-1.26617938519835e+000°)
1.02517970482555e+002	(-2.04068905735269e-003dB,-1.26647089409521e+000°)
1.02541578835522e+002	(-2.04162887747720e-003dB,-1.26676247007160e+000°)
1.02565192625140e+002	(-2.04256913034552e-003dB,-1.26705411314293e+000°)
1.02588811852659e+002	(-2.04350981615651e-003dB,-1.26734582332463e+000°)
1.02612436519333e+002	(-2.04445093512058e-003dB,-1.26763760063210e+000°)
1.02636066626414e+002	(-2.04539248742691e-003dB,-1.26792944508078e+000°)
1.02659702175154e+002	(-2.04633447328111e-003dB,-1.26822135668609e+000°)
1.02683343166808e+002	(-2.04727689287525e-003dB,-1.26851333546346e+000°)
1.02706989602627e+002	(-2.04821974641590e-003dB,-1.26880538142833e+000°)
1.02730641483867e+002	(-2.04916303409899e-003dB,-1.26909749459613e+000°)
1.02754298811780e+002	(-2.05010675613109e-003dB,-1.26938967498229e+000°)
1.02777961587622e+002	(-2.05105091270333e-003dB,-1.26968192260228e+000°)
1.02801629812646e+002	(-2.05199550401742e-003dB,-1.26997423747153e+000°)
1.02825303488109e+002	(-2.05294053027993e-003dB,-1.27026661960549e+000°)
1.02848982615264e+002	(-2.05388599168392e-003dB,-1.27055906901963e+000°)
1.02872667195367e+002	(-2.05483188843111e-003dB,-1.27085158572939e+000°)
1.02896357229674e+002	(-2.05577822072710e-003dB,-1.27114416975024e+000°)
1.02920052719442e+002	(-2.05672498876688e-003dB,-1.27143682109765e+000°)
1.02943753665926e+002	(-2.05767219274928e-003dB,-1.27172953978709e+000°)
1.02967460070382e+002	(-2.05861983287893e-003dB,-1.27202232583402e+000°)
1.02991171934069e+002	(-2.05956790936046e-003dB,-1.27231517925392e+000°)
1.03014889258242e+002	(-2.06051642238692e-003dB,-1.27260810006228e+000°)
1.03038612044161e+002	(-2.06146537215909e-003dB,-1.27290108827457e+000°)
1.03062340293081e+002	(-2.06241475888738e-003dB,-1.27319414390629e+000°)
1.03086074006261e+002	(-2.06336458276195e-003dB,-1.27348726697292e+000°)
1.03109813184961e+002	(-2.06431484399419e-003dB,-1.27378045748995e+000°)
1.03133557830437e+002	(-2.06526554277715e-003dB,-1.27407371547289e+000°)
1.03157307943950e+002	(-2.06621667931256e-003dB,-1.27436704093724e+000°)
1.03181063526758e+002	(-2.06716825380602e-003dB,-1.27466043389849e+000°)
1.03204824580121e+002	(-2.06812026645926e-003dB,-1.27495389437216e+000°)
1.03228591105299e+002	(-2.06907271747403e-003dB,-1.27524742237376e+000°)
1.03252363103551e+002	(-2.07002560704820e-003dB,-1.27554101791880e+000°)
1.03276140576139e+002	(-2.07097893538640e-003dB,-1.27583468102281e+000°)
1.03299923524322e+002	(-2.07193270268747e-003dB,-1.27612841170130e+000°)
1.03323711949362e+002	(-2.07288690915701e-003dB,-1.27642220996979e+000°)
1.03347505852520e+002	(-2.07384155499773e-003dB,-1.27671607584383e+000°)
1.03371305235057e+002	(-2.07479664041039e-003dB,-1.27701000933894e+000°)
1.03395110098236e+002	(-2.07575216559866e-003dB,-1.27730401047066e+000°)
1.03418920443318e+002	(-2.07670813075849e-003dB,-1.27759807925452e+000°)
1.03442736271566e+002	(-2.07766453610416e-003dB,-1.27789221570608e+000°)
1.03466557584242e+002	(-2.07862138182679e-003dB,-1.27818641984088e+000°)
1.03490384382610e+002	(-2.07957866813296e-003dB,-1.27848069167446e+000°)
1.03514216667933e+002	(-2.08053639523114e-003dB,-1.27877503122239e+000°)
1.03538054441474e+002	(-2.08149456331922e-003dB,-1.27906943850022e+000°)
1.03561897704497e+002	(-2.08245317259412e-003dB,-1.27936391352351e+000°)
1.03585746458267e+002	(-2.08341222327203e-003dB,-1.27965845630783e+000°)
1.03609600704047e+002	(-2.08437171554410e-003dB,-1.27995306686874e+000°)
1.03633460443103e+002	(-2.08533164962267e-003dB,-1.28024774522182e+000°)
1.03657325676699e+002	(-2.08629202570658e-003dB,-1.28054249138264e+000°)
1.03681196406101e+002	(-2.08725284399950e-003dB,-1.28083730536678e+000°)
1.03705072632575e+002	(-2.08821410470511e-003dB,-1.28113218718983e+000°)
1.03728954357386e+002	(-2.08917580802804e-003dB,-1.28142713686737e+000°)
1.03752841581800e+002	(-2.09013795417002e-003dB,-1.28172215441498e+000°)
1.03776734307084e+002	(-2.09110054333762e-003dB,-1.28201723984828e+000°)
1.03800632534505e+002	(-2.09206357573257e-003dB,-1.28231239318283e+000°)
1.03824536265330e+002	(-2.09302705155953e-003dB,-1.28260761443427e+000°)
1.03848445500826e+002	(-2.09399097102118e-003dB,-1.28290290361817e+000°)
1.03872360242261e+002	(-2.09495533432409e-003dB,-1.28319826075016e+000°)
1.03896280490902e+002	(-2.09592014167868e-003dB,-1.28349368584583e+000°)
1.03920206248019e+002	(-2.09688539327031e-003dB,-1.28378917892082e+000°)
1.03944137514879e+002	(-2.09785108932095e-003dB,-1.28408473999073e+000°)
1.03968074292751e+002	(-2.09881723003140e-003dB,-1.28438036907119e+000°)
1.03992016582905e+002	(-2.09978381560533e-003dB,-1.28467606617783e+000°)
1.04015964386609e+002	(-2.10075084624253e-003dB,-1.28497183132626e+000°)
1.04039917705134e+002	(-2.10171832215344e-003dB,-1.28526766453213e+000°)
1.04063876539749e+002	(-2.10268624354366e-003dB,-1.28556356581107e+000°)
1.04087840891725e+002	(-2.10365461061493e-003dB,-1.28585953517872e+000°)
1.04111810762332e+002	(-2.10462342357479e-003dB,-1.28615557265073e+000°)
1.04135786152842e+002	(-2.10559268262882e-003dB,-1.28645167824273e+000°)
1.04159767064525e+002	(-2.10656238797973e-003dB,-1.28674785197039e+000°)
1.04183753498652e+002	(-2.10753253982928e-003dB,-1.28704409384935e+000°)
1.04207745456496e+002	(-2.10850313839464e-003dB,-1.28734040389527e+000°)
1.04231742939329e+002	(-2.10947418387175e-003dB,-1.28763678212382e+000°)
1.04255745948422e+002	(-2.11044567646816e-003dB,-1.28793322855065e+000°)
1.04279754485049e+002	(-2.11141761639429e-003dB,-1.28822974319144e+000°)
1.04303768550482e+002	(-2.11239000384995e-003dB,-1.28852632606186e+000°)
1.04327788145995e+002	(-2.11336283904845e-003dB,-1.28882297717758e+000°)
1.04351813272861e+002	(-2.11433612218288e-003dB,-1.28911969655429e+000°)
1.04375843932353e+002	(-2.11530985347328e-003dB,-1.28941648420766e+000°)
1.04399880125747e+002	(-2.11628403311948e-003dB,-1.28971334015339e+000°)
1.04423921854316e+002	(-2.11725866132806e-003dB,-1.29001026440715e+000°)
1.04447969119335e+002	(-2.11823373830459e-003dB,-1.29030725698466e+000°)
1.04472021922078e+002	(-2.11920926425953e-003dB,-1.29060431790159e+000°)
1.04496080263822e+002	(-2.12018523939750e-003dB,-1.29090144717365e+000°)
1.04520144145842e+002	(-2.12116166392314e-003dB,-1.29119864481656e+000°)
1.04544213569413e+002	(-2.12213853804302e-003dB,-1.29149591084601e+000°)
1.04568288535812e+002	(-2.12311586197239e-003dB,-1.29179324527771e+000°)
1.04592369046315e+002	(-2.12409363590335e-003dB,-1.29209064812738e+000°)
1.04616455102199e+002	(-2.12507186005886e-003dB,-1.29238811941075e+000°)
1.04640546704741e+002	(-2.12605053463586e-003dB,-1.29268565914353e+000°)
1.04664643855218e+002	(-2.12702965984861e-003dB,-1.29298326734144e+000°)
1.04688746554908e+002	(-2.12800923589695e-003dB,-1.29328094402022e+000°)
1.04712854805088e+002	(-2.12898926299516e-003dB,-1.29357868919560e+000°)
1.04736968607038e+002	(-2.12996974134401e-003dB,-1.29387650288332e+000°)
1.04761087962034e+002	(-2.13095067115973e-003dB,-1.29417438509911e+000°)
1.04785212871357e+002	(-2.13193205263731e-003dB,-1.29447233585872e+000°)
1.04809343336286e+002	(-2.13291388599875e-003dB,-1.29477035517790e+000°)
1.04833479358098e+002	(-2.13389617144483e-003dB,-1.29506844307240e+000°)
1.04857620938075e+002	(-2.13487890918502e-003dB,-1.29536659955798e+000°)
1.04881768077497e+002	(-2.13586209942686e-003dB,-1.29566482465038e+000°)
1.04905920777643e+002	(-2.13684574237980e-003dB,-1.29596311836538e+000°)
1.04930079039794e+002	(-2.13782983825138e-003dB,-1.29626148071873e+000°)
1.04954242865230e+002	(-2.13881438725011e-003dB,-1.29655991172621e+000°)
1.04978412255234e+002	(-2.13979938958255e-003dB,-1.29685841140359e+000°)
1.05002587211087e+002	(-2.14078484546492e-003dB,-1.29715697976665e+000°)
1.05026767734069e+002	(-2.14177075509801e-003dB,-1.29745561683116e+000°)
1.05050953825464e+002	(-2.14275711869031e-003dB,-1.29775432261291e+000°)
1.05075145486553e+002	(-2.14374393645514e-003dB,-1.29805309712769e+000°)
1.05099342718620e+002	(-2.14473120860199e-003dB,-1.29835194039128e+000°)
1.05123545522946e+002	(-2.14571893533740e-003dB,-1.29865085241949e+000°)
1.05147753900816e+002	(-2.14670711687086e-003dB,-1.29894983322810e+000°)
1.05171967853513e+002	(-2.14769575340894e-003dB,-1.29924888283292e+000°)
1.05196187382320e+002	(-2.14868484516688e-003dB,-1.29954800124976e+000°)
1.05220412488522e+002	(-2.14967439235126e-003dB,-1.29984718849442e+000°)
1.05244643173403e+002	(-2.15066439517252e-003dB,-1.30014644458272e+000°)
1.05268879438248e+002	(-2.15165485384300e-003dB,-1.30044576953047e+000°)
1.05293121284342e+002	(-2.15264576856061e-003dB,-1.30074516335349e+000°)
1.05317368712970e+002	(-2.15363713955314e-003dB,-1.30104462606761e+000°)
1.05341621725417e+002	(-2.15462896701365e-003dB,-1.30134415768864e+000°)
1.05365880322970e+002	(-2.15562125116706e-003dB,-1.30164375823243e+000°)
1.05390144506914e+002	(-2.15661399221317e-003dB,-1.30194342771480e+000°)
1.05414414278537e+002	(-2.15760719036628e-003dB,-1.30224316615160e+000°)
1.05438689639124e+002	(-2.15860084583490e-003dB,-1.30254297355866e+000°)
1.05462970589963e+002	(-2.15959495883234e-003dB,-1.30284284995182e+000°)
1.05487257132342e+002	(-2.16058952956905e-003dB,-1.30314279534695e+000°)
1.05511549267547e+002	(-2.16158455825256e-003dB,-1.30344280975989e+000°)
1.05535846996867e+002	(-2.16258004509427e-003dB,-1.30374289320649e+000°)
1.05560150321591e+002	(-2.16357599030847e-003dB,-1.30404304570261e+000°)
1.05584459243006e+002	(-2.16457239409981e-003dB,-1.30434326726413e+000°)
1.05608773762401e+002	(-2.16556925668739e-003dB,-1.30464355790689e+000°)
1.05633093881067e+002	(-2.16656657827684e-003dB,-1.30494391764679e+000°)
1.05657419600291e+002	(-2.16756435908149e-003dB,-1.30524434649967e+000°)
1.05681750921364e+002	(-2.16856259931272e-003dB,-1.30554484448144e+000°)
1.05706087845575e+002	(-2.16956129918193e-003dB,-1.30584541160796e+000°)
1.05730430374216e+002	(-2.17056045889861e-003dB,-1.30614604789513e+000°)
1.05754778508577e+002	(-2.17156007867414e-003dB,-1.30644675335882e+000°)
1.05779132249948e+002	(-2.17256015872668e-003dB,-1.30674752801493e+000°)
1.05803491599621e+002	(-2.17356069926185e-003dB,-1.30704837187937e+000°)
1.05827856558887e+002	(-2.17456170049006e-003dB,-1.30734928496801e+000°)
1.05852227129039e+002	(-2.17556316263238e-003dB,-1.30765026729678e+000°)
1.05876603311368e+002	(-2.17656508589538e-003dB,-1.30795131888158e+000°)
1.05900985107166e+002	(-2.17756747048756e-003dB,-1.30825243973831e+000°)
1.05925372517727e+002	(-2.17857031662129e-003dB,-1.30855362988289e+000°)
1.05949765544343e+002	(-2.17957362452148e-003dB,-1.30885488933124e+000°)
1.05974164188308e+002	(-2.18057739438601e-003dB,-1.30915621809927e+000°)
1.05998568450915e+002	(-2.18158162643209e-003dB,-1.30945761620292e+000°)
1.06022978333458e+002	(-2.18258632087496e-003dB,-1.30975908365812e+000°)
1.06047393837231e+002	(-2.18359147792507e-003dB,-1.31006062048078e+000°)
1.06071814963529e+002	(-2.18459709779961e-003dB,-1.31036222668686e+000°)
1.06096241713647e+002	(-2.18560318070708e-003dB,-1.31066390229228e+000°)
1.06120674088879e+002	(-2.18660972685888e-003dB,-1.31096564731299e+000°)
1.06145112090522e+002	(-2.18761673647027e-003dB,-1.31126746176495e+000°)
1.06169555719870e+002	(-2.18862420976134e-003dB,-1.31156934566409e+000°)
1.06194004978220e+002	(-2.18963214693675e-003dB,-1.31187129902637e+000°)
1.06218459866868e+002	(-2.19064054821366e-003dB,-1.31217332186775e+000°)
1.06242920387110e+002	(-2.19164941380447e-003dB,-1.31247541420419e+000°)
1.06267386540244e+002	(-2.19265874392345e-003dB,-1.31277757605166e+000°)
1.06291858327567e+002	(-2.19366853878974e-003dB,-1.31307980742613e+000°)
1.06316335750375e+002	(-2.19467879860315e-003dB,-1.31338210834355e+000°)
1.06340818809967e+002	(-2.19568952358667e-003dB,-1.31368447881993e+000°)
1.06365307507641e+002	(-2.19670071395556e-003dB,-1.31398691887122e+000°)
1.06389801844696e+002	(-2.19771236992316e-003dB,-1.31428942851341e+000°)
1.06414301822429e+002	(-2.19872449170375e-003dB,-1.31459200776250e+000°)
1.06438807442140e+002	(-2.19973707951454e-003dB,-1.31489465663447e+000°)
1.06463318705129e+002	(-2.20075013356209e-003dB,-1.31519737514531e+000°)
