Freq.	V(buff2)
1.00000000000000e+001	(-6.49446473074556e+001dB,-8.99999240325411e+001°)
1.02329299228075e+001	(-6.47446473091338e+001dB,-8.99999222630317e+001°)
1.04712854805090e+001	(-6.45446473108910e+001dB,-8.99999204523052e+001°)
1.07151930523761e+001	(-6.43446473127310e+001dB,-8.99999185994015e+001°)
1.09647819614319e+001	(-6.41446473146577e+001dB,-8.99999167033381e+001°)
1.12201845430196e+001	(-6.39446473166753e+001dB,-8.99999147631097e+001°)
1.14815362149688e+001	(-6.37446473187879e+001dB,-8.99999127776876e+001°)
1.17489755493953e+001	(-6.35446473210001e+001dB,-8.99999107460190e+001°)
1.20226443461741e+001	(-6.33446473233166e+001dB,-8.99999086670269e+001°)
1.23026877081238e+001	(-6.31446473257422e+001dB,-8.99999065396088e+001°)
1.25892541179417e+001	(-6.29446473282821e+001dB,-8.99999043626368e+001°)
1.28824955169313e+001	(-6.27446473309418e+001dB,-8.99999021349566e+001°)
1.31825673855641e+001	(-6.25446473337268e+001dB,-8.99998998553871e+001°)
1.34896288259165e+001	(-6.23446473366430e+001dB,-8.99998975227196e+001°)
1.38038426460288e+001	(-6.21446473396967e+001dB,-8.99998951357173e+001°)
1.41253754462275e+001	(-6.19446473428943e+001dB,-8.99998926931146e+001°)
1.44543977074593e+001	(-6.17446473462426e+001dB,-8.99998901936164e+001°)
1.47910838816821e+001	(-6.15446473497487e+001dB,-8.99998876358974e+001°)
1.51356124843621e+001	(-6.13446473534200e+001dB,-8.99998850186014e+001°)
1.54881661891248e+001	(-6.11446473572644e+001dB,-8.99998823403409e+001°)
1.58489319246111e+001	(-6.09446473612899e+001dB,-8.99998795996957e+001°)
1.62181009735893e+001	(-6.07446473655052e+001dB,-8.99998767952127e+001°)
1.65958690743756e+001	(-6.05446473699191e+001dB,-8.99998739254049e+001°)
1.69824365246174e+001	(-6.03446473745410e+001dB,-8.99998709887507e+001°)
1.73780082874937e+001	(-6.01446473793808e+001dB,-8.99998679836931e+001°)
1.77827941003892e+001	(-5.99446473844486e+001dB,-8.99998649086387e+001°)
1.81970085860998e+001	(-5.97446473897553e+001dB,-8.99998617619571e+001°)
1.86208713666287e+001	(-5.95446473953121e+001dB,-8.99998585419800e+001°)
1.90546071796325e+001	(-5.93446474011308e+001dB,-8.99998552470000e+001°)
1.94984459975804e+001	(-5.91446474072237e+001dB,-8.99998518752701e+001°)
1.99526231496888e+001	(-5.89446474136037e+001dB,-8.99998484250025e+001°)
2.04173794466953e+001	(-5.87446474202844e+001dB,-8.99998448943679e+001°)
2.08929613085404e+001	(-5.85446474272800e+001dB,-8.99998412814944e+001°)
2.13796208950223e+001	(-5.83446474346053e+001dB,-8.99998375844662e+001°)
2.18776162394955e+001	(-5.81446474422758e+001dB,-8.99998338013232e+001°)
2.23872113856834e+001	(-5.79446474503078e+001dB,-8.99998299300596e+001°)
2.29086765276777e+001	(-5.77446474587183e+001dB,-8.99998259686228e+001°)
2.34422881531992e+001	(-5.75446474675252e+001dB,-8.99998219149123e+001°)
2.39883291901949e+001	(-5.73446474767472e+001dB,-8.99998177667788e+001°)
2.45470891568503e+001	(-5.71446474864038e+001dB,-8.99998135220229e+001°)
2.51188643150958e+001	(-5.69446474965155e+001dB,-8.99998091783941e+001°)
2.57039578276886e+001	(-5.67446475071037e+001dB,-8.99998047335893e+001°)
2.63026799189538e+001	(-5.65446475181910e+001dB,-8.99998001852517e+001°)
2.69153480392691e+001	(-5.63446475298008e+001dB,-8.99997955309699e+001°)
2.75422870333816e+001	(-5.61446475419577e+001dB,-8.99997907682760e+001°)
2.81838293126445e+001	(-5.59446475546875e+001dB,-8.99997858946448e+001°)
2.88403150312660e+001	(-5.57446475680173e+001dB,-8.99997809074924e+001°)
2.95120922666638e+001	(-5.55446475819754e+001dB,-8.99997758041743e+001°)
3.01995172040201e+001	(-5.53446475965912e+001dB,-8.99997705819848e+001°)
3.09029543251359e+001	(-5.51446476118959e+001dB,-8.99997652381551e+001°)
3.16227766016838e+001	(-5.49446476279218e+001dB,-8.99997597698518e+001°)
3.23593656929628e+001	(-5.47446476447030e+001dB,-8.99997541741755e+001°)
3.31131121482591e+001	(-5.45446476622751e+001dB,-8.99997484481593e+001°)
3.38844156139202e+001	(-5.43446476806754e+001dB,-8.99997425887673e+001°)
3.46736850452531e+001	(-5.41446476999428e+001dB,-8.99997365928927e+001°)
3.54813389233575e+001	(-5.39446477201183e+001dB,-8.99997304573565e+001°)
3.63078054770101e+001	(-5.37446477412446e+001dB,-8.99997241789056e+001°)
3.71535229097172e+001	(-5.35446477633666e+001dB,-8.99997177542111e+001°)
3.80189396320561e+001	(-5.33446477865311e+001dB,-8.99997111798664e+001°)
3.89045144994280e+001	(-5.31446478107874e+001dB,-8.99997044523860e+001°)
3.98107170553497e+001	(-5.29446478361868e+001dB,-8.99996975682027e+001°)
4.07380277804112e+001	(-5.27446478627833e+001dB,-8.99996905236665e+001°)
4.16869383470335e+001	(-5.25446478906332e+001dB,-8.99996833150424e+001°)
4.26579518801592e+001	(-5.23446479197956e+001dB,-8.99996759385082e+001°)
4.36515832240165e+001	(-5.21446479503324e+001dB,-8.99996683901530e+001°)
4.46683592150962e+001	(-5.19446479823084e+001dB,-8.99996606659745e+001°)
4.57088189614874e+001	(-5.17446480157913e+001dB,-8.99996527618772e+001°)
4.67735141287197e+001	(-5.15446480508523e+001dB,-8.99996446736703e+001°)
4.78630092322638e+001	(-5.13446480875656e+001dB,-8.99996363970656e+001°)
4.89778819368445e+001	(-5.11446481260092e+001dB,-8.99996279276745e+001°)
5.01187233627271e+001	(-5.09446481662645e+001dB,-8.99996192610067e+001°)
5.12861383991364e+001	(-5.07446482084171e+001dB,-8.99996103924669e+001°)
5.24807460249772e+001	(-5.05446482525562e+001dB,-8.99996013173531e+001°)
5.37031796370252e+001	(-5.03446482987755e+001dB,-8.99995920308535e+001°)
5.49540873857624e+001	(-5.01446483471731e+001dB,-8.99995825280445e+001°)
5.62341325190348e+001	(-4.99446483978516e+001dB,-8.99995728038875e+001°)
5.75439937337156e+001	(-4.97446484509185e+001dB,-8.99995628532269e+001°)
5.88843655355588e+001	(-4.95446485064864e+001dB,-8.99995526707866e+001°)
6.02559586074357e+001	(-4.93446485646731e+001dB,-8.99995422511680e+001°)
6.16595001861481e+001	(-4.91446486256020e+001dB,-8.99995315888466e+001°)
6.30957344480192e+001	(-4.89446486894025e+001dB,-8.99995206781691e+001°)
6.45654229034654e+001	(-4.87446487562097e+001dB,-8.99995095133506e+001°)
6.60693448007595e+001	(-4.85446488261655e+001dB,-8.99994980884717e+001°)
6.76082975391980e+001	(-4.83446488994182e+001dB,-8.99994863974749e+001°)
6.91830970918935e+001	(-4.81446489761232e+001dB,-8.99994744341614e+001°)
7.07945784384136e+001	(-4.79446490564432e+001dB,-8.99994621921885e+001°)
7.24435960074988e+001	(-4.77446491405486e+001dB,-8.99994496650654e+001°)
7.41310241300916e+001	(-4.75446492286177e+001dB,-8.99994368461502e+001°)
7.58577575029182e+001	(-4.73446493208374e+001dB,-8.99994237286465e+001°)
7.76247116628690e+001	(-4.71446494174033e+001dB,-8.99994103055993e+001°)
7.94328234724279e+001	(-4.69446495185201e+001dB,-8.99993965698918e+001°)
8.12830516164097e+001	(-4.67446496244025e+001dB,-8.99993825142415e+001°)
8.31763771102669e+001	(-4.65446497352750e+001dB,-8.99993681311960e+001°)
8.51138038202374e+001	(-4.63446498513727e+001dB,-8.99993534131297e+001°)
8.70963589956078e+001	(-4.61446499729419e+001dB,-8.99993383522390e+001°)
8.91250938133743e+001	(-4.59446501002405e+001dB,-8.99993229405388e+001°)
9.12010839355907e+001	(-4.57446502335385e+001dB,-8.99993071698581e+001°)
9.33254300796988e+001	(-4.55446503731186e+001dB,-8.99992910318352e+001°)
9.54992586021433e+001	(-4.53446505192770e+001dB,-8.99992745179142e+001°)
9.77237220955808e+001	(-4.51446506723235e+001dB,-8.99992576193394e+001°)
9.99999999999997e+001	(-4.49446508325830e+001dB,-8.99992403271515e+001°)
1.02329299228075e+002	(-4.47446510003952e+001dB,-8.99992226321826e+001°)
1.04712854805090e+002	(-4.45446511761161e+001dB,-8.99992045250509e+001°)
1.07151930523760e+002	(-4.43446513601186e+001dB,-8.99991859961564e+001°)
1.09647819614318e+002	(-4.41446515527928e+001dB,-8.99991670356754e+001°)
1.12201845430196e+002	(-4.39446517545474e+001dB,-8.99991476335557e+001°)
1.14815362149688e+002	(-4.37446519658105e+001dB,-8.99991277795104e+001°)
1.17489755493953e+002	(-4.35446521870300e+001dB,-8.99991074630137e+001°)
1.20226443461741e+002	(-4.33446524186753e+001dB,-8.99990866732941e+001°)
1.23026877081238e+002	(-4.31446526612377e+001dB,-8.99990653993295e+001°)
1.25892541179416e+002	(-4.29446529152318e+001dB,-8.99990436298413e+001°)
1.28824955169313e+002	(-4.27446531811961e+001dB,-8.99990213532877e+001°)
1.31825673855640e+002	(-4.25446534596950e+001dB,-8.99989985578587e+001°)
1.34896288259165e+002	(-4.23446537513192e+001dB,-8.99989752314689e+001°)
1.38038426460288e+002	(-4.21446540566871e+001dB,-8.99989513617516e+001°)
1.41253754462275e+002	(-4.19446543764466e+001dB,-8.99989269360520e+001°)
1.44543977074592e+002	(-4.17446547112758e+001dB,-8.99989019414208e+001°)
1.47910838816820e+002	(-4.15446550618851e+001dB,-8.99988763646069e+001°)
1.51356124843620e+002	(-4.13446554290180e+001dB,-8.99988501920508e+001°)
1.54881661891248e+002	(-4.11446558134534e+001dB,-8.99988234098771e+001°)
1.58489319246111e+002	(-4.09446562160067e+001dB,-8.99987960038875e+001°)
1.62181009735892e+002	(-4.07446566375316e+001dB,-8.99987679595530e+001°)
1.65958690743755e+002	(-4.05446570789225e+001dB,-8.99987392620061e+001°)
1.69824365246174e+002	(-4.03446575411154e+001dB,-8.99987098960334e+001°)
1.73780082874937e+002	(-4.01446580250907e+001dB,-8.99986798460670e+001°)
1.77827941003892e+002	(-3.99446585318751e+001dB,-8.99986490961767e+001°)
1.81970085860998e+002	(-3.97446590625435e+001dB,-8.99986176300613e+001°)
1.86208713666286e+002	(-3.95446596182214e+001dB,-8.99985854310399e+001°)
1.90546071796324e+002	(-3.93446602000876e+001dB,-8.99985524820436e+001°)
1.94984459975804e+002	(-3.91446608093763e+001dB,-8.99985187656057e+001°)
1.99526231496887e+002	(-3.89446614473799e+001dB,-8.99984842638530e+001°)
2.04173794466952e+002	(-3.87446621154515e+001dB,-8.99984489584963e+001°)
2.08929613085403e+002	(-3.85446628150084e+001dB,-8.99984128308203e+001°)
2.13796208950222e+002	(-3.83446635475343e+001dB,-8.99983758616743e+001°)
2.18776162394954e+002	(-3.81446643145830e+001dB,-8.99983380314615e+001°)
2.23872113856833e+002	(-3.79446651177815e+001dB,-8.99982993201292e+001°)
2.29086765276776e+002	(-3.77446659588336e+001dB,-8.99982597071576e+001°)
2.34422881531991e+002	(-3.75446668395231e+001dB,-8.99982191715494e+001°)
2.39883291901948e+002	(-3.73446677617182e+001dB,-8.99981776918185e+001°)
2.45470891568502e+002	(-3.71446687273748e+001dB,-8.99981352459787e+001°)
2.51188643150957e+002	(-3.69446697385413e+001dB,-8.99980918115320e+001°)
2.57039578276885e+002	(-3.67446707973626e+001dB,-8.99980473654568e+001°)
2.63026799189537e+002	(-3.65446719060844e+001dB,-8.99980018841956e+001°)
2.69153480392690e+002	(-3.63446730670585e+001dB,-8.99979553436428e+001°)
2.75422870333816e+002	(-3.61446742827474e+001dB,-8.99979077191316e+001°)
2.81838293126444e+002	(-3.59446755557299e+001dB,-8.99978589854212e+001°)
2.88403150312659e+002	(-3.57446768887059e+001dB,-8.99978091166837e+001°)
2.95120922666637e+002	(-3.55446782845030e+001dB,-8.99977580864898e+001°)
3.01995172040200e+002	(-3.53446797460818e+001dB,-8.99977058677955e+001°)
3.09029543251358e+002	(-3.51446812765423e+001dB,-8.99976524329274e+001°)
3.16227766016837e+002	(-3.49446828791310e+001dB,-8.99975977535684e+001°)
3.23593656929627e+002	(-3.47446845572470e+001dB,-8.99975418007425e+001°)
3.31131121482590e+002	(-3.45446863144499e+001dB,-8.99974845447997e+001°)
3.38844156139201e+002	(-3.43446881544668e+001dB,-8.99974259554001e+001°)
3.46736850452530e+002	(-3.41446900812006e+001dB,-8.99973660014984e+001°)
3.54813389233574e+002	(-3.39446920987382e+001dB,-8.99973046513267e+001°)
3.63078054770100e+002	(-3.37446942113588e+001dB,-8.99972418723789e+001°)
3.71535229097171e+002	(-3.35446964235437e+001dB,-8.99971776313924e+001°)
3.80189396320559e+002	(-3.33446987399851e+001dB,-8.99971118943314e+001°)
3.89045144994279e+002	(-3.31447011655963e+001dB,-8.99970446263686e+001°)
3.98107170553495e+002	(-3.29447037055224e+001dB,-8.99969757918670e+001°)
4.07380277804111e+002	(-3.27447063651507e+001dB,-8.99969053543610e+001°)
4.16869383470333e+002	(-3.25447091501226e+001dB,-8.99968332765373e+001°)
4.26579518801591e+002	(-3.23447120663453e+001dB,-8.99967595202155e+001°)
4.36515832240164e+002	(-3.21447151200042e+001dB,-8.99966840463277e+001°)
4.46683592150961e+002	(-3.19447183175766e+001dB,-8.99966068148980e+001°)
4.57088189614873e+002	(-3.17447216658447e+001dB,-8.99965277850215e+001°)
4.67735141287196e+002	(-3.15447251719104e+001dB,-8.99964469148434e+001°)
4.78630092322636e+002	(-3.13447288432105e+001dB,-8.99963641615360e+001°)
4.89778819368444e+002	(-3.11447326875319e+001dB,-8.99962794812770e+001°)
5.01187233627270e+002	(-3.09447367130289e+001dB,-8.99961928292265e+001°)
5.12861383991362e+002	(-3.07447409282398e+001dB,-8.99961041595030e+001°)
5.24807460249770e+002	(-3.05447453421053e+001dB,-8.99960134251598e+001°)
5.37031796370250e+002	(-3.03447499639875e+001dB,-8.99959205781603e+001°)
5.49540873857622e+002	(-3.01447548036898e+001dB,-8.99958255693531e+001°)
5.62341325190346e+002	(-2.99447598714774e+001dB,-8.99957283484458e+001°)
5.75439937337154e+002	(-2.97447651780994e+001dB,-8.99956288639792e+001°)
5.88843655355586e+002	(-2.95447707348114e+001dB,-8.99955270633001e+001°)
6.02559586074355e+002	(-2.93447765533995e+001dB,-8.99954228925342e+001°)
6.16595001861479e+002	(-2.91447826462051e+001dB,-8.99953162965577e+001°)
6.30957344480190e+002	(-2.89447890261514e+001dB,-8.99952072189689e+001°)
6.45654229034652e+002	(-2.87447957067703e+001dB,-8.99950956020583e+001°)
6.60693448007592e+002	(-2.85448027022318e+001dB,-8.99949813867792e+001°)
6.76082975391978e+002	(-2.83448100273734e+001dB,-8.99948645127169e+001°)
6.91830970918933e+002	(-2.81448176977318e+001dB,-8.99947449180571e+001°)
7.07945784384134e+002	(-2.79448257295759e+001dB,-8.99946225395539e+001°)
7.24435960074986e+002	(-2.77448341399415e+001dB,-8.99944973124974e+001°)
7.41310241300914e+002	(-2.75448429466670e+001dB,-8.99943691706798e+001°)
7.58577575029180e+002	(-2.73448521684313e+001dB,-8.99942380463616e+001°)
7.76247116628688e+002	(-2.71448618247937e+001dB,-8.99941038702363e+001°)
7.94328234724277e+002	(-2.69448719362353e+001dB,-8.99939665713948e+001°)
8.12830516164095e+002	(-2.67448825242022e+001dB,-8.99938260772890e+001°)
8.31763771102666e+002	(-2.65448936111512e+001dB,-8.99936823136946e+001°)
8.51138038202372e+002	(-2.63449052205972e+001dB,-8.99935352046727e+001°)
8.70963589956076e+002	(-2.61449173771634e+001dB,-8.99933846725313e+001°)
8.91250938133741e+002	(-2.59449301066331e+001dB,-8.99932306377851e+001°)
9.12010839355905e+002	(-2.57449434360048e+001dB,-8.99930730191156e+001°)
9.33254300796986e+002	(-2.55449573935491e+001dB,-8.99929117333288e+001°)
9.54992586021431e+002	(-2.53449720088689e+001dB,-8.99927466953137e+001°)
9.77237220955805e+002	(-2.51449873129618e+001dB,-8.99925778179987e+001°)
9.99999999999994e+002	(-2.49450033382863e+001dB,-8.99924050123075e+001°)
1.02329299228075e+003	(-2.47450201188302e+001dB,-8.99922281871141e+001°)
1.04712854805089e+003	(-2.45450376901830e+001dB,-8.99920472491970e+001°)
1.07151930523760e+003	(-2.43450560896111e+001dB,-8.99918621031924e+001°)
1.09647819614318e+003	(-2.41450753561369e+001dB,-8.99916726515458e+001°)
1.12201845430196e+003	(-2.39450955306215e+001dB,-8.99914787944639e+001°)
1.14815362149688e+003	(-2.37451166558515e+001dB,-8.99912804298645e+001°)
1.17489755493952e+003	(-2.35451387766293e+001dB,-8.99910774533255e+001°)
1.20226443461741e+003	(-2.33451619398685e+001dB,-8.99908697580338e+001°)
1.23026877081237e+003	(-2.31451861946932e+001dB,-8.99906572347316e+001°)
1.25892541179416e+003	(-2.29452115925419e+001dB,-8.99904397716636e+001°)
1.28824955169313e+003	(-2.27452381872769e+001dB,-8.99902172545212e+001°)
1.31825673855640e+003	(-2.25452660352983e+001dB,-8.99899895663874e+001°)
1.34896288259165e+003	(-2.23452951956635e+001dB,-8.99897565876794e+001°)
1.38038426460288e+003	(-2.21453257302122e+001dB,-8.99895181960910e+001°)
1.41253754462275e+003	(-2.19453577036980e+001dB,-8.99892742665332e+001°)
1.44543977074592e+003	(-2.17453911839251e+001dB,-8.99890246710746e+001°)
1.47910838816820e+003	(-2.15454262418921e+001dB,-8.99887692788796e+001°)
1.51356124843620e+003	(-2.13454629519428e+001dB,-8.99885079561469e+001°)
1.54881661891247e+003	(-2.11455013919230e+001dB,-8.99882405660458e+001°)
1.58489319246110e+003	(-2.09455416433464e+001dB,-8.99879669686520e+001°)
1.62181009735892e+003	(-2.07455837915665e+001dB,-8.99876870208824e+001°)
1.65958690743755e+003	(-2.05456279259577e+001dB,-8.99874005764282e+001°)
1.69824365246173e+003	(-2.03456741401050e+001dB,-8.99871074856881e+001°)
1.73780082874936e+003	(-2.01457225320016e+001dB,-8.99868075956994e+001°)
1.77827941003891e+003	(-1.99457732042570e+001dB,-8.99865007500685e+001°)
1.81970085860997e+003	(-1.97458262643140e+001dB,-8.99861867889008e+001°)
1.86208713666286e+003	(-1.95458818246766e+001dB,-8.99858655487288e+001°)
1.90546071796323e+003	(-1.93459400031480e+001dB,-8.99855368624401e+001°)
1.94984459975803e+003	(-1.91460009230800e+001dB,-8.99852005592040e+001°)
1.99526231496887e+003	(-1.89460647136345e+001dB,-8.99848564643972e+001°)
2.04173794466952e+003	(-1.87461315100569e+001dB,-8.99845043995290e+001°)
2.08929613085403e+003	(-1.85462014539622e+001dB,-8.99841441821654e+001°)
2.13796208950222e+003	(-1.83462746936350e+001dB,-8.99837756258524e+001°)
2.18776162394954e+003	(-1.81463513843436e+001dB,-8.99833985400393e+001°)
2.23872113856832e+003	(-1.79464316886680e+001dB,-8.99830127300001e+001°)
2.29086765276776e+003	(-1.77465157768446e+001dB,-8.99826179967556e+001°)
2.34422881531991e+003	(-1.75466038271264e+001dB,-8.99822141369946e+001°)
2.39883291901947e+003	(-1.73466960261596e+001dB,-8.99818009429940e+001°)
2.45470891568501e+003	(-1.71467925693792e+001dB,-8.99813782025397e+001°)
2.51188643150956e+003	(-1.69468936614219e+001dB,-8.99809456988467e+001°)
2.57039578276885e+003	(-1.67469995165593e+001dB,-8.99805032104791e+001°)
2.63026799189536e+003	(-1.65471103591509e+001dB,-8.99800505112704e+001°)
2.69153480392690e+003	(-1.63472264241183e+001dB,-8.99795873702434e+001°)
2.75422870333815e+003	(-1.61473479574424e+001dB,-8.99791135515315e+001°)
2.81838293126443e+003	(-1.59474752166830e+001dB,-8.99786288142991e+001°)
2.88403150312659e+003	(-1.57476084715232e+001dB,-8.99781329126639e+001°)
2.95120922666636e+003	(-1.55477480043395e+001dB,-8.99776255956193e+001°)
3.01995172040199e+003	(-1.53478941107982e+001dB,-8.99771066069580e+001°)
3.09029543251357e+003	(-1.51480471004802e+001dB,-8.99765756851970e+001°)
3.16227766016836e+003	(-1.49482072975349e+001dB,-8.99760325635043e+001°)
3.23593656929626e+003	(-1.47483750413642e+001dB,-8.99754769696271e+001°)
3.31131121482589e+003	(-1.45485506873398e+001dB,-8.99749086258219e+001°)
3.38844156139200e+003	(-1.43487346075525e+001dB,-8.99743272487878e+001°)
3.46736850452529e+003	(-1.41489271915983e+001dB,-8.99737325496018e+001°)
3.54813389233573e+003	(-1.39491288473995e+001dB,-8.99731242336575e+001°)
3.63078054770099e+003	(-1.37493400020655e+001dB,-8.99725020006074e+001°)
3.71535229097170e+003	(-1.35495611027935e+001dB,-8.99718655443093e+001°)
3.80189396320558e+003	(-1.33497926178111e+001dB,-8.99712145527763e+001°)
3.89045144994278e+003	(-1.31500350373628e+001dB,-8.99705487081332e+001°)
3.98107170553494e+003	(-1.29502888747433e+001dB,-8.99698676865767e+001°)
4.07380277804110e+003	(-1.27505546673784e+001dB,-8.99691711583433e+001°)
4.16869383470332e+003	(-1.25508329779564e+001dB,-8.99684587876824e+001°)
4.26579518801589e+003	(-1.23511243956124e+001dB,-8.99677302328381e+001°)
4.36515832240162e+003	(-1.21514295371678e+001dB,-8.99669851460381e+001°)
4.46683592150960e+003	(-1.19517490484275e+001dB,-8.99662231734924e+001°)
4.57088189614871e+003	(-1.17520836055378e+001dB,-8.99654439554008e+001°)
4.67735141287194e+003	(-1.15524339164068e+001dB,-8.99646471259721e+001°)
4.78630092322634e+003	(-1.13528007221915e+001dB,-8.99638323134541e+001°)
4.89778819368442e+003	(-1.11531847988540e+001dB,-8.99629991401775e+001°)
5.01187233627268e+003	(-1.09535869587894e+001dB,-8.99621472226119e+001°)
5.12861383991361e+003	(-1.07540080525301e+001dB,-8.99612761714390e+001°)
5.24807460249768e+003	(-1.05544489705283e+001dB,-8.99603855916406e+001°)
