time	V(buff)	V(n009)
0.000000000000000e+000	-5.517770e-008	-1.000000e+000
2.441406278530511e-011	-9.091391e-006	-1.000000e+000
2.476613811405112e-011	-9.221365e-006	-1.000000e+000
3.110349403147919e-011	-1.144861e-005	-1.000000e+000
3.744084994890727e-011	-1.355381e-005	-1.000000e+000
4.377820586633534e-011	-1.553696e-005	-1.000000e+000
5.011556178376341e-011	-1.739806e-005	-1.000000e+000
5.645291770119149e-011	-1.913711e-005	-1.000000e+000
6.279027361861955e-011	-2.075411e-005	-1.000000e+000
6.912762953604762e-011	-2.224906e-005	-1.000000e+000
9.743488869393443e-011	-2.805805e-005	-1.000000e+000
1.364246951108239e-010	-3.370597e-005	-1.000000e+000
1.848515405310753e-010	-3.811655e-005	-1.000000e+000
2.533960681856382e-010	-4.147928e-005	-1.000000e+000
3.467635368130876e-010	-4.357010e-005	-1.000000e+000
4.913984370474615e-010	-4.487057e-005	-1.000000e+000
7.269130767201225e-010	-4.591819e-005	-1.000000e+000
1.197942356065445e-009	-4.745497e-005	-1.000000e+000
1.796356303806405e-009	-4.902854e-005	-1.000000e+000
2.598127924905348e-009	-5.060960e-005	-1.000000e+000
3.487448229033829e-009	-5.184083e-005	-1.000000e+000
4.750644653918292e-009	-5.300612e-005	-1.000000e+000
6.205064671668344e-009	-5.388383e-005	-1.000000e+000
8.467602815462879e-009	-5.479643e-005	-1.000000e+000
1.156112618111170e-008	-5.576214e-005	-1.000000e+000
1.696999843984498e-008	-5.731407e-005	-1.000000e+000
2.664154092793540e-008	-6.024124e-005	-1.000000e+000
4.598462590411625e-008	-6.685949e-005	-1.000000e+000
7.102580182978824e-008	-7.727448e-005	-1.000000e+000
1.077938362706081e-007	-9.744192e-005	-1.000000e+000
1.537483003009383e-007	-1.345620e-004	-1.000000e+000
2.173210232832155e-007	-2.210857e-004	-1.000000e+000
2.981601697239618e-007	-3.899217e-004	-1.000000e+000
3.213264282212594e-007	-4.596595e-004	-1.000000e+000
3.380753989190986e-007	-5.258486e-004	-1.000000e+000
3.590854913953868e-007	-6.232662e-004	-1.000000e+000
3.746664068071550e-007	-7.069653e-004	-1.000000e+000
3.909540990386387e-007	-8.082493e-004	-1.000000e+000
4.080819583639702e-007	-9.304085e-004	-1.000000e+000
4.245128637052047e-007	-1.065332e-003	-1.000000e+000
4.421606051576022e-007	-1.234895e-003	-1.000000e+000
4.659988360335278e-007	-1.508791e-003	-1.000000e+000
4.937991918718493e-007	-1.898184e-003	-1.000000e+000
5.210549421721573e-007	-2.372520e-003	-1.000000e+000
5.503234714950017e-007	-3.013164e-003	-1.000000e+000
5.828744489019512e-007	-3.923390e-003	-1.000000e+000
6.212387850175070e-007	-5.326300e-003	-1.000000e+000
6.659510980876857e-007	-7.545334e-003	-1.000000e+000
7.240485306743043e-007	-1.163640e-002	-1.000000e+000
8.016057435880231e-007	-1.964994e-002	-1.000000e+000
9.051751668168724e-007	-3.546770e-002	-1.000000e+000
1.053869713669205e-006	-6.710515e-002	-1.000000e+000
1.250880133778377e-006	-1.167987e-001	-1.000000e+000
1.378182323844415e-006	-1.454737e-001	-1.000000e+000
1.506466728032037e-006	-1.650662e-001	-1.000000e+000
1.640657989112604e-006	-1.806083e-001	-1.000000e+000
1.795521677881910e-006	-2.030969e-001	-1.000000e+000
1.944216928607188e-006	-2.357326e-001	-1.000000e+000
2.115077903017442e-006	-2.812028e-001	-1.000000e+000
2.210821039505844e-006	-2.991907e-001	-1.000000e+000
2.268864645313225e-006	-2.935864e-001	-1.000000e+000
2.315409856979349e-006	-2.632003e-001	-1.000000e+000
2.352083730055370e-006	-2.107256e-001	-1.000000e+000
2.391089198238311e-006	-1.231386e-001	-1.000000e+000
2.435763338460569e-006	7.740752e-003	-1.000000e+000
2.477347728675228e-006	1.392410e-001	-1.000000e+000
2.531100941592127e-006	2.919095e-001	-1.000000e+000
2.586297101490315e-006	4.113677e-001	-1.000000e+000
2.647551797281608e-006	4.967875e-001	-1.000000e+000
2.703796675013695e-006	5.501615e-001	-1.000000e+000
2.764676042152160e-006	5.999097e-001	-1.000000e+000
2.850924374487920e-006	6.625800e-001	-1.000000e+000
2.967706284328016e-006	7.361928e-001	-1.000000e+000
3.158873118294194e-006	8.421410e-001	-1.000000e+000
3.339928846064998e-006	9.326485e-001	-1.000000e+000
3.587532430182663e-006	1.048198e+000	-1.000000e+000
3.851211637198922e-006	1.167257e+000	-1.000000e+000
4.267115652169406e-006	1.352333e+000	-1.000000e+000
4.316408029660727e-006	1.374257e+000	-1.000000e+000
4.414992784643369e-006	1.418197e+000	-1.000000e+000
4.424610280197642e-006	1.422490e+000	-1.000000e+000
4.443845271306186e-006	1.431132e+000	-1.000000e+000
4.471472830367531e-006	1.443683e+000	-1.000000e+000
4.504397312526186e-006	1.458857e+000	-1.000000e+000
4.540965488530733e-006	1.475887e+000	-1.000000e+000
4.554193229832206e-006	1.482044e+000	-1.000000e+000
4.562307204347288e-006	1.485781e+000	-1.000000e+000
4.568314937163130e-006	1.488511e+000	-1.000000e+000
4.574357654461807e-006	1.491227e+000	-1.000000e+000
4.579771029340435e-006	1.493644e+000	-1.000000e+000
4.584403585960556e-006	1.495704e+000	-1.000000e+000
4.589022420100736e-006	1.497752e+000	-1.000000e+000
4.594366801820578e-006	1.500121e+000	-1.000000e+000
4.599426005481902e-006	1.502363e+000	-1.000000e+000
4.604805834500946e-006	1.504750e+000	-1.000000e+000
4.609936108829769e-006	1.507029e+000	-1.000000e+000
4.615276426139746e-006	1.509403e+000	-1.000000e+000
4.620436345908300e-006	1.511701e+000	-1.000000e+000
4.626935016253922e-006	1.514596e+000	-1.000000e+000
4.632079089428987e-006	1.516890e+000	-1.000000e+000
4.637636950172010e-006	1.519368e+000	-1.000000e+000
4.644470048972180e-006	1.522416e+000	-1.000000e+000
4.650874543387353e-006	1.525273e+000	-1.000000e+000
4.666504503890397e-006	1.532242e+000	-1.000000e+000
4.678026089857879e-006	1.537379e+000	-1.000000e+000
4.692219817724865e-006	1.543706e+000	-1.000000e+000
4.727004527821000e-006	1.559213e+000	-1.000000e+000
4.832089601420441e-006	1.606066e+000	-1.000000e+000
4.914041675886173e-006	1.642607e+000	-1.000000e+000
5.007574336638776e-006	1.684313e+000	-1.000000e+000
5.125567428997453e-006	1.736926e+000	-1.000000e+000
5.267952151321528e-006	1.800416e+000	-1.000000e+000
5.461456154040911e-006	1.886701e+000	-1.000000e+000
5.695902771418284e-006	1.991245e+000	-1.000000e+000
6.108856252124543e-006	2.175393e+000	-1.000000e+000
6.643540180537187e-006	2.413833e+000	-1.000000e+000
7.204582347750888e-006	2.664037e+000	-1.000000e+000
7.799206681436129e-006	2.929231e+000	-1.000000e+000
8.446203685122037e-006	3.217797e+000	-1.000000e+000
9.265489588763646e-006	3.583227e+000	-1.000000e+000
1.024214386257049e-005	4.018880e+000	-1.000000e+000
1.132483697434703e-005	4.501871e+000	-1.000000e+000
1.238266964849468e-005	4.973810e+000	-1.000000e+000
1.351339465039657e-005	5.478314e+000	-1.000000e+000
1.495142250920480e-005	6.119983e+000	-1.000000e+000
1.673351692420892e-005	6.914673e+000	-1.000000e+000
1.836359075895301e-005	7.640087e+000	-1.000000e+000
1.856814191408388e-005	7.729996e+000	-1.000000e+000
1.897724422434563e-005	7.906727e+000	-1.000000e+000
1.907951980191107e-005	7.949595e+000	-1.000000e+000
1.928407095704194e-005	8.028159e+000	-1.000000e+000
1.957300372849093e-005	8.113384e+000	-1.000000e+000
1.975033053535202e-005	8.113022e+000	-1.000000e+000
1.987888381364930e-005	8.028944e+000	-1.000000e+000
2.000000000000000e-005	7.872397e+000	-1.000000e+000
2.000067730969667e-005	7.871367e+000	-1.000000e+000
2.000203192908999e-005	7.869289e+000	-1.000000e+000
2.000474116787665e-005	7.865084e+000	-1.000000e+000
2.000874066191545e-005	7.858738e+000	-1.000000e+000
2.001332795808169e-005	7.851204e+000	-1.000000e+000
2.001831678435982e-005	7.842661e+000	-1.000000e+000
2.002328876025540e-005	7.833778e+000	-1.000000e+000
2.002832292360615e-005	7.824433e+000	-1.000000e+000
2.003329162171760e-005	7.814905e+000	-1.000000e+000
2.003886421940960e-005	7.803949e+000	-1.000000e+000
2.004325789714086e-005	7.795151e+000	-1.000000e+000
2.004742976771078e-005	7.786681e+000	-1.000000e+000
2.005232822666179e-005	7.776638e+000	-1.000000e+000
2.005681278973363e-005	7.767371e+000	-1.000000e+000
2.006161436826173e-005	7.757383e+000	-1.000000e+000
2.006981972753910e-005	7.740176e+000	-1.000000e+000
2.007365486469494e-005	7.732067e+000	-1.000000e+000
2.007850210929967e-005	7.721746e+000	-1.000000e+000
2.008621425067318e-005	7.705188e+000	-1.000000e+000
2.009285371629368e-005	7.690792e+000	-1.000000e+000
2.009919753002861e-005	7.676879e+000	-1.000000e+000
2.010649797544694e-005	7.660688e+000	-1.000000e+000
2.012207808450804e-005	7.625468e+000	-1.000000e+000
2.013211076154363e-005	7.602323e+000	-1.000000e+000
2.014437535038228e-005	7.573577e+000	-1.000000e+000
2.017191433894314e-005	7.507277e+000	-1.000000e+000
2.018949015554018e-005	7.463620e+000	-1.000000e+000
2.021856782120659e-005	7.389482e+000	-1.000000e+000
2.024998524444806e-005	7.306847e+000	-1.000000e+000
2.029361038807793e-005	7.187222e+000	-1.000000e+000
2.038086067533765e-005	6.935861e+000	-1.000000e+000
2.050373268630359e-005	6.564008e+000	-1.000000e+000
2.063201293999185e-005	6.158960e+000	-1.000000e+000
2.086545769074777e-005	5.406096e+000	-1.000000e+000
2.107998888832066e-005	4.727905e+000	-1.000000e+000
2.143404899485921e-005	3.676764e+000	-1.000000e+000
2.172621322384857e-005	2.902320e+000	-1.000000e+000
2.202141541686897e-005	2.239282e+000	-1.000000e+000
2.233335741299064e-005	1.666890e+000	-1.000000e+000
2.265054522451428e-005	1.215202e+000	-1.000000e+000
2.304700375071572e-005	7.952209e-001	-1.000000e+000
2.338341406761217e-005	5.409472e-001	-1.000000e+000
2.376843746721744e-005	3.376322e-001	-1.000000e+000
2.401788602426408e-005	2.418969e-001	-1.000000e+000
2.420371010220676e-005	1.886566e-001	-1.000000e+000
2.439219353878205e-005	1.457525e-001	-1.000000e+000
2.458981861640087e-005	1.090764e-001	-1.000000e+000
2.479564753487021e-005	7.745264e-002	-1.000000e+000
2.500027589191811e-005	5.098930e-002	-1.000000e+000
2.518700008077087e-005	3.075990e-002	-1.000000e+000
2.537565736308993e-005	1.419998e-002	-1.000000e+000
2.559025074393142e-005	-5.574327e-004	-1.000000e+000
2.577164719103001e-005	-1.006484e-002	-1.000000e+000
2.593192092851498e-005	-1.633618e-002	-1.000000e+000
2.609288266077080e-005	-2.098798e-002	-1.000000e+000
2.628813647918393e-005	-2.499207e-002	-1.000000e+000
2.651292621028409e-005	-2.808079e-002	-1.000000e+000
2.670729750835470e-005	-2.974022e-002	-1.000000e+000
2.687590225496748e-005	-3.055807e-002	-1.000000e+000
2.702595769909661e-005	-3.092057e-002	-1.000000e+000
2.717550081883993e-005	-3.102343e-002	-1.000000e+000
2.733973074542658e-005	-3.091991e-002	-1.000000e+000
2.752980142227268e-005	-3.059338e-002	-1.000000e+000
2.780115171989621e-005	-2.990154e-002	-1.000000e+000
2.805151483425843e-005	-2.912286e-002	-1.000000e+000
2.836818174673399e-005	-2.804185e-002	-1.000000e+000
2.870229365033327e-005	-2.688276e-002	-1.000000e+000
2.899560836282332e-005	-2.589040e-002	-1.000000e+000
2.926046391007878e-005	-2.503625e-002	-1.000000e+000
2.951070603268712e-005	-2.427305e-002	-1.000000e+000
2.974788385744971e-005	-2.359099e-002	-1.000000e+000
3.000455923406407e-005	-2.289605e-002	-1.000000e+000
3.027341533693305e-005	-2.221213e-002	-1.000000e+000
3.057726154888942e-005	-2.148774e-002	-1.000000e+000
3.090584691089835e-005	-2.075455e-002	-1.000000e+000
3.126783467664116e-005	-1.999830e-002	-1.000000e+000
3.163551627714098e-005	-1.927686e-002	-1.000000e+000
3.200269978904385e-005	-1.859653e-002	-1.000000e+000
3.233511877423936e-005	-1.801058e-002	-1.000000e+000
3.262980646362511e-005	-1.751342e-002	-1.000000e+000
3.293433198790208e-005	-1.701961e-002	-1.000000e+000
3.326454332280451e-005	-1.650493e-002	-1.000000e+000
3.367816885439420e-005	-1.588569e-002	-1.000000e+000
3.405551418151748e-005	-1.534398e-002	-1.000000e+000
3.447755657322479e-005	-1.476332e-002	-1.000000e+000
3.486603340970819e-005	-1.424910e-002	-1.000000e+000
3.516240970388425e-005	-1.387015e-002	-1.000000e+000
3.540035728385479e-005	-1.357498e-002	-1.000000e+000
3.566590246473020e-005	-1.325425e-002	-1.000000e+000
3.592051342095071e-005	-1.295500e-002	-1.000000e+000
3.625045548657044e-005	-1.257867e-002	-1.000000e+000
3.736147260562887e-005	-1.139543e-002	-1.000000e+000
3.758152511599853e-005	-1.117540e-002	-1.000000e+000
3.777072013543536e-005	-1.099083e-002	-1.000000e+000
3.796717252356535e-005	-1.080297e-002	-1.000000e+000
3.816191658142072e-005	-1.062043e-002	-1.000000e+000
3.838170644325821e-005	-1.041857e-002	-1.000000e+000
3.859103542590470e-005	-1.023064e-002	-1.000000e+000
3.887871800456075e-005	-9.978980e-003	-1.000000e+000
3.920564461040746e-005	-9.701691e-003	-1.000000e+000
3.962666141203702e-005	-9.357970e-003	-1.000000e+000
4.068177810654875e-005	-8.556780e-003	-1.000000e+000
4.137041945537129e-005	-8.076816e-003	-1.000000e+000
4.203128710336604e-005	-7.644602e-003	-1.000000e+000
4.268476311081193e-005	-7.245840e-003	-1.000000e+000
4.346450748844999e-005	-6.802477e-003	-1.000000e+000
4.420547990127416e-005	-6.413022e-003	-1.000000e+000
4.520839744827713e-005	-5.931871e-003	-1.000000e+000
4.637423490782730e-005	-5.425332e-003	-1.000000e+000
4.746637727753141e-005	-4.999984e-003	-1.000000e+000
4.859746181776431e-005	-4.610307e-003	-1.000000e+000
5.016362181888463e-005	-4.137079e-003	-1.000000e+000
5.167719218257342e-005	-3.742734e-003	-1.000000e+000
5.349198292336191e-005	-3.347701e-003	-1.000000e+000
5.593338917336191e-005	-2.913038e-003	-1.000000e+000
5.837479542336192e-005	-2.566149e-003	-1.000000e+000
6.081620167336192e-005	-2.294653e-003	-1.000000e+000
6.325760792336191e-005	-2.082164e-003	-1.000000e+000
6.569901417336192e-005	-1.915859e-003	-1.000000e+000
6.814042042336192e-005	-1.785700e-003	-1.000000e+000
7.058182667336192e-005	-1.683830e-003	-1.000000e+000
7.302323292336192e-005	-1.604101e-003	-1.000000e+000
7.546463917336192e-005	-1.541701e-003	-1.000000e+000
8.034745167336193e-005	-1.454641e-003	-1.000000e+000
8.523026417336193e-005	-1.401312e-003	-1.000000e+000
9.255448292336194e-005	-1.357422e-003	-1.000000e+000
9.883238470907623e-005	-1.343500e-003	-1.000000e+000
1.051102864947905e-004	-1.332318e-003	-1.000000e+000
1.113881882805048e-004	-1.323874e-003	-1.000000e+000
1.176660900662191e-004	-1.318170e-003	-1.000000e+000
1.239439918519334e-004	-1.315206e-003	-1.000000e+000
1.302218936376477e-004	-1.314980e-003	-1.000000e+000
1.364997954233620e-004	-1.317494e-003	-1.000000e+000
1.392950347815747e-004	-1.317387e-003	-1.000000e+000
1.420902741397874e-004	-1.317295e-003	-1.000000e+000
1.448855134980000e-004	-1.317219e-003	-1.000000e+000
1.476807528562128e-004	-1.317159e-003	-1.000000e+000
1.504759922144254e-004	-1.317114e-003	-1.000000e+000
1.532712315726381e-004	-1.317085e-003	-1.000000e+000
1.560664709308508e-004	-1.317071e-003	-1.000000e+000
1.563000000000000e-004	-1.317268e-003	-1.000000e+000
1.564038283142683e-004	-1.322411e-003	-9.993355e-001
1.564461167411902e-004	-1.333286e-003	-9.990649e-001
1.565088189599524e-004	-1.368422e-003	-9.986635e-001
1.565848796274277e-004	-1.463752e-003	-9.981768e-001
1.567216470661750e-004	-1.812828e-003	-9.973015e-001
1.568811117276743e-004	-2.585461e-003	-9.962809e-001
1.570880979830933e-004	-4.335292e-003	-9.949562e-001
1.573356857427384e-004	-7.687087e-003	-9.933716e-001
1.576527172572932e-004	-1.405045e-002	-9.913426e-001
1.580571416829707e-004	-2.526862e-002	-9.887543e-001
1.586691991445042e-004	-4.684205e-002	-9.848371e-001
1.594525115895094e-004	-7.896345e-002	-9.798239e-001
1.600690334700315e-004	-1.068177e-001	-9.758782e-001
1.607204257587348e-004	-1.378307e-001	-9.717093e-001
1.614990857653628e-004	-1.748844e-001	-9.667258e-001
1.622378810498679e-004	-2.082727e-001	-9.619976e-001
1.631214806208164e-004	-2.448106e-001	-9.563425e-001
1.641245522894482e-004	-2.814048e-001	-9.499229e-001
1.660785187529940e-004	-3.427955e-001	-9.374175e-001
1.679641730604913e-004	-3.927408e-001	-9.253493e-001
1.701020712488956e-004	-4.388564e-001	-9.116668e-001
1.725434774988956e-004	-4.812135e-001	-8.960418e-001
1.749848837488956e-004	-5.146999e-001	-8.804168e-001
1.774262899988956e-004	-5.409162e-001	-8.647918e-001
1.798676962488957e-004	-5.614418e-001	-8.491668e-001
1.823091024988957e-004	-5.775082e-001	-8.335418e-001
1.871919149988957e-004	-5.999264e-001	-8.022918e-001
1.920747274988957e-004	-6.136597e-001	-7.710418e-001
1.993989462488957e-004	-6.249631e-001	-7.241668e-001
2.063743926774671e-004	-6.286904e-001	-6.795239e-001
2.133498391060385e-004	-6.316672e-001	-6.348810e-001
2.203252855346100e-004	-6.338934e-001	-5.902382e-001
2.273007319631814e-004	-6.353691e-001	-5.455953e-001
2.342761783917528e-004	-6.360942e-001	-5.009525e-001
2.412516248203243e-004	-6.360687e-001	-4.563096e-001
2.482270712488957e-004	-6.352927e-001	-4.116668e-001
2.572951516060385e-004	-6.353008e-001	-3.536310e-001
2.663632319631814e-004	-6.353142e-001	-2.955953e-001
2.754313123203243e-004	-6.353330e-001	-2.375596e-001
2.844993926774672e-004	-6.353570e-001	-1.795239e-001
2.935674730346100e-004	-6.353864e-001	-1.214882e-001
3.026355533917529e-004	-6.354211e-001	-6.345246e-002
3.117036337488957e-004	-6.354611e-001	-5.416744e-003
3.207717141060386e-004	-6.354228e-001	5.261897e-002
3.298397944631815e-004	-6.353942e-001	1.106547e-001
3.389078748203244e-004	-6.353753e-001	1.686904e-001
3.479759551774672e-004	-6.353660e-001	2.267261e-001
3.570440355346101e-004	-6.353664e-001	2.847618e-001
3.661121158917529e-004	-6.353765e-001	3.427975e-001
3.751801962488958e-004	-6.353962e-001	4.008332e-001
3.842482766060387e-004	-6.353940e-001	4.588690e-001
3.933163569631815e-004	-6.353921e-001	5.169047e-001
4.023844373203244e-004	-6.353906e-001	5.749404e-001
4.114525176774673e-004	-6.353895e-001	6.329761e-001
4.205205980346101e-004	-6.353887e-001	6.910118e-001
4.295886783917530e-004	-6.353883e-001	7.490475e-001
4.386567587488959e-004	-6.353883e-001	8.070832e-001
4.429629360704822e-004	-6.353881e-001	8.346428e-001
4.472691133920684e-004	-6.353880e-001	8.622023e-001
4.515752907136548e-004	-6.353879e-001	8.897619e-001
4.558814680352411e-004	-6.353878e-001	9.173214e-001
4.601876453568274e-004	-6.353877e-001	9.448809e-001
4.644938226784137e-004	-6.353876e-001	9.724405e-001
4.688000000000000e-004	-6.353875e-001	1.000000e+000
4.689133641564967e-004	-6.355584e-001	9.992745e-001
4.690267283129934e-004	-6.353892e-001	9.985490e-001
4.691400924694900e-004	-6.348798e-001	9.978234e-001
4.692534566259867e-004	-6.340304e-001	9.970979e-001
4.693668207824834e-004	-6.328409e-001	9.963724e-001
4.694801849389801e-004	-6.313113e-001	9.956468e-001
4.695935490954767e-004	-6.294416e-001	9.949213e-001
4.698257048769504e-004	-6.233194e-001	9.934355e-001
4.701547404936814e-004	-6.103737e-001	9.913297e-001
4.705334514112249e-004	-5.896158e-001	9.889059e-001
4.710913438345499e-004	-5.496701e-001	9.853354e-001
4.719279865466551e-004	-4.786977e-001	9.799809e-001
4.726339483629088e-004	-4.136362e-001	9.754627e-001
4.734610389824675e-004	-3.365223e-001	9.701694e-001
4.744031882613019e-004	-2.527382e-001	9.641396e-001
4.755209427411669e-004	-1.611815e-001	9.569860e-001
4.767017300519898e-004	-7.165942e-002	9.494289e-001
4.774624381028369e-004	-1.646249e-002	9.445604e-001
4.779188632735743e-004	1.485909e-002	9.416393e-001
4.782381384428481e-004	3.473436e-002	9.395959e-001
4.785282826960562e-004	5.113741e-002	9.377390e-001
4.788220103833571e-004	6.672607e-002	9.358591e-001
4.794338819506646e-004	9.785064e-002	9.319432e-001
4.799204731412834e-004	1.223217e-001	9.288290e-001
4.806261756461428e-004	1.571788e-001	9.243125e-001
4.813895427104763e-004	1.930341e-001	9.194269e-001
4.822251593324370e-004	2.290839e-001	9.140790e-001
4.831370787072730e-004	2.639974e-001	9.082427e-001
4.847837317439842e-004	3.188888e-001	8.977041e-001
4.864779949531038e-004	3.674067e-001	8.868608e-001
4.882925886285239e-004	4.106713e-001	8.752474e-001
4.906985534937001e-004	4.575266e-001	8.598493e-001
4.931399597437001e-004	4.955472e-001	8.442243e-001
4.955813659937000e-004	5.253563e-001	8.285993e-001
4.980227722437000e-004	5.486935e-001	8.129743e-001
5.004641784936999e-004	5.669617e-001	7.973493e-001
5.029055847436999e-004	5.812614e-001	7.817243e-001
5.077883972436998e-004	6.012138e-001	7.504743e-001
5.126712097436997e-004	6.134365e-001	7.192243e-001
5.199954284936995e-004	6.234964e-001	6.723493e-001
