Freq.	V(pp)/i(R6)
1.00000000000000e+000	(1.19857585307435e+002dB,1.76857304483306e+002°)
1.00230523807790e+000	(1.19857525846767e+002dB,1.76850074103778e+002°)
1.00461579027840e+000	(1.19857466112457e+002dB,1.76842827155265e+002°)
1.00693166885180e+000	(1.19857406103255e+002dB,1.76835563600251e+002°)
1.00925288607668e+000	(1.19857345817895e+002dB,1.76828283401144e+002°)
1.01157945425990e+000	(1.19857285255115e+002dB,1.76820986520263e+002°)
1.01391138573668e+000	(1.19857224413640e+002dB,1.76813672919851e+002°)
1.01624869287070e+000	(1.19857163292192e+002dB,1.76806342562064e+002°)
1.01859138805412e+000	(1.19857101889481e+002dB,1.76798995408982e+002°)
1.02093948370768e+000	(1.19857040204227e+002dB,1.76791631422594e+002°)
1.02329299228075e+000	(1.19856978235127e+002dB,1.76784250564813e+002°)
1.02565192625141e+000	(1.19856915980881e+002dB,1.76776852797465e+002°)
1.02801629812647e+000	(1.19856853440182e+002dB,1.76769438082297e+002°)
1.03038612044162e+000	(1.19856790611710e+002dB,1.76762006380970e+002°)
1.03276140576140e+000	(1.19856727494154e+002dB,1.76754557655059e+002°)
1.03514216667934e+000	(1.19856664086181e+002dB,1.76747091866063e+002°)
1.03752841581801e+000	(1.19856600386464e+002dB,1.76739608975391e+002°)
1.03992016582906e+000	(1.19856536393661e+002dB,1.76732108944370e+002°)
1.04231742939330e+000	(1.19856472106431e+002dB,1.76724591734242e+002°)
1.04472021922080e+000	(1.19856407523422e+002dB,1.76717057306169e+002°)
1.04712854805090e+000	(1.19856342643280e+002dB,1.76709505621223e+002°)
1.04954242865232e+000	(1.19856277464637e+002dB,1.76701936640396e+002°)
1.05196187382322e+000	(1.19856211986129e+002dB,1.76694350324592e+002°)
1.05438689639126e+000	(1.19856146206379e+002dB,1.76686746634634e+002°)
1.05681750921366e+000	(1.19856080124008e+002dB,1.76679125531256e+002°)
1.05925372517729e+000	(1.19856013737625e+002dB,1.76671486975110e+002°)
1.06169555719872e+000	(1.19855947045838e+002dB,1.76663830926760e+002°)
1.06414301822431e+000	(1.19855880047246e+002dB,1.76656157346689e+002°)
1.06659612123026e+000	(1.19855812740442e+002dB,1.76648466195289e+002°)
1.06905487922266e+000	(1.19855745124015e+002dB,1.76640757432870e+002°)
1.07151930523761e+000	(1.19855677196546e+002dB,1.76633031019654e+002°)
1.07398941234124e+000	(1.19855608956607e+002dB,1.76625286915778e+002°)
1.07646521362983e+000	(1.19855540402763e+002dB,1.76617525081295e+002°)
1.07894672222983e+000	(1.19855471533579e+002dB,1.76609745476167e+002°)
1.08143395129794e+000	(1.19855402347609e+002dB,1.76601948060272e+002°)
1.08392691402120e+000	(1.19855332843402e+002dB,1.76594132793401e+002°)
1.08642562361706e+000	(1.19855263019494e+002dB,1.76586299635261e+002°)
1.08893009333343e+000	(1.19855192874428e+002dB,1.76578448545464e+002°)
1.09144033644876e+000	(1.19855122406722e+002dB,1.76570579483547e+002°)
1.09395636627209e+000	(1.19855051614905e+002dB,1.76562692408946e+002°)
1.09647819614318e+000	(1.19854980497492e+002dB,1.76554787281019e+002°)
1.09900583943252e+000	(1.19854909052986e+002dB,1.76546864059035e+002°)
1.10153930954141e+000	(1.19854837279889e+002dB,1.76538922702172e+002°)
1.10407861990207e+000	(1.19854765176696e+002dB,1.76530963169523e+002°)
1.10662378397766e+000	(1.19854692741895e+002dB,1.76522985420091e+002°)
1.10917481526240e+000	(1.19854619973965e+002dB,1.76514989412791e+002°)
1.11173172728159e+000	(1.19854546871385e+002dB,1.76506975106450e+002°)
1.11429453359173e+000	(1.19854473432613e+002dB,1.76498942459807e+002°)
1.11686324778056e+000	(1.19854399656116e+002dB,1.76490891431511e+002°)
1.11943788346715e+000	(1.19854325540341e+002dB,1.76482821980123e+002°)
1.12201845430196e+000	(1.19854251083736e+002dB,1.76474734064115e+002°)
1.12460497396692e+000	(1.19854176284740e+002dB,1.76466627641868e+002°)
1.12719745617551e+000	(1.19854101141788e+002dB,1.76458502671674e+002°)
1.12979591467280e+000	(1.19854025653295e+002dB,1.76450359111740e+002°)
1.13240036323556e+000	(1.19853949817685e+002dB,1.76442196920176e+002°)
1.13501081567231e+000	(1.19853873633368e+002dB,1.76434016055006e+002°)
1.13762728582343e+000	(1.19853797098743e+002dB,1.76425816474164e+002°)
1.14024978756117e+000	(1.19853720212209e+002dB,1.76417598135494e+002°)
1.14287833478977e+000	(1.19853642972154e+002dB,1.76409360996747e+002°)
1.14551294144553e+000	(1.19853565376957e+002dB,1.76401105015587e+002°)
1.14815362149688e+000	(1.19853487424990e+002dB,1.76392830149585e+002°)
1.15080038894443e+000	(1.19853409114622e+002dB,1.76384536356223e+002°)
1.15345325782109e+000	(1.19853330444215e+002dB,1.76376223592886e+002°)
1.15611224219210e+000	(1.19853251412113e+002dB,1.76367891816878e+002°)
1.15877735615512e+000	(1.19853172016662e+002dB,1.76359540985404e+002°)
1.16144861384034e+000	(1.19853092256200e+002dB,1.76351171055579e+002°)
1.16412602941049e+000	(1.19853012129056e+002dB,1.76342781984427e+002°)
1.16680961706096e+000	(1.19852931633548e+002dB,1.76334373728881e+002°)
1.16949939101987e+000	(1.19852850767993e+002dB,1.76325946245778e+002°)
1.17219536554813e+000	(1.19852769530693e+002dB,1.76317499491870e+002°)
1.17489755493953e+000	(1.19852687919950e+002dB,1.76309033423810e+002°)
1.17760597352080e+000	(1.19852605934051e+002dB,1.76300547998161e+002°)
1.18032063565173e+000	(1.19852523571277e+002dB,1.76292043171395e+002°)
1.18304155572516e+000	(1.19852440829911e+002dB,1.76283518899886e+002°)
1.18576874816716e+000	(1.19852357708214e+002dB,1.76274975139921e+002°)
1.18850222743702e+000	(1.19852274204445e+002dB,1.76266411847691e+002°)
1.19124200802737e+000	(1.19852190316854e+002dB,1.76257828979294e+002°)
1.19398810446427e+000	(1.19852106043689e+002dB,1.76249226490734e+002°)
1.19674053130724e+000	(1.19852021383181e+002dB,1.76240604337922e+002°)
1.19949930314938e+000	(1.19851936333559e+002dB,1.76231962476675e+002°)
1.20226443461741e+000	(1.19851850893042e+002dB,1.76223300862717e+002°)
1.20503594037179e+000	(1.19851765059844e+002dB,1.76214619451674e+002°)
1.20781383510678e+000	(1.19851678832163e+002dB,1.76205918199084e+002°)
1.21059813355048e+000	(1.19851592208195e+002dB,1.76197197060387e+002°)
1.21338885046497e+000	(1.19851505186131e+002dB,1.76188455990925e+002°)
1.21618600064636e+000	(1.19851417764145e+002dB,1.76179694945952e+002°)
1.21898959892486e+000	(1.19851329940406e+002dB,1.76170913880624e+002°)
1.22179966016487e+000	(1.19851241713081e+002dB,1.76162112750000e+002°)
1.22461619926504e+000	(1.19851153080318e+002dB,1.76153291509047e+002°)
1.22743923115840e+000	(1.19851064040270e+002dB,1.76144450112632e+002°)
1.23026877081238e+000	(1.19850974591068e+002dB,1.76135588515533e+002°)
1.23310483322890e+000	(1.19850884730841e+002dB,1.76126706672426e+002°)
1.23594743344451e+000	(1.19850794457706e+002dB,1.76117804537897e+002°)
1.23879658653036e+000	(1.19850703769781e+002dB,1.76108882066428e+002°)
1.24165230759241e+000	(1.19850612665163e+002dB,1.76099939212413e+002°)
1.24451461177138e+000	(1.19850521141954e+002dB,1.76090975930143e+002°)
1.24738351424294e+000	(1.19850429198229e+002dB,1.76081992173819e+002°)
1.25025903021771e+000	(1.19850336832074e+002dB,1.76072987897538e+002°)
1.25314117494141e+000	(1.19850244041548e+002dB,1.76063963055307e+002°)
1.25602996369487e+000	(1.19850150824721e+002dB,1.76054917601030e+002°)
1.25892541179416e+000	(1.19850057179633e+002dB,1.76045851488519e+002°)
1.26182753459066e+000	(1.19849963104338e+002dB,1.76036764671482e+002°)
1.26473634747115e+000	(1.19849868596857e+002dB,1.76027657103538e+002°)
1.26765186585784e+000	(1.19849773655222e+002dB,1.76018528738200e+002°)
1.27057410520854e+000	(1.19849678277443e+002dB,1.76009379528890e+002°)
1.27350308101666e+000	(1.19849582461530e+002dB,1.76000209428926e+002°)
1.27643880881134e+000	(1.19849486205478e+002dB,1.75991018391533e+002°)
1.27938130415752e+000	(1.19849389507275e+002dB,1.75981806369835e+002°)
1.28233058265602e+000	(1.19849292364899e+002dB,1.75972573316857e+002°)
1.28528665994361e+000	(1.19849194776324e+002dB,1.75963319185525e+002°)
1.28824955169313e+000	(1.19849096739506e+002dB,1.75954043928669e+002°)
1.29121927361353e+000	(1.19848998252398e+002dB,1.75944747499018e+002°)
1.29419584144998e+000	(1.19848899312942e+002dB,1.75935429849201e+002°)
1.29717927098395e+000	(1.19848799919069e+002dB,1.75926090931751e+002°)
1.30016957803328e+000	(1.19848700068707e+002dB,1.75916730699095e+002°)
1.30316677845229e+000	(1.19848599759764e+002dB,1.75907349103570e+002°)
1.30617088813183e+000	(1.19848498990151e+002dB,1.75897946097402e+002°)
1.30918192299940e+000	(1.19848397757757e+002dB,1.75888521632727e+002°)
1.31219989901920e+000	(1.19848296060474e+002dB,1.75879075661573e+002°)
1.31522483219223e+000	(1.19848193896172e+002dB,1.75869608135874e+002°)
1.31825673855640e+000	(1.19848091262720e+002dB,1.75860119007460e+002°)
1.32129563418657e+000	(1.19847988157975e+002dB,1.75850608228062e+002°)
1.32434153519466e+000	(1.19847884579782e+002dB,1.75841075749308e+002°)
1.32739445772973e+000	(1.19847780525983e+002dB,1.75831521522726e+002°)
1.33045441797808e+000	(1.19847675994403e+002dB,1.75821945499744e+002°)
1.33352143216332e+000	(1.19847570982856e+002dB,1.75812347631689e+002°)
1.33659551654643e+000	(1.19847465489155e+002dB,1.75802727869785e+002°)
1.33967668742593e+000	(1.19847359511095e+002dB,1.75793086165154e+002°)
1.34276496113786e+000	(1.19847253046466e+002dB,1.75783422468818e+002°)
1.34586035405594e+000	(1.19847146093045e+002dB,1.75773736731697e+002°)
1.34896288259164e+000	(1.19847038648604e+002dB,1.75764028904605e+002°)
1.35207256319427e+000	(1.19846930710893e+002dB,1.75754298938262e+002°)
1.35518941235103e+000	(1.19846822277664e+002dB,1.75744546783277e+002°)
1.35831344658715e+000	(1.19846713346656e+002dB,1.75734772390161e+002°)
1.36144468246594e+000	(1.19846603915596e+002dB,1.75724975709321e+002°)
1.36458313658892e+000	(1.19846493982200e+002dB,1.75715156691062e+002°)
1.36772882559584e+000	(1.19846383544174e+002dB,1.75705315285585e+002°)
1.37088176616484e+000	(1.19846272599215e+002dB,1.75695451442989e+002°)
1.37404197501251e+000	(1.19846161145012e+002dB,1.75685565113268e+002°)
1.37720946889394e+000	(1.19846049179239e+002dB,1.75675656246312e+002°)
1.38038426460288e+000	(1.19845936699559e+002dB,1.75665724791911e+002°)
1.38356637897177e+000	(1.19845823703630e+002dB,1.75655770699748e+002°)
1.38675582887188e+000	(1.19845710189092e+002dB,1.75645793919403e+002°)
1.38995263121334e+000	(1.19845596153582e+002dB,1.75635794400351e+002°)
1.39315680294529e+000	(1.19845481594722e+002dB,1.75625772091964e+002°)
1.39636836105593e+000	(1.19845366510123e+002dB,1.75615726943509e+002°)
1.39958732257261e+000	(1.19845250897387e+002dB,1.75605658904148e+002°)
1.40281370456195e+000	(1.19845134754105e+002dB,1.75595567922937e+002°)
1.40604752412990e+000	(1.19845018077855e+002dB,1.75585453948832e+002°)
1.40928879842186e+000	(1.19844900866207e+002dB,1.75575316930678e+002°)
1.41253754462274e+000	(1.19844783116717e+002dB,1.75565156817218e+002°)
1.41579377995707e+000	(1.19844664826936e+002dB,1.75554973557087e+002°)
1.41905752168908e+000	(1.19844545994394e+002dB,1.75544767098820e+002°)
1.42232878712281e+000	(1.19844426616620e+002dB,1.75534537390839e+002°)
1.42560759360218e+000	(1.19844306691125e+002dB,1.75524284381465e+002°)
1.42889395851109e+000	(1.19844186215411e+002dB,1.75514008018913e+002°)
1.43218789927353e+000	(1.19844065186973e+002dB,1.75503708251287e+002°)
1.43548943335364e+000	(1.19843943603289e+002dB,1.75493385026590e+002°)
1.43879857825583e+000	(1.19843821461821e+002dB,1.75483038292718e+002°)
1.44211535152486e+000	(1.19843698760033e+002dB,1.75472667997457e+002°)
1.44543977074592e+000	(1.19843575495371e+002dB,1.75462274088488e+002°)
1.44877185354475e+000	(1.19843451665260e+002dB,1.75451856513388e+002°)
1.45211161758773e+000	(1.19843327267133e+002dB,1.75441415219620e+002°)
1.45545908058195e+000	(1.19843202298398e+002dB,1.75430950154545e+002°)
1.45881426027534e+000	(1.19843076756448e+002dB,1.75420461265419e+002°)
1.46217717445671e+000	(1.19842950638677e+002dB,1.75409948499382e+002°)
1.46554784095590e+000	(1.19842823942460e+002dB,1.75399411803472e+002°)
1.46892627764385e+000	(1.19842696665158e+002dB,1.75388851124621e+002°)
1.47231250243271e+000	(1.19842568804127e+002dB,1.75378266409646e+002°)
1.47570653327588e+000	(1.19842440356704e+002dB,1.75367657605262e+002°)
1.47910838816819e+000	(1.19842311320218e+002dB,1.75357024658074e+002°)
1.48251808514594e+000	(1.19842181691985e+002dB,1.75346367514578e+002°)
1.48593564228699e+000	(1.19842051469310e+002dB,1.75335686121161e+002°)
1.48936107771090e+000	(1.19841920649482e+002dB,1.75324980424102e+002°)
1.49279440957898e+000	(1.19841789229785e+002dB,1.75314250369570e+002°)
1.49623565609442e+000	(1.19841657207486e+002dB,1.75303495903625e+002°)
1.49968483550236e+000	(1.19841524579835e+002dB,1.75292716972221e+002°)
1.50314196609001e+000	(1.19841391344082e+002dB,1.75281913521198e+002°)
1.50660706618673e+000	(1.19841257497453e+002dB,1.75271085496288e+002°)
1.51008015416413e+000	(1.19841123037169e+002dB,1.75260232843114e+002°)
1.51356124843619e+000	(1.19840987960433e+002dB,1.75249355507191e+002°)
1.51705036745932e+000	(1.19840852264441e+002dB,1.75238453433918e+002°)
1.52054752973248e+000	(1.19840715946371e+002dB,1.75227526568592e+002°)
1.52405275379728e+000	(1.19840579003393e+002dB,1.75216574856391e+002°)
1.52756605823806e+000	(1.19840441432658e+002dB,1.75205598242391e+002°)
1.53108746168202e+000	(1.19840303231313e+002dB,1.75194596671552e+002°)
1.53461698279928e+000	(1.19840164396484e+002dB,1.75183570088725e+002°)
1.53815464030302e+000	(1.19840024925293e+002dB,1.75172518438647e+002°)
1.54170045294954e+000	(1.19839884814837e+002dB,1.75161441665951e+002°)
1.54525443953840e+000	(1.19839744062210e+002dB,1.75150339715153e+002°)
1.54881661891247e+000	(1.19839602664491e+002dB,1.75139212530657e+002°)
1.55238700995807e+000	(1.19839460618743e+002dB,1.75128060056762e+002°)
1.55596563160506e+000	(1.19839317922017e+002dB,1.75116882237648e+002°)
1.55955250282694e+000	(1.19839174571349e+002dB,1.75105679017390e+002°)
1.56314764264094e+000	(1.19839030563770e+002dB,1.75094450339943e+002°)
1.56675107010813e+000	(1.19838885896286e+002dB,1.75083196149158e+002°)
1.57036280433354e+000	(1.19838740565899e+002dB,1.75071916388769e+002°)
1.57398286446620e+000	(1.19838594569593e+002dB,1.75060611002399e+002°)
1.57761126969933e+000	(1.19838447904335e+002dB,1.75049279933561e+002°)
1.58124803927037e+000	(1.19838300567086e+002dB,1.75037923125651e+002°)
1.58489319246110e+000	(1.19838152554791e+002dB,1.75026540521955e+002°)
1.58854674859776e+000	(1.19838003864379e+002dB,1.75015132065644e+002°)
1.59220872705115e+000	(1.19837854492765e+002dB,1.75003697699780e+002°)
1.59587914723672e+000	(1.19837704436856e+002dB,1.74992237367307e+002°)
1.59955802861465e+000	(1.19837553693538e+002dB,1.74980751011058e+002°)
1.60324539069002e+000	(1.19837402259686e+002dB,1.74969238573754e+002°)
1.60694125301286e+000	(1.19837250132160e+002dB,1.74957699998002e+002°)
1.61064563517825e+000	(1.19837097307811e+002dB,1.74946135226290e+002°)
1.61435855682647e+000	(1.19836943783469e+002dB,1.74934544200999e+002°)
1.61808003764305e+000	(1.19836789555950e+002dB,1.74922926864395e+002°)
1.62181009735891e+000	(1.19836634622063e+002dB,1.74911283158627e+002°)
1.62554875575047e+000	(1.19836478978599e+002dB,1.74899613025728e+002°)
1.62929603263970e+000	(1.19836322622327e+002dB,1.74887916407626e+002°)
1.63305194789432e+000	(1.19836165550017e+002dB,1.74876193246121e+002°)
1.63681652142779e+000	(1.19836007758409e+002dB,1.74864443482911e+002°)
1.64058977319952e+000	(1.19835849244237e+002dB,1.74852667059573e+002°)
1.64437172321491e+000	(1.19835690004220e+002dB,1.74840863917567e+002°)
1.64816239152549e+000	(1.19835530035064e+002dB,1.74829033998242e+002°)
1.65196179822900e+000	(1.19835369333449e+002dB,1.74817177242832e+002°)
1.65576996346951e+000	(1.19835207896058e+002dB,1.74805293592451e+002°)
1.65958690743754e+000	(1.19835045719545e+002dB,1.74793382988104e+002°)
1.66341265037015e+000	(1.19834882800550e+002dB,1.74781445370677e+002°)
1.66724721255104e+000	(1.19834719135711e+002dB,1.74769480680937e+002°)
1.67109061431069e+000	(1.19834554721634e+002dB,1.74757488859543e+002°)
1.67494287602642e+000	(1.19834389554920e+002dB,1.74745469847032e+002°)
1.67880401812254e+000	(1.19834223632155e+002dB,1.74733423583824e+002°)
1.68267406107045e+000	(1.19834056949904e+002dB,1.74721350010230e+002°)
1.68655302538872e+000	(1.19833889504722e+002dB,1.74709249066436e+002°)
1.69044093164324e+000	(1.19833721293145e+002dB,1.74697120692517e+002°)
1.69433780044731e+000	(1.19833552311696e+002dB,1.74684964828431e+002°)
1.69824365246172e+000	(1.19833382556880e+002dB,1.74672781414017e+002°)
1.70215850839493e+000	(1.19833212025190e+002dB,1.74660570389000e+002°)
1.70608238900310e+000	(1.19833040713100e+002dB,1.74648331692984e+002°)
1.71001531509027e+000	(1.19832868617074e+002dB,1.74636065265458e+002°)
1.71395730750840e+000	(1.19832695733548e+002dB,1.74623771045798e+002°)
1.71790838715757e+000	(1.19832522058956e+002dB,1.74611448973256e+002°)
1.72186857498599e+000	(1.19832347589708e+002dB,1.74599098986969e+002°)
1.72583789199018e+000	(1.19832172322204e+002dB,1.74586721025957e+002°)
1.72981635921508e+000	(1.19831996252816e+002dB,1.74574315029124e+002°)
1.73380399775412e+000	(1.19831819377912e+002dB,1.74561880935255e+002°)
1.73780082874935e+000	(1.19831641693843e+002dB,1.74549418683012e+002°)
1.74180687339159e+000	(1.19831463196940e+002dB,1.74536928210945e+002°)
1.74582215292048e+000	(1.19831283883512e+002dB,1.74524409457487e+002°)
1.74984668862464e+000	(1.19831103749863e+002dB,1.74511862360947e+002°)
1.75388050184174e+000	(1.19830922792277e+002dB,1.74499286859518e+002°)
1.75792361395867e+000	(1.19830741007014e+002dB,1.74486682891279e+002°)
1.76197604641161e+000	(1.19830558390327e+002dB,1.74474050394183e+002°)
1.76603782068614e+000	(1.19830374938449e+002dB,1.74461389306068e+002°)
1.77010895831740e+000	(1.19830190647594e+002dB,1.74448699564654e+002°)
1.77418948089014e+000	(1.19830005513960e+002dB,1.74435981107541e+002°)
1.77827941003890e+000	(1.19829819533735e+002dB,1.74423233872207e+002°)
1.78237876744807e+000	(1.19829632703076e+002dB,1.74410457796018e+002°)
1.78648757485203e+000	(1.19829445018136e+002dB,1.74397652816215e+002°)
1.79060585403527e+000	(1.19829256475045e+002dB,1.74384818869919e+002°)
1.79473362683250e+000	(1.19829067069915e+002dB,1.74371955894137e+002°)
1.79887091512876e+000	(1.19828876798846e+002dB,1.74359063825750e+002°)
1.80301774085955e+000	(1.19828685657914e+002dB,1.74346142601525e+002°)
1.80717412601090e+000	(1.19828493643181e+002dB,1.74333192158105e+002°)
1.81134009261958e+000	(1.19828300750694e+002dB,1.74320212432015e+002°)
1.81551566277311e+000	(1.19828106976479e+002dB,1.74307203359658e+002°)
1.81970085860996e+000	(1.19827912316543e+002dB,1.74294164877321e+002°)
1.82389570231961e+000	(1.19827716766878e+002dB,1.74281096921168e+002°)
1.82810021614272e+000	(1.19827520323459e+002dB,1.74267999427242e+002°)
1.83231442237119e+000	(1.19827322982242e+002dB,1.74254872331466e+002°)
1.83653834334832e+000	(1.19827124739161e+002dB,1.74241715569647e+002°)
1.84077200146893e+000	(1.19826925590143e+002dB,1.74228529077463e+002°)
1.84501541917945e+000	(1.19826725531083e+002dB,1.74215312790479e+002°)
1.84926861897805e+000	(1.19826524557868e+002dB,1.74202066644135e+002°)
1.85353162341479e+000	(1.19826322666361e+002dB,1.74188790573752e+002°)
1.85780445509167e+000	(1.19826119852411e+002dB,1.74175484514529e+002°)
1.86208713666284e+000	(1.19825916111850e+002dB,1.74162148401542e+002°)
1.86637969083464e+000	(1.19825711440483e+002dB,1.74148782169750e+002°)
1.87068214036577e+000	(1.19825505834103e+002dB,1.74135385753990e+002°)
1.87499450806739e+000	(1.19825299288483e+002dB,1.74121959088976e+002°)
1.87931681680324e+000	(1.19825091799377e+002dB,1.74108502109301e+002°)
1.88364908948977e+000	(1.19824883362524e+002dB,1.74095014749435e+002°)
1.88799134909627e+000	(1.19824673973636e+002dB,1.74081496943731e+002°)
1.89234361864495e+000	(1.19824463628413e+002dB,1.74067948626416e+002°)
1.89670592121112e+000	(1.19824252322536e+002dB,1.74054369731595e+002°)
1.90107827992327e+000	(1.19824040051662e+002dB,1.74040760193254e+002°)
1.90546071796322e+000	(1.19823826811430e+002dB,1.74027119945259e+002°)
