Freq.	V(vin)/I(V3)
1.00000000000000e+000	(1.44866253785586e+002dB,1.05230894798313e+002°)
1.00230523807790e+000	(1.44847634823040e+002dB,1.05197397202745e+002°)
1.00461579027840e+000	(1.44829009951362e+002dB,1.05163965837004e+002°)
1.00693166885180e+000	(1.44810379193978e+002dB,1.05130600614522e+002°)
1.00925288607668e+000	(1.44791742574226e+002dB,1.05097301448652e+002°)
1.01157945425990e+000	(1.44773100115402e+002dB,1.05064068251845e+002°)
1.01391138573668e+000	(1.44754451840671e+002dB,1.05030900937625e+002°)
1.01624869287070e+000	(1.44735797773167e+002dB,1.04997799418201e+002°)
1.01859138805412e+000	(1.44717137935916e+002dB,1.04964763606441e+002°)
1.02093948370768e+000	(1.44698472351892e+002dB,1.04931793414372e+002°)
1.02329299228075e+000	(1.44679801043969e+002dB,1.04898888754479e+002°)
1.02565192625141e+000	(1.44661124034974e+002dB,1.04866049538359e+002°)
1.02801629812647e+000	(1.44642441347628e+002dB,1.04833275678120e+002°)
1.03038612044162e+000	(1.44623753004600e+002dB,1.04800567085197e+002°)
1.03276140576140e+000	(1.44605059028466e+002dB,1.04767923671227e+002°)
1.03514216667934e+000	(1.44586359441738e+002dB,1.04735345347389e+002°)
1.03752841581801e+000	(1.44567654266851e+002dB,1.04702832024813e+002°)
1.03992016582906e+000	(1.44548943526154e+002dB,1.04670383614629e+002°)
1.04231742939330e+000	(1.44530227241945e+002dB,1.04638000027317e+002°)
1.04472021922080e+000	(1.44511505436403e+002dB,1.04605681174225e+002°)
1.04712854805090e+000	(1.44492778131681e+002dB,1.04573426965340e+002°)
1.04954242865232e+000	(1.44474045349831e+002dB,1.04541237311171e+002°)
1.05196187382322e+000	(1.44455307112827e+002dB,1.04509112122136e+002°)
1.05438689639126e+000	(1.44436563442587e+002dB,1.04477051308067e+002°)
1.05681750921366e+000	(1.44417814360944e+002dB,1.04445054778912e+002°)
1.05925372517729e+000	(1.44399059889647e+002dB,1.04413122444739e+002°)
1.06169555719872e+000	(1.44380300050384e+002dB,1.04381254215086e+002°)
1.06414301822431e+000	(1.44361534864767e+002dB,1.04349449999463e+002°)
1.06659612123026e+000	(1.44342764354330e+002dB,1.04317709707355e+002°)
1.06905487922266e+000	(1.44323988540544e+002dB,1.04286033247778e+002°)
1.07151930523761e+000	(1.44305207444798e+002dB,1.04254420529876e+002°)
1.07398941234124e+000	(1.44286421088392e+002dB,1.04222871463066e+002°)
1.07646521362983e+000	(1.44267629492583e+002dB,1.04191385955862e+002°)
1.07894672222983e+000	(1.44248832678537e+002dB,1.04159963917105e+002°)
1.08143395129794e+000	(1.44230030667344e+002dB,1.04128605255573e+002°)
1.08392691402120e+000	(1.44211223480030e+002dB,1.04097309879689e+002°)
1.08642562361706e+000	(1.44192411137543e+002dB,1.04066077697962e+002°)
1.08893009333343e+000	(1.44173593660765e+002dB,1.04034908618552e+002°)
1.09144033644876e+000	(1.44154771070516e+002dB,1.04003802549221e+002°)
1.09395636627209e+000	(1.44135943387503e+002dB,1.03972759398701e+002°)
1.09647819614318e+000	(1.44117110632392e+002dB,1.03941779074845e+002°)
1.09900583943252e+000	(1.44098272825786e+002dB,1.03910861485068e+002°)
1.10153930954141e+000	(1.44079429988199e+002dB,1.03880006537223e+002°)
1.10407861990207e+000	(1.44060582140064e+002dB,1.03849214139212e+002°)
1.10662378397766e+000	(1.44041729301768e+002dB,1.03818484198266e+002°)
1.10917481526240e+000	(1.44022871493595e+002dB,1.03787816622247e+002°)
1.11173172728159e+000	(1.44004008735794e+002dB,1.03757211318016e+002°)
1.11429453359173e+000	(1.43985141048514e+002dB,1.03726668193114e+002°)
1.11686324778056e+000	(1.43966268451852e+002dB,1.03696187154424e+002°)
1.11943788346715e+000	(1.43947390965824e+002dB,1.03665768109079e+002°)
1.12201845430196e+000	(1.43928508610363e+002dB,1.03635410964371e+002°)
1.12460497396692e+000	(1.43909621405375e+002dB,1.03605115626418e+002°)
1.12719745617551e+000	(1.43890729370640e+002dB,1.03574882002685e+002°)
1.12979591467280e+000	(1.43871832525906e+002dB,1.03544709999566e+002°)
1.13240036323556e+000	(1.43852930890842e+002dB,1.03514599523571e+002°)
1.13501081567231e+000	(1.43834024485034e+002dB,1.03484550481517e+002°)
1.13762728582343e+000	(1.43815113328016e+002dB,1.03454562779677e+002°)
1.14024978756117e+000	(1.43796197439245e+002dB,1.03424636324352e+002°)
1.14287833478977e+000	(1.43777276838107e+002dB,1.03394771021965e+002°)
1.14551294144553e+000	(1.43758351543917e+002dB,1.03364966778732e+002°)
1.14815362149688e+000	(1.43739421575921e+002dB,1.03335223500946e+002°)
1.15080038894443e+000	(1.43720486953310e+002dB,1.03305541094373e+002°)
1.15345325782109e+000	(1.43701547695197e+002dB,1.03275919464955e+002°)
1.15611224219210e+000	(1.43682603820618e+002dB,1.03246358518853e+002°)
1.15877735615512e+000	(1.43663655348539e+002dB,1.03216858162125e+002°)
1.16144861384034e+000	(1.43644702297895e+002dB,1.03187418299807e+002°)
1.16412602941049e+000	(1.43625744687496e+002dB,1.03158038838402e+002°)
1.16680961706096e+000	(1.43606782536113e+002dB,1.03128719683581e+002°)
1.16949939101987e+000	(1.43587815862463e+002dB,1.03099460740549e+002°)
1.17219536554813e+000	(1.43568844685171e+002dB,1.03070261915111e+002°)
1.17489755493953e+000	(1.43549869022810e+002dB,1.03041123112612e+002°)
1.17760597352080e+000	(1.43530888893867e+002dB,1.03012044238899e+002°)
1.18032063565173e+000	(1.43511904316796e+002dB,1.02983025198732e+002°)
1.18304155572516e+000	(1.43492915309937e+002dB,1.02954065898192e+002°)
1.18576874816716e+000	(1.43473921891609e+002dB,1.02925166242004e+002°)
1.18850222743702e+000	(1.43454924080043e+002dB,1.02896326135449e+002°)
1.19124200802737e+000	(1.43435921893397e+002dB,1.02867545483949e+002°)
1.19398810446427e+000	(1.43416915349766e+002dB,1.02838824192801e+002°)
1.19674053130724e+000	(1.43397904467187e+002dB,1.02810162166955e+002°)
1.19949930314938e+000	(1.43378889263639e+002dB,1.02781559311195e+002°)
1.20226443461741e+000	(1.43359869757007e+002dB,1.02753015530995e+002°)
1.20503594037179e+000	(1.43340845965128e+002dB,1.02724530731304e+002°)
1.20781383510678e+000	(1.43321817905784e+002dB,1.02696104816736e+002°)
1.21059813355048e+000	(1.43302785596669e+002dB,1.02667737692546e+002°)
1.21338885046497e+000	(1.43283749055431e+002dB,1.02639429263346e+002°)
1.21618600064636e+000	(1.43264708299632e+002dB,1.02611179434344e+002°)
1.21898959892486e+000	(1.43245663346801e+002dB,1.02582988109844e+002°)
1.22179966016487e+000	(1.43226614214358e+002dB,1.02554855195323e+002°)
1.22461619926504e+000	(1.43207560919698e+002dB,1.02526780595137e+002°)
1.22743923115840e+000	(1.43188503480139e+002dB,1.02498764213981e+002°)
1.23026877081238e+000	(1.43169441912926e+002dB,1.02470805956752e+002°)
1.23310483322890e+000	(1.43150376235257e+002dB,1.02442905727856e+002°)
1.23594743344451e+000	(1.43131306464241e+002dB,1.02415063432425e+002°)
1.23879658653036e+000	(1.43112232616950e+002dB,1.02387278974713e+002°)
1.24165230759241e+000	(1.43093154710382e+002dB,1.02359552259355e+002°)
1.24451461177138e+000	(1.43074072761464e+002dB,1.02331883191110e+002°)
1.24738351424294e+000	(1.43054986787067e+002dB,1.02304271674599e+002°)
1.25025903021771e+000	(1.43035896804003e+002dB,1.02276717614267e+002°)
1.25314117494141e+000	(1.43016802829009e+002dB,1.02249220914858e+002°)
1.25602996369487e+000	(1.42997704878769e+002dB,1.02221781480897e+002°)
1.25892541179416e+000	(1.42978602969919e+002dB,1.02194399216395e+002°)
1.26182753459066e+000	(1.42959497118991e+002dB,1.02167074026651e+002°)
1.26473634747115e+000	(1.42940387342500e+002dB,1.02139805815595e+002°)
1.26765186585784e+000	(1.42921273656864e+002dB,1.02112594488187e+002°)
1.27057410520854e+000	(1.42902156078472e+002dB,1.02085439948367e+002°)
1.27350308101666e+000	(1.42883034623614e+002dB,1.02058342101274e+002°)
1.27643880881134e+000	(1.42863909308553e+002dB,1.02031300850909e+002°)
1.27938130415752e+000	(1.42844780149468e+002dB,1.02004316102043e+002°)
1.28233058265602e+000	(1.42825647162488e+002dB,1.01977387759077e+002°)
1.28528665994361e+000	(1.42806510363672e+002dB,1.01950515726634e+002°)
1.28824955169313e+000	(1.42787369769036e+002dB,1.01923699908888e+002°)
1.29121927361353e+000	(1.42768225394515e+002dB,1.01896940210572e+002°)
1.29419584144998e+000	(1.42749077255991e+002dB,1.01870236536225e+002°)
1.29717927098395e+000	(1.42729925369295e+002dB,1.01843588790110e+002°)
1.30016957803328e+000	(1.42710769750185e+002dB,1.01816996876884e+002°)
1.30316677845229e+000	(1.42691610414365e+002dB,1.01790460701015e+002°)
1.30617088813183e+000	(1.42672447377474e+002dB,1.01763980167155e+002°)
1.30918192299940e+000	(1.42653280655101e+002dB,1.01737555179690e+002°)
1.31219989901920e+000	(1.42634110262764e+002dB,1.01711185643357e+002°)
1.31522483219223e+000	(1.42614936215937e+002dB,1.01684871462383e+002°)
1.31825673855640e+000	(1.42595758530023e+002dB,1.01658612541514e+002°)
1.32129563418657e+000	(1.42576577220362e+002dB,1.01632408785479e+002°)
1.32434153519466e+000	(1.42557392302250e+002dB,1.01606260098707e+002°)
1.32739445772973e+000	(1.42538203790908e+002dB,1.01580166386025e+002°)
1.33045441797808e+000	(1.42519011701520e+002dB,1.01554127551717e+002°)
1.33352143216332e+000	(1.42499816049195e+002dB,1.01528143500547e+002°)
1.33659551654643e+000	(1.42480616848981e+002dB,1.01502214137434e+002°)
1.33967668742593e+000	(1.42461414115888e+002dB,1.01476339366679e+002°)
1.34276496113786e+000	(1.42442207864839e+002dB,1.01450519093507e+002°)
1.34586035405594e+000	(1.42422998110727e+002dB,1.01424753222333e+002°)
1.34896288259164e+000	(1.42403784868384e+002dB,1.01399041657687e+002°)
1.35207256319427e+000	(1.42384568152558e+002dB,1.01373384304983e+002°)
1.35518941235103e+000	(1.42365347977976e+002dB,1.01347781068508e+002°)
1.35831344658715e+000	(1.42346124359286e+002dB,1.01322231853311e+002°)
1.36144468246594e+000	(1.42326897311086e+002dB,1.01296736564241e+002°)
1.36458313658892e+000	(1.42307666847917e+002dB,1.01271295106190e+002°)
1.36772882559584e+000	(1.42288432984263e+002dB,1.01245907384093e+002°)
1.37088176616484e+000	(1.42269195734552e+002dB,1.01220573302928e+002°)
1.37404197501251e+000	(1.42249955113160e+002dB,1.01195292767561e+002°)
1.37720946889394e+000	(1.42230711134388e+002dB,1.01170065683574e+002°)
1.38038426460288e+000	(1.42211463812521e+002dB,1.01144891955216e+002°)
1.38356637897177e+000	(1.42192213161746e+002dB,1.01119771488204e+002°)
1.38675582887188e+000	(1.42172959196224e+002dB,1.01094704187281e+002°)
1.38995263121334e+000	(1.42153701930041e+002dB,1.01069689957944e+002°)
1.39315680294529e+000	(1.42134441377245e+002dB,1.01044728705158e+002°)
1.39636836105593e+000	(1.42115177551814e+002dB,1.01019820334444e+002°)
1.39958732257261e+000	(1.42095910467684e+002dB,1.00994964750833e+002°)
1.40281370456195e+000	(1.42076640138728e+002dB,1.00970161859876e+002°)
1.40604752412990e+000	(1.42057366578771e+002dB,1.00945411566753e+002°)
1.40928879842186e+000	(1.42038089801583e+002dB,1.00920713776893e+002°)
1.41253754462274e+000	(1.42018809820868e+002dB,1.00896068396053e+002°)
1.41579377995707e+000	(1.41999526650297e+002dB,1.00871475329392e+002°)
1.41905752168908e+000	(1.41980240303472e+002dB,1.00846934482628e+002°)
1.42232878712281e+000	(1.41960950793943e+002dB,1.00822445761462e+002°)
1.42560759360218e+000	(1.41941658135212e+002dB,1.00798009071502e+002°)
1.42889395851109e+000	(1.41922362340728e+002dB,1.00773624318342e+002°)
1.43218789927353e+000	(1.41903063423886e+002dB,1.00749291407716e+002°)
1.43548943335364e+000	(1.41883761398023e+002dB,1.00725010245572e+002°)
1.43879857825583e+000	(1.41864456276432e+002dB,1.00700780737580e+002°)
1.44211535152486e+000	(1.41845148072341e+002dB,1.00676602789971e+002°)
1.44543977074592e+000	(1.41825836798940e+002dB,1.00652476308470e+002°)
1.44877185354475e+000	(1.41806522469369e+002dB,1.00628401198836e+002°)
1.45211161758773e+000	(1.41787205096692e+002dB,1.00604377367648e+002°)
1.45545908058195e+000	(1.41767884693947e+002dB,1.00580404720687e+002°)
1.45881426027534e+000	(1.41748561274102e+002dB,1.00556483164443e+002°)
1.46217717445671e+000	(1.41729234850093e+002dB,1.00532612604801e+002°)
1.46554784095590e+000	(1.41709905434785e+002dB,1.00508792948356e+002°)
1.46892627764385e+000	(1.41690573041014e+002dB,1.00485024100988e+002°)
1.47231250243271e+000	(1.41671237681536e+002dB,1.00461305969696e+002°)
1.47570653327588e+000	(1.41651899369080e+002dB,1.00437638460657e+002°)
1.47910838816819e+000	(1.41632558116315e+002dB,1.00414021480459e+002°)
1.48251808514594e+000	(1.41613213935857e+002dB,1.00390454935875e+002°)
1.48593564228699e+000	(1.41593866840285e+002dB,1.00366938733200e+002°)
1.48936107771090e+000	(1.41574516842115e+002dB,1.00343472779362e+002°)
1.49279440957898e+000	(1.41555163953820e+002dB,1.00320056980995e+002°)
1.49623565609442e+000	(1.41535808187813e+002dB,1.00296691245219e+002°)
1.49968483550236e+000	(1.41516449556468e+002dB,1.00273375478826e+002°)
1.50314196609001e+000	(1.41497088072107e+002dB,1.00250109588765e+002°)
1.50660706618673e+000	(1.41477723746998e+002dB,1.00226893482281e+002°)
1.51008015416413e+000	(1.41458356593372e+002dB,1.00203727066123e+002°)
1.51356124843619e+000	(1.41438986623394e+002dB,1.00180610247880e+002°)
1.51705036745932e+000	(1.41419613849202e+002dB,1.00157542934287e+002°)
1.52054752973248e+000	(1.41400238282853e+002dB,1.00134525033388e+002°)
1.52405275379728e+000	(1.41380859936392e+002dB,1.00111556452014e+002°)
1.52756605823806e+000	(1.41361478821787e+002dB,1.00088637098017e+002°)
1.53108746168202e+000	(1.41342094950974e+002dB,1.00065766878760e+002°)
1.53461698279928e+000	(1.41322708335846e+002dB,1.00042945701588e+002°)
1.53815464030302e+000	(1.41303318988231e+002dB,1.00020173474466e+002°)
1.54170045294954e+000	(1.41283926919912e+002dB,9.99974501053076e+001°)
1.54525443953840e+000	(1.41264532142632e+002dB,9.99747755018620e+001°)
1.54881661891247e+000	(1.41245134668088e+002dB,9.99521495720054e+001°)
1.55238700995807e+000	(1.41225734507932e+002dB,9.99295722234223e+001°)
1.55596563160506e+000	(1.41206331673750e+002dB,9.99070433646992e+001°)
1.55955250282694e+000	(1.41186926177113e+002dB,9.98845629033169e+001°)
1.56314764264094e+000	(1.41167518029505e+002dB,9.98621307483236e+001°)
1.56675107010813e+000	(1.41148107242397e+002dB,9.98397468075263e+001°)
1.57036280433354e+000	(1.41128693827202e+002dB,9.98174109893173e+001°)
1.57398286446620e+000	(1.41109277795283e+002dB,9.97951232023569e+001°)
1.57761126969933e+000	(1.41089859157968e+002dB,9.97728833548427e+001°)
1.58124803927037e+000	(1.41070437926522e+002dB,9.97506913557632e+001°)
1.58489319246110e+000	(1.41051014112183e+002dB,9.97285471135431e+001°)
1.58854674859776e+000	(1.41031587726129e+002dB,9.97064505371889e+001°)
1.59220872705115e+000	(1.41012158779498e+002dB,9.96844015354921e+001°)
1.59587914723672e+000	(1.40992727283387e+002dB,9.96624000173089e+001°)
1.59955802861465e+000	(1.40973293248838e+002dB,9.96404458918683e+001°)
1.60324539069002e+000	(1.40953856686865e+002dB,9.96185390678813e+001°)
1.60694125301286e+000	(1.40934417608413e+002dB,9.95966794550147e+001°)
1.61064563517825e+000	(1.40914976024399e+002dB,9.95748669625209e+001°)
1.61435855682647e+000	(1.40895531945700e+002dB,9.95531014993799e+001°)
1.61808003764305e+000	(1.40876085383130e+002dB,9.95313829754892e+001°)
1.62181009735891e+000	(1.40856636347480e+002dB,9.95097113000333e+001°)
1.62554875575047e+000	(1.40837184849477e+002dB,9.94880863829430e+001°)
1.62929603263970e+000	(1.40817730899819e+002dB,9.94665081338122e+001°)
1.63305194789432e+000	(1.40798274509154e+002dB,9.94449764624733e+001°)
1.63681652142779e+000	(1.40778815688088e+002dB,9.94234912787962e+001°)
1.64058977319952e+000	(1.40759354447181e+002dB,9.94020524928889e+001°)
1.64437172321491e+000	(1.40739890796954e+002dB,9.93806600146970e+001°)
1.64816239152549e+000	(1.40720424747881e+002dB,9.93593137545392e+001°)
1.65196179822900e+000	(1.40700956310395e+002dB,9.93380136226063e+001°)
1.65576996346951e+000	(1.40681485494890e+002dB,9.93167595291639e+001°)
1.65958690743754e+000	(1.40662012311711e+002dB,9.92955513847174e+001°)
1.66341265037015e+000	(1.40642536771161e+002dB,9.92743890999130e+001°)
1.66724721255104e+000	(1.40623058883502e+002dB,9.92532725853719e+001°)
1.67109061431069e+000	(1.40603578658964e+002dB,9.92322017514962e+001°)
1.67494287602642e+000	(1.40584096107711e+002dB,9.92111765096852e+001°)
1.67880401812254e+000	(1.40564611239893e+002dB,9.91901967703305e+001°)
1.68267406107045e+000	(1.40545124065598e+002dB,9.91692624446893e+001°)
1.68655302538872e+000	(1.40525634594879e+002dB,9.91483734438670e+001°)
1.69044093164324e+000	(1.40506142837747e+002dB,9.91275296791779e+001°)
1.69433780044731e+000	(1.40486648804179e+002dB,9.91067310616251e+001°)
1.69824365246172e+000	(1.40467152504099e+002dB,9.90859775028118e+001°)
1.70215850839493e+000	(1.40447653947400e+002dB,9.90652689140973e+001°)
1.70608238900310e+000	(1.40428153143923e+002dB,9.90446052073415e+001°)
1.71001531509027e+000	(1.40408650103482e+002dB,9.90239862939368e+001°)
1.71395730750840e+000	(1.40389144835839e+002dB,9.90034120858736e+001°)
1.71790838715757e+000	(1.40369637350723e+002dB,9.89828824949346e+001°)
1.72186857498599e+000	(1.40350127657820e+002dB,9.89623974330506e+001°)
1.72583789199018e+000	(1.40330615766772e+002dB,9.89419568125228e+001°)
1.72981635921508e+000	(1.40311101687189e+002dB,9.89215605453532e+001°)
1.73380399775412e+000	(1.40291585428637e+002dB,9.89012085438518e+001°)
1.73780082874935e+000	(1.40272067000641e+002dB,9.88809007204451e+001°)
1.74180687339159e+000	(1.40252546412686e+002dB,9.88606369877078e+001°)
1.74582215292048e+000	(1.40233023674225e+002dB,9.88404172580163e+001°)
1.74984668862464e+000	(1.40213498794664e+002dB,9.88202414441809e+001°)
1.75388050184174e+000	(1.40193971783366e+002dB,9.88001094591924e+001°)
1.75792361395867e+000	(1.40174442649672e+002dB,9.87800212155630e+001°)
1.76197604641161e+000	(1.40154911402866e+002dB,9.87599766266153e+001°)
1.76603782068614e+000	(1.40135378052208e+002dB,9.87399756051334e+001°)
1.77010895831740e+000	(1.40115842606904e+002dB,9.87200180647088e+001°)
1.77418948089014e+000	(1.40096305076132e+002dB,9.87001039185219e+001°)
1.77827941003890e+000	(1.40076765469036e+002dB,9.86802330797823e+001°)
1.78237876744807e+000	(1.40057223794708e+002dB,9.86604054623164e+001°)
1.78648757485203e+000	(1.40037680062218e+002dB,9.86406209794530e+001°)
1.79060585403527e+000	(1.40018134280582e+002dB,9.86208795451682e+001°)
1.79473362683250e+000	(1.39998586458791e+002dB,9.86011810731896e+001°)
1.79887091512876e+000	(1.39979036605794e+002dB,9.85815254774601e+001°)
1.80301774085955e+000	(1.39959484730502e+002dB,9.85619126719538e+001°)
1.80717412601090e+000	(1.39939930841786e+002dB,9.85423425711042e+001°)
1.81134009261958e+000	(1.39920374948487e+002dB,9.85228150888876e+001°)
1.81551566277311e+000	(1.39900817059402e+002dB,9.85033301398926e+001°)
1.81970085860996e+000	(1.39881257183299e+002dB,9.84838876383755e+001°)
1.82389570231961e+000	(1.39861695328902e+002dB,9.84644874990822e+001°)
1.82810021614272e+000	(1.39842131504897e+002dB,9.84451296367911e+001°)
1.83231442237119e+000	(1.39822565719945e+002dB,9.84258139660445e+001°)
1.83653834334832e+000	(1.39802997982661e+002dB,9.84065404019025e+001°)
1.84077200146893e+000	(1.39783428301626e+002dB,9.83873088593702e+001°)
1.84501541917945e+000	(1.39763856685384e+002dB,9.83681192536088e+001°)
1.84926861897805e+000	(1.39744283142442e+002dB,9.83489714999654e+001°)
1.85353162341479e+000	(1.39724707681281e+002dB,9.83298655135261e+001°)
1.85780445509167e+000	(1.39705130310332e+002dB,9.83108012100412e+001°)
1.86208713666284e+000	(1.39685551038002e+002dB,9.82917785048818e+001°)
1.86637969083464e+000	(1.39665969872659e+002dB,9.82727973136962e+001°)
1.87068214036577e+000	(1.39646386822630e+002dB,9.82538575525272e+001°)
1.87499450806739e+000	(1.39626801896216e+002dB,9.82349591370720e+001°)
1.87931681680324e+000	(1.39607215101680e+002dB,9.82161019833347e+001°)
1.88364908948977e+000	(1.39587626447246e+002dB,9.81972860076243e+001°)
1.88799134909627e+000	(1.39568035941108e+002dB,9.81785111260265e+001°)
1.89234361864495e+000	(1.39548443591425e+002dB,9.81597772549620e+001°)
1.89670592121112e+000	(1.39528849406321e+002dB,9.81410843107766e+001°)
1.90107827992327e+000	(1.39509253393883e+002dB,9.81224322102380e+001°)
1.90546071796322e+000	(1.39489655562170e+002dB,9.81038208698654e+001°)
