Freq.	V(n002)
1.00000000000000e+001	(-4.41170527797131e+001dB,-9.00000457196802e+001°)
1.02329299228075e+001	(-4.39170527777152e+001dB,-9.00000467846283e+001°)
1.04712854805090e+001	(-4.37170527756230e+001dB,-9.00000478743823e+001°)
1.07151930523761e+001	(-4.35170527734323e+001dB,-9.00000489895199e+001°)
1.09647819614319e+001	(-4.33170527711383e+001dB,-9.00000501306324e+001°)
1.12201845430196e+001	(-4.31170527687363e+001dB,-9.00000512983249e+001°)
1.14815362149688e+001	(-4.29170527662210e+001dB,-9.00000524932164e+001°)
1.17489755493953e+001	(-4.27170527635871e+001dB,-9.00000537159405e+001°)
1.20226443461741e+001	(-4.25170527608292e+001dB,-9.00000549671454e+001°)
1.23026877081238e+001	(-4.23170527579412e+001dB,-9.00000562474947e+001°)
1.25892541179417e+001	(-4.21170527549172e+001dB,-9.00000575576672e+001°)
1.28824955169313e+001	(-4.19170527517506e+001dB,-9.00000588983575e+001°)
1.31825673855641e+001	(-4.17170527484348e+001dB,-9.00000602702765e+001°)
1.34896288259165e+001	(-4.15170527449628e+001dB,-9.00000616741516e+001°)
1.38038426460288e+001	(-4.13170527413271e+001dB,-9.00000631107271e+001°)
1.41253754462275e+001	(-4.11170527375200e+001dB,-9.00000645807648e+001°)
1.44543977074593e+001	(-4.09170527335336e+001dB,-9.00000660850440e+001°)
1.47910838816821e+001	(-4.07170527293592e+001dB,-9.00000676243624e+001°)
1.51356124843621e+001	(-4.05170527249881e+001dB,-9.00000691995362e+001°)
1.54881661891248e+001	(-4.03170527204111e+001dB,-9.00000708114005e+001°)
1.58489319246111e+001	(-4.01170527156183e+001dB,-9.00000724608099e+001°)
1.62181009735893e+001	(-3.99170527105996e+001dB,-9.00000741486390e+001°)
1.65958690743756e+001	(-3.97170527053444e+001dB,-9.00000758757826e+001°)
1.69824365246174e+001	(-3.95170526998416e+001dB,-9.00000776431567e+001°)
1.73780082874937e+001	(-3.93170526940794e+001dB,-9.00000794516981e+001°)
1.77827941003892e+001	(-3.91170526880456e+001dB,-9.00000813023659e+001°)
1.81970085860998e+001	(-3.89170526817275e+001dB,-9.00000831961413e+001°)
1.86208713666287e+001	(-3.87170526751116e+001dB,-9.00000851340284e+001°)
1.90546071796325e+001	(-3.85170526681839e+001dB,-9.00000871170546e+001°)
1.94984459975804e+001	(-3.83170526609298e+001dB,-9.00000891462715e+001°)
1.99526231496888e+001	(-3.81170526533337e+001dB,-9.00000912227549e+001°)
2.04173794466953e+001	(-3.79170526453797e+001dB,-9.00000933476059e+001°)
2.08929613085404e+001	(-3.77170526370507e+001dB,-9.00000955219509e+001°)
2.13796208950223e+001	(-3.75170526283293e+001dB,-9.00000977469430e+001°)
2.18776162394955e+001	(-3.73170526191968e+001dB,-9.00001000237618e+001°)
2.23872113856834e+001	(-3.71170526096340e+001dB,-9.00001023536145e+001°)
2.29086765276777e+001	(-3.69170525996204e+001dB,-9.00001047377365e+001°)
2.34422881531992e+001	(-3.67170525891350e+001dB,-9.00001071773917e+001°)
2.39883291901949e+001	(-3.65170525781553e+001dB,-9.00001096738739e+001°)
2.45470891568503e+001	(-3.63170525666582e+001dB,-9.00001122285066e+001°)
2.51188643150958e+001	(-3.61170525546193e+001dB,-9.00001148426443e+001°)
2.57039578276886e+001	(-3.59170525420130e+001dB,-9.00001175176732e+001°)
2.63026799189538e+001	(-3.57170525288126e+001dB,-9.00001202550114e+001°)
2.69153480392691e+001	(-3.55170525149900e+001dB,-9.00001230561105e+001°)
2.75422870333816e+001	(-3.53170525005160e+001dB,-9.00001259224555e+001°)
2.81838293126445e+001	(-3.51170524853599e+001dB,-9.00001288555663e+001°)
2.88403150312660e+001	(-3.49170524694895e+001dB,-9.00001318569980e+001°)
2.95120922666638e+001	(-3.47170524528711e+001dB,-9.00001349283421e+001°)
3.01995172040201e+001	(-3.45170524354696e+001dB,-9.00001380712269e+001°)
3.09029543251359e+001	(-3.43170524172479e+001dB,-9.00001412873189e+001°)
3.16227766016838e+001	(-3.41170523981675e+001dB,-9.00001445783234e+001°)
3.23593656929628e+001	(-3.39170523781878e+001dB,-9.00001479459852e+001°)
3.31131121482591e+001	(-3.37170523572666e+001dB,-9.00001513920898e+001°)
3.38844156139202e+001	(-3.35170523353593e+001dB,-9.00001549184646e+001°)
3.46736850452531e+001	(-3.33170523124196e+001dB,-9.00001585269792e+001°)
3.54813389233575e+001	(-3.31170522883988e+001dB,-9.00001622195470e+001°)
3.63078054770101e+001	(-3.29170522632459e+001dB,-9.00001659981256e+001°)
3.71535229097172e+001	(-3.27170522369075e+001dB,-9.00001698647187e+001°)
3.80189396320561e+001	(-3.25170522093279e+001dB,-9.00001738213763e+001°)
3.89045144994280e+001	(-3.23170521804485e+001dB,-9.00001778701963e+001°)
3.98107170553497e+001	(-3.21170521502081e+001dB,-9.00001820133254e+001°)
4.07380277804112e+001	(-3.19170521185425e+001dB,-9.00001862529604e+001°)
4.16869383470335e+001	(-3.17170520853845e+001dB,-9.00001905913492e+001°)
4.26579518801592e+001	(-3.15170520506638e+001dB,-9.00001950307921e+001°)
4.36515832240165e+001	(-3.13170520143068e+001dB,-9.00001995736428e+001°)
4.46683592150962e+001	(-3.11170519762364e+001dB,-9.00002042223101e+001°)
4.57088189614874e+001	(-3.09170519363717e+001dB,-9.00002089792589e+001°)
4.67735141287197e+001	(-3.07170518946283e+001dB,-9.00002138470111e+001°)
4.78630092322638e+001	(-3.05170518509176e+001dB,-9.00002188281480e+001°)
4.89778819368445e+001	(-3.03170518051468e+001dB,-9.00002239253103e+001°)
5.01187233627271e+001	(-3.01170517572189e+001dB,-9.00002291412009e+001°)
5.12861383991364e+001	(-2.99170517070323e+001dB,-9.00002344785851e+001°)
5.24807460249772e+001	(-2.97170516544804e+001dB,-9.00002399402931e+001°)
5.37031796370252e+001	(-2.95170515994519e+001dB,-9.00002455292205e+001°)
5.49540873857624e+001	(-2.93170515418299e+001dB,-9.00002512483308e+001°)
5.62341325190348e+001	(-2.91170514814923e+001dB,-9.00002571006562e+001°)
5.75439937337156e+001	(-2.89170514183111e+001dB,-9.00002630892999e+001°)
5.88843655355588e+001	(-2.87170513521522e+001dB,-9.00002692174370e+001°)
6.02559586074357e+001	(-2.85170512828754e+001dB,-9.00002754883167e+001°)
6.16595001861481e+001	(-2.83170512103336e+001dB,-9.00002819052640e+001°)
6.30957344480192e+001	(-2.81170511343730e+001dB,-9.00002884716812e+001°)
6.45654229034654e+001	(-2.79170510548326e+001dB,-9.00002951910499e+001°)
6.60693448007595e+001	(-2.77170509715435e+001dB,-9.00003020669328e+001°)
6.76082975391980e+001	(-2.75170508843291e+001dB,-9.00003091029756e+001°)
6.91830970918935e+001	(-2.73170507930044e+001dB,-9.00003163029089e+001°)
7.07945784384136e+001	(-2.71170506973758e+001dB,-9.00003236705502e+001°)
7.24435960074988e+001	(-2.69170505972402e+001dB,-9.00003312098059e+001°)
7.41310241300916e+001	(-2.67170504923855e+001dB,-9.00003389246735e+001°)
7.58577575029182e+001	(-2.65170503825891e+001dB,-9.00003468192434e+001°)
7.76247116628690e+001	(-2.63170502676181e+001dB,-9.00003548977014e+001°)
7.94328234724279e+001	(-2.61170501472287e+001dB,-9.00003631643310e+001°)
8.12830516164097e+001	(-2.59170500211656e+001dB,-9.00003716235151e+001°)
8.31763771102669e+001	(-2.57170498891613e+001dB,-9.00003802797389e+001°)
8.51138038202374e+001	(-2.55170497509357e+001dB,-9.00003891375920e+001°)
8.70963589956078e+001	(-2.53170496061959e+001dB,-9.00003982017711e+001°)
8.91250938133743e+001	(-2.51170494546346e+001dB,-9.00004074770821e+001°)
9.12010839355907e+001	(-2.49170492959305e+001dB,-9.00004169684428e+001°)
9.33254300796988e+001	(-2.47170491297469e+001dB,-9.00004266808857e+001°)
9.54992586021433e+001	(-2.45170489557313e+001dB,-9.00004366195605e+001°)
9.77237220955808e+001	(-2.43170487735145e+001dB,-9.00004467897367e+001°)
9.99999999999997e+001	(-2.41170485827102e+001dB,-9.00004571968069e+001°)
1.02329299228075e+002	(-2.39170483829135e+001dB,-9.00004678462888e+001°)
1.04712854805090e+002	(-2.37170481737007e+001dB,-9.00004787438291e+001°)
1.07151930523760e+002	(-2.35170479546280e+001dB,-9.00004898952057e+001°)
1.09647819614318e+002	(-2.33170477252307e+001dB,-9.00005013063312e+001°)
1.12201845430196e+002	(-2.31170474850223e+001dB,-9.00005129832561e+001°)
1.14815362149688e+002	(-2.29170472334931e+001dB,-9.00005249321714e+001°)
1.17489755493953e+002	(-2.27170469701098e+001dB,-9.00005371594128e+001°)
1.20226443461741e+002	(-2.25170466943135e+001dB,-9.00005496714633e+001°)
1.23026877081238e+002	(-2.23170464055194e+001dB,-9.00005624749569e+001°)
1.25892541179416e+002	(-2.21170461031148e+001dB,-9.00005755766822e+001°)
1.28824955169313e+002	(-2.19170457864584e+001dB,-9.00005889835859e+001°)
1.31825673855640e+002	(-2.17170454548783e+001dB,-9.00006027027766e+001°)
1.34896288259165e+002	(-2.15170451076714e+001dB,-9.00006167415283e+001°)
1.38038426460288e+002	(-2.13170447441010e+001dB,-9.00006311072846e+001°)
1.41253754462275e+002	(-2.11170443633962e+001dB,-9.00006458076623e+001°)
1.44543977074592e+002	(-2.09170439647492e+001dB,-9.00006608504559e+001°)
1.47910838816820e+002	(-2.07170435473146e+001dB,-9.00006762436413e+001°)
1.51356124843620e+002	(-2.05170431102068e+001dB,-9.00006919953800e+001°)
1.54881661891248e+002	(-2.03170426524988e+001dB,-9.00007081140239e+001°)
1.58489319246111e+002	(-2.01170421732196e+001dB,-9.00007246081193e+001°)
1.62181009735892e+002	(-1.99170416713527e+001dB,-9.00007414864117e+001°)
1.65958690743755e+002	(-1.97170411458335e+001dB,-9.00007587578500e+001°)
1.69824365246174e+002	(-1.95170405955472e+001dB,-9.00007764315919e+001°)
1.73780082874937e+002	(-1.93170400193268e+001dB,-9.00007945170082e+001°)
1.77827941003892e+002	(-1.91170394159499e+001dB,-9.00008130236881e+001°)
1.81970085860998e+002	(-1.89170387841367e+001dB,-9.00008319614440e+001°)
1.86208713666286e+002	(-1.87170381225469e+001dB,-9.00008513403170e+001°)
1.90546071796324e+002	(-1.85170374297774e+001dB,-9.00008711705821e+001°)
1.94984459975804e+002	(-1.83170367043586e+001dB,-9.00008914627535e+001°)
1.99526231496887e+002	(-1.81170359447517e+001dB,-9.00009122275904e+001°)
2.04173794466952e+002	(-1.79170351493457e+001dB,-9.00009334761026e+001°)
2.08929613085403e+002	(-1.77170343164532e+001dB,-9.00009552195564e+001°)
2.13796208950222e+002	(-1.75170334443076e+001dB,-9.00009774694804e+001°)
2.18776162394954e+002	(-1.73170325310590e+001dB,-9.00010002376720e+001°)
2.23872113856833e+002	(-1.71170315747702e+001dB,-9.00010235362030e+001°)
2.29086765276776e+002	(-1.69170305734128e+001dB,-9.00010473774267e+001°)
2.34422881531991e+002	(-1.67170295248627e+001dB,-9.00010717739841e+001°)
2.39883291901948e+002	(-1.65170284268959e+001dB,-9.00010967388104e+001°)
2.45470891568502e+002	(-1.63170272771833e+001dB,-9.00011222851426e+001°)
2.51188643150957e+002	(-1.61170260732863e+001dB,-9.00011484265255e+001°)
2.57039578276885e+002	(-1.59170248126512e+001dB,-9.00011751768197e+001°)
2.63026799189537e+002	(-1.57170234926039e+001dB,-9.00012025502085e+001°)
2.69153480392690e+002	(-1.55170221103446e+001dB,-9.00012305612058e+001°)
2.75422870333816e+002	(-1.53170206629412e+001dB,-9.00012592246634e+001°)
2.81838293126444e+002	(-1.51170191473234e+001dB,-9.00012885557791e+001°)
2.88403150312659e+002	(-1.49170175602765e+001dB,-9.00013185701045e+001°)
2.95120922666637e+002	(-1.47170158984341e+001dB,-9.00013492835539e+001°)
3.01995172040200e+002	(-1.45170141582712e+001dB,-9.00013807124117e+001°)
3.09029543251358e+002	(-1.43170123360964e+001dB,-9.00014128733422e+001°)
3.16227766016837e+002	(-1.41170104280449e+001dB,-9.00014457833976e+001°)
3.23593656929627e+002	(-1.39170084300692e+001dB,-9.00014794600271e+001°)
3.31131121482590e+002	(-1.37170063379313e+001dB,-9.00015139210866e+001°)
3.38844156139201e+002	(-1.35170041471935e+001dB,-9.00015491848479e+001°)
3.46736850452530e+002	(-1.33170018532087e+001dB,-9.00015852700084e+001°)
3.54813389233574e+002	(-1.31169994511112e+001dB,-9.00016221957010e+001°)
3.63078054770100e+002	(-1.29169969358055e+001dB,-9.00016599815043e+001°)
3.71535229097171e+002	(-1.27169943019564e+001dB,-9.00016986474527e+001°)
3.80189396320559e+002	(-1.25169915439769e+001dB,-9.00017382140476e+001°)
3.89045144994279e+002	(-1.23169886560169e+001dB,-9.00017787022679e+001°)
3.98107170553495e+002	(-1.21169856319506e+001dB,-9.00018201335810e+001°)
4.07380277804111e+002	(-1.19169824653632e+001dB,-9.00018625299543e+001°)
4.16869383470333e+002	(-1.17169791495380e+001dB,-9.00019059138672e+001°)
4.26579518801591e+002	(-1.15169756774414e+001dB,-9.00019503083225e+001°)
4.36515832240164e+002	(-1.13169720417084e+001dB,-9.00019957368588e+001°)
4.46683592150961e+002	(-1.11169682346269e+001dB,-9.00020422235630e+001°)
4.57088189614873e+002	(-1.09169642481215e+001dB,-9.00020897930832e+001°)
4.67735141287196e+002	(-1.07169600737358e+001dB,-9.00021384706415e+001°)
4.78630092322636e+002	(-1.05169557026153e+001dB,-9.00021882820475e+001°)
4.89778819368444e+002	(-1.03169511254879e+001dB,-9.00022392537119e+001°)
5.01187233627270e+002	(-1.01169463326445e+001dB,-9.00022914126610e+001°)
5.12861383991362e+002	(-9.91694131391852e+000dB,-9.00023447865502e+001°)
5.24807460249770e+002	(-9.71693605866417e+000dB,-9.00023994036793e+001°)
5.37031796370250e+002	(-9.51693055573390e+000dB,-9.00024552930071e+001°)
5.49540873857622e+002	(-9.31692479345478e+000dB,-9.00025124841673e+001°)
5.62341325190346e+002	(-9.11691875960372e+000dB,-9.00025710074835e+001°)
5.75439937337154e+002	(-8.91691244138152e+000dB,-9.00026308939858e+001°)
5.88843655355586e+002	(-8.71690582538576e+000dB,-9.00026921754272e+001°)
6.02559586074355e+002	(-8.51689889758232e+000dB,-9.00027548843002e+001°)
6.16595001861479e+002	(-8.31689164327564e+000dB,-9.00028190538541e+001°)
6.30957344480190e+002	(-8.11688404707753e+000dB,-9.00028847181129e+001°)
6.45654229034652e+002	(-7.91687609287451e+000dB,-9.00029519118930e+001°)
6.60693448007592e+002	(-7.71686776379363e+000dB,-9.00030206708219e+001°)
6.76082975391978e+002	(-7.51685904216671e+000dB,-9.00030910313568e+001°)
6.91830970918933e+002	(-7.31684990949279e+000dB,-9.00031630308043e+001°)
7.07945784384134e+002	(-7.11684034639892e+000dB,-9.00032367073400e+001°)
7.24435960074986e+002	(-6.91683033259902e+000dB,-9.00033121000286e+001°)
7.41310241300914e+002	(-6.71681984685091e+000dB,-9.00033892488450e+001°)
7.58577575029180e+002	(-6.51680886691114e+000dB,-9.00034681946949e+001°)
7.76247116628688e+002	(-6.31679736948788e+000dB,-9.00035489794374e+001°)
7.94328234724277e+002	(-6.11678533019143e+000dB,-9.00036316459060e+001°)
8.12830516164095e+002	(-5.91677272348253e+000dB,-9.00037162379326e+001°)
8.31763771102666e+002	(-5.71675952261815e+000dB,-9.00038028003695e+001°)
8.51138038202372e+002	(-5.51674569959467e+000dB,-9.00038913791144e+001°)
8.70963589956076e+002	(-5.31673122508859e+000dB,-9.00039820211337e+001°)
8.91250938133741e+002	(-5.11671606839420e+000dB,-9.00040747744880e+001°)
9.12010839355905e+002	(-4.91670019735847e+000dB,-9.00041696883573e+001°)
9.33254300796986e+002	(-4.71668357831277e+000dB,-9.00042668130674e+001°)
9.54992586021431e+002	(-4.51666617600149e+000dB,-9.00043662001164e+001°)
9.77237220955805e+002	(-4.31664795350718e+000dB,-9.00044679022018e+001°)
9.99999999999994e+002	(-4.11662887217219e+000dB,-9.00045719732488e+001°)
1.02329299228075e+003	(-3.91660889151665e+000dB,-9.00046784684388e+001°)
1.04712854805089e+003	(-3.71658796915256e+000dB,-9.00047874442384e+001°)
1.07151930523760e+003	(-3.51656606069380e+000dB,-9.00048989584299e+001°)
1.09647819614318e+003	(-3.31654311966196e+000dB,-9.00050130701412e+001°)
1.12201845430196e+003	(-3.11651909738765e+000dB,-9.00051298398780e+001°)
1.14815362149688e+003	(-2.91649394290721e+000dB,-9.00052493295552e+001°)
1.17489755493952e+003	(-2.71646760285454e+000dB,-9.00053716025300e+001°)
1.20226443461741e+003	(-2.51644002134781e+000dB,-9.00054967236355e+001°)
1.23026877081237e+003	(-2.31641113987083e+000dB,-9.00056247592153e+001°)
1.25892541179416e+003	(-2.11638089714883e+000dB,-9.00057557771582e+001°)
1.28824955169313e+003	(-1.91634922901839e+000dB,-9.00058898469347e+001°)
1.31825673855640e+003	(-1.71631606829117e+000dB,-9.00060270396334e+001°)
1.34896288259165e+003	(-1.51628134461131e+000dB,-9.00061674279993e+001°)
1.38038426460288e+003	(-1.31624498430604e+000dB,-9.00063110864716e+001°)
1.41253754462275e+003	(-1.11620691022921e+000dB,-9.00064580912239e+001°)
1.44543977074592e+003	(-9.16167041597523e-001dB,-9.00066085202042e+001°)
1.47910838816820e+003	(-7.16125293818949e-001dB,-9.00067624531765e+001°)
1.51356124843620e+003	(-5.16081578313096e-001dB,-9.00069199717628e+001°)
1.54881661891247e+003	(-3.16035802323077e-001dB,-9.00070811594868e+001°)
1.58489319246110e+003	(-1.15987868718505e-001dB,-9.00072461018179e+001°)
1.62181009735892e+003	(8.40623242107968e-002dB,-9.00074148862164e+001°)
1.65958690743755e+003	(2.84114882970903e-001dB,-9.00075876021805e+001°)
1.69824365246173e+003	(4.84169919089970e-001dB,-9.00077643412932e+001°)
1.73780082874936e+003	(6.84227549355237e-001dB,-9.00079451972712e+001°)
1.77827941003891e+003	(8.84287896061105e-001dB,-9.00081302660146e+001°)
1.81970085860997e+003	(1.08435108726904e+000dB,-9.00083196456576e+001°)
1.86208713666286e+003	(1.28441725707965e+000dB,-9.00085134366206e+001°)
1.90546071796323e+003	(1.48448654591771e+000dB,-9.00087117416639e+001°)
1.94984459975803e+003	(1.68455910083060e+000dB,-9.00089146659416e+001°)
1.99526231496887e+003	(1.88463507580086e+000dB,-9.00091223170578e+001°)
2.04173794466952e+003	(2.08471463207352e+000dB,-9.00093348051238e+001°)
2.08929613085403e+003	(2.28479793849889e+000dB,-9.00095522428161e+001°)
2.13796208950222e+003	(2.48488517189161e+000dB,-9.00097747454366e+001°)
2.18776162394954e+003	(2.68497651740661e+000dB,-9.00100024309736e+001°)
2.23872113856832e+003	(2.88507216893284e+000dB,-9.00102354201646e+001°)
2.29086765276776e+003	(3.08517232950576e+000dB,-9.00104738365601e+001°)
2.34422881531991e+003	(3.28527721173914e+000dB,-9.00107178065896e+001°)
2.39883291901947e+003	(3.48538703827747e+000dB,-9.00109674596283e+001°)
2.45470891568501e+003	(3.68550204226968e+000dB,-9.00112229280659e+001°)
2.51188643150956e+003	(3.88562246786531e+000dB,-9.00114843473773e+001°)
2.57039578276885e+003	(4.08574857073418e+000dB,-9.00117518561938e+001°)
2.63026799189536e+003	(4.28588061861068e+000dB,-9.00120255963775e+001°)
2.69153480392690e+003	(4.48601889186378e+000dB,-9.00123057130961e+001°)
2.75422870333815e+003	(4.68616368409413e+000dB,-9.00125923548999e+001°)
2.81838293126443e+003	(4.88631530275939e+000dB,-9.00128856738014e+001°)
2.88403150312659e+003	(5.08647406982926e+000dB,-9.00131858253553e+001°)
2.95120922666636e+003	(5.28664032247149e+000dB,-9.00134929687417e+001°)
3.01995172040199e+003	(5.48681441377051e+000dB,-9.00138072668501e+001°)
3.09029543251357e+003	(5.68699671348007e+000dB,-9.00141288863664e+001°)
3.16227766016836e+003	(5.88718760881169e+000dB,-9.00144579978615e+001°)
3.23593656929626e+003	(6.08738750526044e+000dB,-9.00147947758816e+001°)
3.31131121482589e+003	(6.28759682747004e+000dB,-9.00151393990412e+001°)
3.38844156139200e+003	(6.48781602013894e+000dB,-9.00154920501180e+001°)
3.46736850452529e+003	(6.68804554896957e+000dB,-9.00158529161500e+001°)
3.54813389233573e+003	(6.88828590166263e+000dB,-9.00162221885353e+001°)
3.63078054770099e+003	(7.08853758895872e+000dB,-9.00166000631332e+001°)
3.71535229097170e+003	(7.28880114572954e+000dB,-9.00169867403690e+001°)
3.80189396320558e+003	(7.48907713212097e+000dB,-9.00173824253405e+001°)
3.89045144994278e+003	(7.68936613475066e+000dB,-9.00177873279266e+001°)
3.98107170553494e+003	(7.88966876796263e+000dB,-9.00182016628998e+001°)
4.07380277804110e+003	(8.08998567514172e+000dB,-9.00186256500398e+001°)
4.16869383470332e+003	(8.29031753009069e+000dB,-9.00190595142506e+001°)
4.26579518801589e+003	(8.49066503847309e+000dB,-9.00195034856808e+001°)
4.36515832240162e+003	(8.69102893932499e+000dB,-9.00199577998453e+001°)
4.46683592150960e+003	(8.89141000663895e+000dB,-9.00204226977514e+001°)
4.57088189614871e+003	(9.09180905102377e+000dB,-9.00208984260267e+001°)
4.67735141287194e+003	(9.29222692144352e+000dB,-9.00213852370511e+001°)
4.78630092322634e+003	(9.49266450704001e+000dB,-9.00218833890905e+001°)
4.89778819368442e+003	(9.69312273904246e+000dB,-9.00223931464351e+001°)
5.01187233627268e+003	(9.89360259276870e+000dB,-9.00229147795402e+001°)
5.12861383991361e+003	(1.00941050897226e+001dB,-9.00234485651702e+001°)
5.24807460249768e+003	(1.02946312997918e+001dB,-9.00239947865464e+001°)
5.37031796370248e+003	(1.04951823435519e+001dB,-9.00245537334984e+001°)
