time	V(buff)	V(n009)
5.043011898398884e-004	-6.130509e-001	-7.727924e-001
5.116254085898882e-004	-6.246712e-001	-7.259174e-001
5.186008550184595e-004	-6.285031e-001	-6.812745e-001
5.255763014470308e-004	-6.315633e-001	-6.366317e-001
5.325517478756021e-004	-6.338520e-001	-5.919888e-001
5.395271943041734e-004	-6.353690e-001	-5.473460e-001
5.465026407327446e-004	-6.361145e-001	-5.027031e-001
5.534780871613159e-004	-6.360883e-001	-4.580603e-001
5.604535335898872e-004	-6.352906e-001	-4.134174e-001
5.698703862684584e-004	-6.352938e-001	-3.531495e-001
5.792872389470296e-004	-6.353060e-001	-2.928817e-001
5.887040916256009e-004	-6.353271e-001	-2.326138e-001
5.981209443041721e-004	-6.353570e-001	-1.723460e-001
6.075377969827433e-004	-6.353959e-001	-1.120781e-001
6.169546496613145e-004	-6.354436e-001	-5.181024e-002
6.263715023398858e-004	-6.355002e-001	8.457615e-003
6.361371273398855e-004	-6.354462e-001	7.095762e-002
6.459027523398853e-004	-6.354051e-001	1.334576e-001
6.556683773398851e-004	-6.353770e-001	1.959576e-001
6.654340023398849e-004	-6.353618e-001	2.584576e-001
6.751996273398847e-004	-6.353596e-001	3.209576e-001
6.849652523398845e-004	-6.353703e-001	3.834576e-001
6.947308773398843e-004	-6.353940e-001	4.459576e-001
7.037989576970270e-004	-6.353924e-001	5.039933e-001
7.128670380541696e-004	-6.353910e-001	5.620290e-001
7.219351184113123e-004	-6.353899e-001	6.200647e-001
7.310031987684550e-004	-6.353891e-001	6.781005e-001
7.400712791255977e-004	-6.353885e-001	7.361362e-001
7.491393594827402e-004	-6.353881e-001	7.941719e-001
7.582074398398829e-004	-6.353880e-001	8.522076e-001
7.615079018866250e-004	-6.353879e-001	8.733617e-001
7.648083639333670e-004	-6.353878e-001	8.944990e-001
7.681088259801091e-004	-6.353878e-001	9.156193e-001
7.714092880268511e-004	-6.353877e-001	9.367228e-001
7.747097500735931e-004	-6.353876e-001	9.578093e-001
7.780102121203352e-004	-6.353876e-001	9.788789e-001
7.813106741670772e-004	-6.353875e-001	9.999317e-001
7.814330582027000e-004	-6.355834e-001	9.991484e-001
7.815554422383229e-004	-6.353511e-001	9.983652e-001
7.816778262739457e-004	-6.346906e-001	9.975819e-001
7.818002103095684e-004	-6.336020e-001	9.967987e-001
7.819225943451912e-004	-6.320853e-001	9.960154e-001
7.820449783808141e-004	-6.301404e-001	9.952322e-001
7.821673624164369e-004	-6.277674e-001	9.944489e-001
7.824385570749584e-004	-6.194466e-001	9.927132e-001
7.827746188275547e-004	-6.044481e-001	9.905624e-001
7.832141497117049e-004	-5.777500e-001	9.877495e-001
7.838268281430809e-004	-5.307861e-001	9.838283e-001
7.847064015084747e-004	-4.531941e-001	9.781990e-001
7.855344543886630e-004	-3.762231e-001	9.728995e-001
7.865033293687688e-004	-2.875957e-001	9.666987e-001
7.874514312455550e-004	-2.066183e-001	9.606308e-001
7.886267572484181e-004	-1.143694e-001	9.531087e-001
7.895419599891753e-004	-4.744969e-002	9.472514e-001
7.906615484315202e-004	2.903008e-002	9.400861e-001
7.910977471982988e-004	5.532163e-002	9.372944e-001
7.914074687440101e-004	7.169466e-002	9.353122e-001
7.917128053437250e-004	8.716963e-002	9.333580e-001
7.920181419434398e-004	1.025416e-001	9.314039e-001
7.923234785431546e-004	1.178107e-001	9.294497e-001
7.926288151428693e-004	1.329767e-001	9.274956e-001
7.929341517425841e-004	1.480398e-001	9.255414e-001
7.932394883422989e-004	1.630000e-001	9.235873e-001
7.935448249420138e-004	1.778571e-001	9.216331e-001
7.942937708217756e-004	2.117094e-001	9.168398e-001
7.952779888684095e-004	2.516861e-001	9.105409e-001
7.963250410106783e-004	2.893345e-001	9.038398e-001
7.970994065517007e-004	3.144963e-001	8.988838e-001
7.981676839503367e-004	3.460023e-001	8.920468e-001
7.996880093113117e-004	3.852706e-001	8.823168e-001
8.018971080271874e-004	4.332822e-001	8.681785e-001
8.043385142771874e-004	4.763348e-001	8.525535e-001
8.067799205271873e-004	5.103122e-001	8.369285e-001
8.092213267771873e-004	5.369154e-001	8.213035e-001
8.116627330271872e-004	5.577421e-001	8.056785e-001
8.141041392771872e-004	5.740449e-001	7.900535e-001
8.165455455271871e-004	5.868053e-001	7.744285e-001
8.214283580271870e-004	6.046100e-001	7.431785e-001
8.287525767771869e-004	6.192647e-001	6.963035e-001
8.339841615986153e-004	6.235637e-001	6.628213e-001
8.392157464200438e-004	6.270560e-001	6.293392e-001
8.444473312414722e-004	6.297416e-001	5.958571e-001
8.496789160629008e-004	6.316206e-001	5.623749e-001
8.549105008843292e-004	6.326929e-001	5.288928e-001
8.601420857057576e-004	6.329585e-001	4.954106e-001
8.653736705271861e-004	6.324174e-001	4.619285e-001
8.789757910629001e-004	6.325738e-001	3.748749e-001
8.925779115986141e-004	6.326901e-001	2.878214e-001
9.061800321343281e-004	6.327665e-001	2.007678e-001
9.197821526700420e-004	6.328029e-001	1.137142e-001
9.333842732057561e-004	6.327993e-001	2.666064e-002
9.469863937414701e-004	6.327558e-001	-6.039293e-002
9.605885142771841e-004	6.326723e-001	-1.474465e-001
9.787246749914695e-004	6.327124e-001	-2.635179e-001
9.968608357057546e-004	6.327429e-001	-3.795894e-001
1.014996996420040e-003	6.327639e-001	-4.956608e-001
1.033133157134325e-003	6.327755e-001	-6.117322e-001
1.051269317848611e-003	6.327775e-001	-7.278037e-001
1.069405478562896e-003	6.327700e-001	-8.438751e-001
1.087541639277181e-003	6.327530e-001	-9.599465e-001
1.093805388241011e-003	6.327528e-001	-9.999655e-001
1.093899066695112e-003	6.328525e-001	-9.993660e-001
1.093992745149214e-003	6.327500e-001	-9.987665e-001
1.094086423603316e-003	6.324453e-001	-9.981669e-001
1.094180102057417e-003	6.319385e-001	-9.975674e-001
1.094273780511519e-003	6.312295e-001	-9.969678e-001
1.094367458965621e-003	6.303184e-001	-9.963683e-001
1.094461137419723e-003	6.292050e-001	-9.957687e-001
1.094678791058590e-003	6.248322e-001	-9.943758e-001
1.094957459370632e-003	6.160868e-001	-9.925923e-001
1.095298162995072e-003	6.005552e-001	-9.904118e-001
1.095749808397820e-003	5.726118e-001	-9.875212e-001
1.096378784270433e-003	5.238557e-001	-9.834958e-001
1.097221052823700e-003	4.491660e-001	-9.781052e-001
1.098041040108554e-003	3.728103e-001	-9.728574e-001
1.099004036223544e-003	2.847622e-001	-9.666942e-001
1.099963252883503e-003	2.030647e-001	-9.605552e-001
1.101230249510960e-003	1.038167e-001	-9.524464e-001
1.102062136916504e-003	4.210072e-002	-9.471223e-001
1.102600038497516e-003	3.535846e-003	-9.436797e-001
1.102921778437667e-003	-1.830235e-002	-9.416206e-001
1.103091028671693e-003	-2.894350e-002	-9.405374e-001
1.103220001286851e-003	-3.658666e-002	-9.397120e-001
1.103343595948201e-003	-4.362597e-002	-9.389210e-001
1.103605133264775e-003	-5.786002e-002	-9.372472e-001
1.103928501414720e-003	-7.460433e-002	-9.351776e-001
1.104251869564666e-003	-9.118302e-002	-9.331080e-001
1.104575237714611e-003	-1.075961e-001	-9.310385e-001
1.104898605864556e-003	-1.238436e-001	-9.289689e-001
1.105221974014502e-003	-1.399254e-001	-9.268994e-001
1.105545342164448e-003	-1.558416e-001	-9.248298e-001
1.105868710314393e-003	-1.715923e-001	-9.227602e-001
1.106644685182726e-003	-2.069855e-001	-9.177940e-001
1.107572814345873e-003	-2.453878e-001	-9.118540e-001
1.108684732248835e-003	-2.860398e-001	-9.047377e-001
1.110217432566721e-003	-3.346560e-001	-8.949285e-001
1.112066802464010e-003	-3.847720e-001	-8.830925e-001
1.113985057625483e-003	-4.279204e-001	-8.708156e-001
1.116426463875483e-003	-4.723796e-001	-8.551906e-001
1.118867870125483e-003	-5.077820e-001	-8.395656e-001
1.121309276375483e-003	-5.355026e-001	-8.239406e-001
1.123750682625483e-003	-5.572033e-001	-8.083156e-001
1.126192088875483e-003	-5.741904e-001	-7.926906e-001
1.131074901375483e-003	-5.978938e-001	-7.614406e-001
1.135957713875483e-003	-6.124145e-001	-7.301906e-001
1.143281932625482e-003	-6.243660e-001	-6.833156e-001
1.149908606732625e-003	-6.282355e-001	-6.409049e-001
1.156535280839768e-003	-6.313341e-001	-5.984942e-001
1.163161954946911e-003	-6.336619e-001	-5.560835e-001
1.169788629054053e-003	-6.352189e-001	-5.136728e-001
1.176415303161196e-003	-6.360051e-001	-4.712621e-001
1.183041977268339e-003	-6.360205e-001	-4.288513e-001
1.189668651375481e-003	-6.352650e-001	-3.864406e-001
1.220616756509075e-003	-6.353184e-001	-1.883615e-001
1.251564861642669e-003	-6.353599e-001	9.710597e-003
1.282512966776262e-003	-6.353893e-001	2.077757e-001
1.313461071909856e-003	-6.354068e-001	4.058337e-001
1.344409177043450e-003	-6.354124e-001	6.038847e-001
1.375357282177043e-003	-6.354059e-001	8.019286e-001
1.406305387310637e-003	-6.353875e-001	9.999655e-001
1.406423792579785e-003	-6.355749e-001	9.992078e-001
1.406542197848934e-003	-6.353742e-001	9.984500e-001
1.406660603118083e-003	-6.347854e-001	9.976922e-001
1.406779008387232e-003	-6.338086e-001	9.969344e-001
1.406897413656380e-003	-6.324438e-001	9.961766e-001
1.407015818925529e-003	-6.306910e-001	9.954188e-001
1.407134224194678e-003	-6.285501e-001	9.946610e-001
1.407370913996427e-003	-6.218401e-001	9.931461e-001
1.407718381360640e-003	-6.073073e-001	9.909223e-001
1.408109771318595e-003	-5.847564e-001	9.884174e-001
1.408710708933775e-003	-5.400063e-001	9.845715e-001
1.409657265906801e-003	-4.576604e-001	9.785135e-001
1.410486064764469e-003	-3.808772e-001	9.732092e-001
1.411481383308524e-003	-2.895770e-001	9.668391e-001
1.412397644398574e-003	-2.111447e-001	9.609751e-001
1.413656095801260e-003	-1.122969e-001	9.529210e-001
1.414603900064352e-003	-4.288027e-002	9.468551e-001
1.415617868860049e-003	2.648795e-002	9.403656e-001
1.416040937521768e-003	5.213993e-002	9.376580e-001
1.416347488996568e-003	6.851515e-002	9.356961e-001
1.416657928074718e-003	8.429669e-002	9.337093e-001
1.416968367152867e-003	9.996420e-002	9.317224e-001
1.417278806231017e-003	1.155177e-001	9.297356e-001
1.417589245309167e-003	1.309571e-001	9.277488e-001
1.417899684387316e-003	1.462825e-001	9.257620e-001
1.418210123465466e-003	1.614939e-001	9.237752e-001
1.418520562543615e-003	1.765913e-001	9.217884e-001
1.419342319331925e-003	2.136732e-001	9.165292e-001
1.420253191822646e-003	2.506992e-001	9.106995e-001
1.421291321459179e-003	2.883251e-001	9.040555e-001
1.422526135725825e-003	3.279685e-001	8.961527e-001
1.424078445581772e-003	3.713225e-001	8.862180e-001
1.425031077393816e-003	3.948167e-001	8.801211e-001
1.426149999987547e-003	4.197103e-001	8.729600e-001
1.427487290032630e-003	4.460493e-001	8.644013e-001
1.429079783465743e-003	4.731266e-001	8.542094e-001
1.431071817456274e-003	5.014902e-001	8.414603e-001
1.433444976290225e-003	5.289991e-001	8.262721e-001
1.435886382540225e-003	5.515067e-001	8.106471e-001
1.438327788790225e-003	5.691637e-001	7.950221e-001
1.440769195040225e-003	5.829846e-001	7.793971e-001
1.445652007540225e-003	6.022694e-001	7.481471e-001
1.452831211636933e-003	6.179692e-001	7.022002e-001
1.457571848440383e-003	6.224378e-001	6.718602e-001
1.462312485243832e-003	6.260956e-001	6.415201e-001
1.467053122047281e-003	6.289428e-001	6.111800e-001
1.471793758850730e-003	6.309793e-001	5.808399e-001
1.476534395654180e-003	6.322051e-001	5.504999e-001
1.481275032457629e-003	6.326201e-001	5.201598e-001
1.486015669261078e-003	6.322244e-001	4.898197e-001
1.556816450511077e-003	6.327532e-001	3.669472e-002
1.579957799325805e-003	6.327555e-001	-1.114224e-001
1.603099148140534e-003	6.327571e-001	-2.595318e-001
1.626240496955262e-003	6.327578e-001	-4.076334e-001
1.649381845769990e-003	6.327578e-001	-5.557272e-001
1.672523194584719e-003	6.327569e-001	-7.038133e-001
1.695664543399447e-003	6.327552e-001	-8.518917e-001
1.718805892214176e-003	6.327528e-001	-9.999623e-001
1.718905212554707e-003	6.328685e-001	-9.993266e-001
1.719004532895238e-003	6.327458e-001	-9.986910e-001
1.719103853235769e-003	6.323845e-001	-9.980554e-001
1.719203173576300e-003	6.317848e-001	-9.974197e-001
1.719302493916831e-003	6.309466e-001	-9.967840e-001
1.719401814257362e-003	6.298699e-001	-9.961484e-001
1.719501134597893e-003	6.285546e-001	-9.955127e-001
1.719723755439738e-003	6.236641e-001	-9.940880e-001
1.720018350805949e-003	6.136947e-001	-9.922026e-001
1.720370681508847e-003	5.965996e-001	-9.899476e-001
1.720853177162284e-003	5.652139e-001	-9.868597e-001
1.721533111938682e-003	5.108796e-001	-9.825081e-001
1.722303599141317e-003	4.416135e-001	-9.775770e-001
1.723113871381164e-003	3.659315e-001	-9.723912e-001
1.724061650881823e-003	2.796571e-001	-9.663255e-001
1.725058634165007e-003	1.953380e-001	-9.599447e-001
1.726333017122527e-003	9.611880e-002	-9.517887e-001
1.727132294623382e-003	3.692125e-002	-9.466733e-001
1.727569659524678e-003	5.899335e-003	-9.438742e-001
1.728081123701677e-003	-2.787933e-002	-9.406008e-001
1.728341400542202e-003	-4.338460e-002	-9.389350e-001
1.728643448986400e-003	-5.983715e-002	-9.370019e-001
1.729229999021507e-003	-9.003028e-002	-9.332480e-001
1.730024585314256e-003	-1.302101e-001	-9.281626e-001
1.730475214231726e-003	-1.525138e-001	-9.252786e-001
1.731376472066665e-003	-1.949388e-001	-9.195106e-001
1.732219624140625e-003	-2.313345e-001	-9.141144e-001
1.733237184127133e-003	-2.702584e-001	-9.076020e-001
1.734666804299946e-003	-3.180501e-001	-8.984525e-001
1.736357060300587e-003	-3.666985e-001	-8.876348e-001
1.738208072935404e-003	-4.112663e-001	-8.757883e-001
1.740649479185404e-003	-4.591942e-001	-8.601633e-001
1.743090885435404e-003	-4.974555e-001	-8.445383e-001
1.745532291685404e-003	-5.274176e-001	-8.289133e-001
1.747973697935404e-003	-5.508740e-001	-8.132883e-001
1.750415104185404e-003	-5.692362e-001	-7.976633e-001
1.752856510435404e-003	-5.836091e-001	-7.820383e-001
1.757739322935404e-003	-6.036637e-001	-7.507883e-001
1.765063541685404e-003	-6.201706e-001	-7.039133e-001
1.770643898828261e-003	-6.251568e-001	-6.681990e-001
1.776224255971118e-003	-6.291904e-001	-6.324848e-001
1.781804613113975e-003	-6.322715e-001	-5.967705e-001
1.787384970256832e-003	-6.343999e-001	-5.610562e-001
1.792965327399689e-003	-6.355757e-001	-5.253419e-001
1.798545684542546e-003	-6.357989e-001	-4.896276e-001
1.804126041685403e-003	-6.350695e-001	-4.539133e-001
1.836579949886948e-003	-6.352088e-001	-2.462012e-001
1.869033858088494e-003	-6.353168e-001	-3.849345e-002
1.901487766290039e-003	-6.353936e-001	1.692098e-001
1.933941674491585e-003	-6.354390e-001	3.769086e-001
1.966395582693130e-003	-6.354531e-001	5.846029e-001
1.998849490894676e-003	-6.354360e-001	7.922928e-001
2.031303399096221e-003	-6.353875e-001	9.999782e-001
2.031425253086815e-003	-6.355864e-001	9.991984e-001
2.031547107077410e-003	-6.353687e-001	9.984185e-001
2.031668961068004e-003	-6.347346e-001	9.976386e-001
2.031790815058599e-003	-6.336840e-001	9.968588e-001
2.031912669049193e-003	-6.322169e-001	9.960789e-001
2.032034523039788e-003	-6.303333e-001	9.952990e-001
2.032156377030382e-003	-6.280332e-001	9.945192e-001
2.032421950734019e-003	-6.200544e-001	9.928195e-001
2.032756592497451e-003	-6.053790e-001	9.906778e-001
2.033186924880130e-003	-5.796100e-001	9.879237e-001
2.033790165998659e-003	-5.336908e-001	9.840629e-001
2.034728994549292e-003	-4.510618e-001	9.780545e-001
2.035581279424671e-003	-3.719366e-001	9.725998e-001
2.036550998951330e-003	-2.833921e-001	9.663936e-001
2.037499739573154e-003	-2.026542e-001	9.603217e-001
2.038674927126330e-003	-1.107124e-001	9.528005e-001
2.039555292478271e-003	-4.613972e-002	9.471661e-001
2.040505986380560e-003	1.963745e-002	9.410817e-001
2.040922269149959e-003	4.543450e-002	9.384175e-001
2.041221347688369e-003	6.180532e-002	9.365034e-001
2.041777915940806e-003	9.014754e-002	9.329413e-001
2.042735245424985e-003	1.382550e-001	9.268144e-001
2.043616205464689e-003	1.809687e-001	9.211763e-001
2.044093555100311e-003	2.027099e-001	9.181212e-001
2.044624001945470e-003	2.254292e-001	9.147264e-001
2.045206221539819e-003	2.487513e-001	9.110002e-001
2.045812005046438e-003	2.713590e-001	9.071231e-001
2.046497211673522e-003	2.951441e-001	9.027379e-001
2.047239410625719e-003	3.190603e-001	8.979878e-001
2.048068160026026e-003	3.437208e-001	8.926838e-001
2.049010177476682e-003	3.694112e-001	8.866549e-001
2.050074163019019e-003	3.957016e-001	8.798454e-001
2.051307901605366e-003	4.229049e-001	8.719494e-001
2.052753863414641e-003	4.508357e-001	8.626953e-001
2.054436013961228e-003	4.786185e-001	8.519295e-001
2.056497379967901e-003	5.069200e-001	8.387368e-001
2.058883161939061e-003	5.334607e-001	8.234678e-001
2.061324568189061e-003	5.550078e-001	8.078428e-001
2.063765974439061e-003	5.719042e-001	7.922178e-001
2.066207380689061e-003	5.851296e-001	7.765928e-001
2.071090193189061e-003	6.035859e-001	7.453428e-001
2.077661573197236e-003	6.177635e-001	7.032859e-001
2.081971623919298e-003	6.224005e-001	6.757016e-001
2.086281674641359e-003	6.261711e-001	6.481173e-001
2.090591725363420e-003	6.290751e-001	6.205330e-001
2.094901776085481e-003	6.311127e-001	5.929487e-001
2.099211826807542e-003	6.322837e-001	5.653643e-001
2.103521877529603e-003	6.325883e-001	5.377800e-001
2.107831928251664e-003	6.320263e-001	5.101957e-001
2.215253803251662e-003	6.327618e-001	-1.773043e-001
2.233618315339221e-003	6.327611e-001	-2.948485e-001
2.251982827426780e-003	6.327602e-001	-4.123856e-001
2.270347339514339e-003	6.327591e-001	-5.299157e-001
2.288711851601898e-003	6.327578e-001	-6.474387e-001
2.307076363689457e-003	6.327563e-001	-7.649547e-001
2.325440875777016e-003	6.327546e-001	-8.824636e-001
2.343805387864575e-003	6.327528e-001	-9.999655e-001
2.343927485629899e-003	6.329413e-001	-9.991841e-001
2.344049583395224e-003	6.327117e-001	-9.984027e-001
2.344171681160549e-003	6.320639e-001	-9.976212e-001
2.344293778925873e-003	6.309979e-001	-9.968398e-001
2.344415876691198e-003	6.295138e-001	-9.960584e-001
2.344537974456523e-003	6.276115e-001	-9.952770e-001
2.344660072221847e-003	6.252910e-001	-9.944955e-001
2.344931770386346e-003	6.170443e-001	-9.927567e-001
2.345268072099570e-003	6.021322e-001	-9.906043e-001
2.345706980442741e-003	5.755775e-001	-9.877954e-001
2.346317408535265e-003	5.288552e-001	-9.838886e-001
2.347212602970222e-003	4.498909e-001	-9.781594e-001
2.348047477802140e-003	3.722819e-001	-9.728162e-001
2.349017200694508e-003	2.836097e-001	-9.666099e-001
2.349966341603690e-003	2.027992e-001	-9.605354e-001
2.351237050889615e-003	1.033037e-001	-9.524029e-001
2.352064920353966e-003	4.188552e-002	-9.471045e-001
2.352598536860814e-003	3.634364e-003	-9.436893e-001
2.352923871892761e-003	-1.843680e-002	-9.416072e-001
2.353095342671205e-003	-2.920638e-002	-9.405098e-001
2.353227519563855e-003	-3.702549e-002	-9.396639e-001
2.353353514426413e-003	-4.418536e-002	-9.388575e-001
2.353626510697251e-003	-5.899335e-002	-9.371103e-001
2.353976960517342e-003	-7.711838e-002	-9.348674e-001
2.354327410337434e-003	-9.503738e-002	-9.326246e-001
2.354677860157525e-003	-1.127504e-001	-9.303817e-001
2.355028309977616e-003	-1.302573e-001	-9.281388e-001
2.355378759797707e-003	-1.475583e-001	-9.258959e-001
2.355729209617798e-003	-1.646532e-001	-9.236531e-001
2.356079659437889e-003	-1.815421e-001	-9.214102e-001
2.356851408265147e-003	-2.160151e-001	-9.164710e-001
2.357762885790485e-003	-2.526539e-001	-9.106376e-001
2.359078011611536e-003	-2.992413e-001	-9.022207e-001
2.360581357350429e-003	-3.453590e-001	-8.925993e-001
2.362464185538845e-003	-3.943523e-001	-8.805492e-001
2.364495655724875e-003	-4.381115e-001	-8.675478e-001
2.366937061974874e-003	-4.805104e-001	-8.519228e-001
2.369378468224874e-003	-5.141495e-001	-8.362978e-001
2.371819874474874e-003	-5.404873e-001	-8.206728e-001
2.374261280724874e-003	-5.611054e-001	-8.050478e-001
2.376702686974874e-003	-5.772448e-001	-7.894228e-001
2.381585499474874e-003	-5.997649e-001	-7.581728e-001
2.386468311974874e-003	-6.135607e-001	-7.269228e-001
2.393792530724874e-003	-6.249155e-001	-6.800478e-001
2.400767977153445e-003	-6.286598e-001	-6.354050e-001
2.407743423582016e-003	-6.316501e-001	-5.907621e-001
2.414718870010588e-003	-6.338864e-001	-5.461192e-001
2.421694316439159e-003	-6.353686e-001	-5.014764e-001
2.428669762867730e-003	-6.360969e-001	-4.568335e-001
2.435645209296301e-003	-6.360711e-001	-4.121907e-001
2.442620655724873e-003	-6.352913e-001	-3.675478e-001
2.498772999474872e-003	-6.354538e-001	-8.172804e-003
2.500000000000000e-003	-6.354862e-001	-3.200000e-004
