Freq.	V(att)
1.00000000000000e+001	(-6.49450090679894e+001dB,-9.00061956177374e+001°)
1.02329299228075e+001	(-6.47450090686923e+001dB,-9.00063399322135e+001°)
1.04712854805090e+001	(-6.45450090694284e+001dB,-9.00064876082056e+001°)
1.07151930523761e+001	(-6.43450090701992e+001dB,-9.00066387240134e+001°)
1.09647819614319e+001	(-6.41450090710063e+001dB,-9.00067933597606e+001°)
1.12201845430196e+001	(-6.39450090718515e+001dB,-9.00069515974371e+001°)
1.14815362149688e+001	(-6.37450090727365e+001dB,-9.00071135209425e+001°)
1.17489755493953e+001	(-6.35450090736632e+001dB,-9.00072792161309e+001°)
1.20226443461741e+001	(-6.33450090746336e+001dB,-9.00074487708560e+001°)
1.23026877081238e+001	(-6.31450090756497e+001dB,-9.00076222750181e+001°)
1.25892541179417e+001	(-6.29450090767137e+001dB,-9.00077998206112e+001°)
1.28824955169313e+001	(-6.27450090778278e+001dB,-9.00079815017725e+001°)
1.31825673855641e+001	(-6.25450090789944e+001dB,-9.00081674148316e+001°)
1.34896288259165e+001	(-6.23450090802161e+001dB,-9.00083576583622e+001°)
1.38038426460288e+001	(-6.21450090814953e+001dB,-9.00085523332339e+001°)
1.41253754462275e+001	(-6.19450090828348e+001dB,-9.00087515426659e+001°)
1.44543977074593e+001	(-6.17450090842374e+001dB,-9.00089553922816e+001°)
1.47910838816821e+001	(-6.15450090857061e+001dB,-9.00091639901649e+001°)
1.51356124843621e+001	(-6.13450090872440e+001dB,-9.00093774469171e+001°)
1.54881661891248e+001	(-6.11450090888545e+001dB,-9.00095958757157e+001°)
1.58489319246111e+001	(-6.09450090905408e+001dB,-9.00098193923746e+001°)
1.62181009735893e+001	(-6.07450090923065e+001dB,-9.00100481154054e+001°)
1.65958690743756e+001	(-6.05450090941556e+001dB,-9.00102821660799e+001°)
1.69824365246174e+001	(-6.03450090960917e+001dB,-9.00105216684950e+001°)
1.73780082874937e+001	(-6.01450090981191e+001dB,-9.00107667496380e+001°)
1.77827941003892e+001	(-5.99450091002420e+001dB,-9.00110175394541e+001°)
1.81970085860998e+001	(-5.97450091024650e+001dB,-9.00112741709156e+001°)
1.86208713666287e+001	(-5.95450091047928e+001dB,-9.00115367800916e+001°)
1.90546071796325e+001	(-5.93450091072303e+001dB,-9.00118055062212e+001°)
1.94984459975804e+001	(-5.91450091097826e+001dB,-9.00120804917864e+001°)
1.99526231496888e+001	(-5.89450091124552e+001dB,-9.00123618825883e+001°)
2.04173794466953e+001	(-5.87450091152538e+001dB,-9.00126498278239e+001°)
2.08929613085404e+001	(-5.85450091181843e+001dB,-9.00129444801657e+001°)
2.13796208950223e+001	(-5.83450091212529e+001dB,-9.00132459958422e+001°)
2.18776162394955e+001	(-5.81450091244661e+001dB,-9.00135545347210e+001°)
2.23872113856834e+001	(-5.79450091278307e+001dB,-9.00138702603935e+001°)
2.29086765276777e+001	(-5.77450091313539e+001dB,-9.00141933402617e+001°)
2.34422881531992e+001	(-5.75450091350432e+001dB,-9.00145239456267e+001°)
2.39883291901949e+001	(-5.73450091389063e+001dB,-9.00148622517800e+001°)
2.45470891568503e+001	(-5.71450091429515e+001dB,-9.00152084380959e+001°)
2.51188643150958e+001	(-5.69450091471873e+001dB,-9.00155626881269e+001°)
2.57039578276886e+001	(-5.67450091516228e+001dB,-9.00159251897012e+001°)
2.63026799189538e+001	(-5.65450091562673e+001dB,-9.00162961350218e+001°)
2.69153480392691e+001	(-5.63450091611306e+001dB,-9.00166757207689e+001°)
2.75422870333816e+001	(-5.61450091662232e+001dB,-9.00170641482039e+001°)
2.81838293126445e+001	(-5.59450091715558e+001dB,-9.00174616232761e+001°)
2.88403150312660e+001	(-5.57450091771397e+001dB,-9.00178683567321e+001°)
2.95120922666638e+001	(-5.55450091829868e+001dB,-9.00182845642273e+001°)
3.01995172040201e+001	(-5.53450091891094e+001dB,-9.00187104664405e+001°)
3.09029543251359e+001	(-5.51450091955206e+001dB,-9.00191462891906e+001°)
3.16227766016838e+001	(-5.49450092022340e+001dB,-9.00195922635567e+001°)
3.23593656929628e+001	(-5.47450092092637e+001dB,-9.00200486260002e+001°)
3.31131121482591e+001	(-5.45450092166247e+001dB,-9.00205156184905e+001°)
3.38844156139202e+001	(-5.43450092243327e+001dB,-9.00209934886334e+001°)
3.46736850452531e+001	(-5.41450092324039e+001dB,-9.00214824898017e+001°)
3.54813389233575e+001	(-5.39450092408554e+001dB,-9.00219828812705e+001°)
3.63078054770101e+001	(-5.37450092497053e+001dB,-9.00224949283538e+001°)
3.71535229097172e+001	(-5.35450092589723e+001dB,-9.00230189025459e+001°)
3.80189396320561e+001	(-5.33450092686761e+001dB,-9.00235550816647e+001°)
3.89045144994280e+001	(-5.31450092788371e+001dB,-9.00241037499996e+001°)
3.98107170553497e+001	(-5.29450092894770e+001dB,-9.00246651984618e+001°)
4.07380277804112e+001	(-5.27450093006184e+001dB,-9.00252397247386e+001°)
4.16869383470335e+001	(-5.25450093122848e+001dB,-9.00258276334515e+001°)
4.26579518801592e+001	(-5.23450093245011e+001dB,-9.00264292363175e+001°)
4.36515832240165e+001	(-5.21450093372931e+001dB,-9.00270448523144e+001°)
4.46683592150962e+001	(-5.19450093506880e+001dB,-9.00276748078498e+001°)
4.57088189614874e+001	(-5.17450093647141e+001dB,-9.00283194369347e+001°)
4.67735141287197e+001	(-5.15450093794013e+001dB,-9.00289790813597e+001°)
4.78630092322638e+001	(-5.13450093947806e+001dB,-9.00296540908773e+001°)
4.89778819368445e+001	(-5.11450094108848e+001dB,-9.00303448233862e+001°)
5.01187233627271e+001	(-5.09450094277479e+001dB,-9.00310516451220e+001°)
5.12861383991364e+001	(-5.07450094454058e+001dB,-9.00317749308511e+001°)
5.24807460249772e+001	(-5.05450094638959e+001dB,-9.00325150640689e+001°)
5.37031796370252e+001	(-5.03450094832574e+001dB,-9.00332724372040e+001°)
5.49540873857624e+001	(-5.01450095035313e+001dB,-9.00340474518256e+001°)
5.62341325190348e+001	(-4.99450095247607e+001dB,-9.00348405188567e+001°)
5.75439937337156e+001	(-4.97450095469907e+001dB,-9.00356520587920e+001°)
5.88843655355588e+001	(-4.95450095702683e+001dB,-9.00364825019205e+001°)
6.02559586074357e+001	(-4.93450095946430e+001dB,-9.00373322885543e+001°)
6.16595001861481e+001	(-4.91450096201663e+001dB,-9.00382018692615e+001°)
6.30957344480192e+001	(-4.89450096468926e+001dB,-9.00390917051053e+001°)
6.45654229034654e+001	(-4.87450096748785e+001dB,-9.00400022678883e+001°)
6.60693448007595e+001	(-4.85450097041832e+001dB,-9.00409340404031e+001°)
6.76082975391980e+001	(-4.83450097348691e+001dB,-9.00418875166877e+001°)
6.91830970918935e+001	(-4.81450097670012e+001dB,-9.00428632022879e+001°)
7.07945784384136e+001	(-4.79450098006475e+001dB,-9.00438616145250e+001°)
7.24435960074988e+001	(-4.77450098358796e+001dB,-9.00448832827704e+001°)
7.41310241300916e+001	(-4.75450098727722e+001dB,-9.00459287487262e+001°)
7.58577575029182e+001	(-4.73450099114034e+001dB,-9.00469985667122e+001°)
7.76247116628690e+001	(-4.71450099518552e+001dB,-9.00480933039599e+001°)
7.94328234724279e+001	(-4.69450099942135e+001dB,-9.00492135409137e+001°)
8.12830516164097e+001	(-4.67450100385681e+001dB,-9.00503598715380e+001°)
8.31763771102669e+001	(-4.65450100850131e+001dB,-9.00515329036322e+001°)
8.51138038202374e+001	(-4.63450101336469e+001dB,-9.00527332591537e+001°)
8.70963589956078e+001	(-4.61450101845727e+001dB,-9.00539615745467e+001°)
8.91250938133743e+001	(-4.59450102378987e+001dB,-9.00552185010802e+001°)
9.12010839355907e+001	(-4.57450102937378e+001dB,-9.00565047051934e+001°)
9.33254300796988e+001	(-4.55450103522085e+001dB,-9.00578208688487e+001°)
9.54992586021433e+001	(-4.53450104134349e+001dB,-9.00591676898933e+001°)
9.77237220955808e+001	(-4.51450104775467e+001dB,-9.00605458824296e+001°)
9.99999999999997e+001	(-4.49450105446801e+001dB,-9.00619561771935e+001°)
1.02329299228075e+002	(-4.47450106149774e+001dB,-9.00633993219418e+001°)
1.04712854805090e+002	(-4.45450106885877e+001dB,-9.00648760818490e+001°)
1.07151930523760e+002	(-4.43450107656671e+001dB,-9.00663872399126e+001°)
1.09647819614318e+002	(-4.41450108463792e+001dB,-9.00679335973686e+001°)
1.12201845430196e+002	(-4.39450109308951e+001dB,-9.00695159741162e+001°)
1.14815362149688e+002	(-4.37450110193941e+001dB,-9.00711352091522e+001°)
1.17489755493953e+002	(-4.35450111120640e+001dB,-9.00727921610166e+001°)
1.20226443461741e+002	(-4.33450112091012e+001dB,-9.00744877082470e+001°)
1.23026877081238e+002	(-4.31450113107117e+001dB,-9.00762227498450e+001°)
1.25892541179416e+002	(-4.29450114171110e+001dB,-9.00779982057524e+001°)
1.28824955169313e+002	(-4.27450115285247e+001dB,-9.00798150173394e+001°)
1.31825673855640e+002	(-4.25450116451891e+001dB,-9.00816741479034e+001°)
1.34896288259165e+002	(-4.23450117673518e+001dB,-9.00835765831799e+001°)
1.38038426460288e+002	(-4.21450118952718e+001dB,-9.00855233318652e+001°)
1.41253754462275e+002	(-4.19450120292205e+001dB,-9.00875154261511e+001°)
1.44543977074592e+002	(-4.17450121694821e+001dB,-9.00895539222721e+001°)
1.47910838816820e+002	(-4.15450123163539e+001dB,-9.00916399010658e+001°)
1.51356124843620e+002	(-4.13450124701477e+001dB,-9.00937744685455e+001°)
1.54881661891248e+002	(-4.11450126311895e+001dB,-9.00959587564871e+001°)
1.58489319246111e+002	(-4.09450127998209e+001dB,-9.00981939230285e+001°)
1.62181009735892e+002	(-4.07450129763998e+001dB,-9.01004811532847e+001°)
1.65958690743755e+002	(-4.05450131613005e+001dB,-9.01028216599750e+001°)
1.69824365246174e+002	(-4.03450133549154e+001dB,-9.01052166840670e+001°)
1.73780082874937e+002	(-4.01450135576550e+001dB,-9.01076674954338e+001°)
1.77827941003892e+002	(-3.99450137699495e+001dB,-9.01101753935277e+001°)
1.81970085860998e+002	(-3.97450139922492e+001dB,-9.01127417080693e+001°)
1.86208713666286e+002	(-3.95450142250254e+001dB,-9.01153677997522e+001°)
1.90546071796324e+002	(-3.93450144687722e+001dB,-9.01180550609645e+001°)
1.94984459975804e+002	(-3.91450147240063e+001dB,-9.01208049165275e+001°)
1.99526231496887e+002	(-3.89450149912693e+001dB,-9.01236188244506e+001°)
2.04173794466952e+002	(-3.87450152711280e+001dB,-9.01264982767045e+001°)
2.08929613085403e+002	(-3.85450155641761e+001dB,-9.01294448000126e+001°)
2.13796208950222e+002	(-3.83450158710351e+001dB,-9.01324599566599e+001°)
2.18776162394954e+002	(-3.81450161923559e+001dB,-9.01355453453221e+001°)
2.23872113856833e+002	(-3.79450165288202e+001dB,-9.01387026019124e+001°)
2.29086765276776e+002	(-3.77450168811415e+001dB,-9.01419334004496e+001°)
2.34422881531991e+002	(-3.75450172500673e+001dB,-9.01452394539450e+001°)
2.39883291901948e+002	(-3.73450176363800e+001dB,-9.01486225153115e+001°)
2.45470891568502e+002	(-3.71450180408991e+001dB,-9.01520843782922e+001°)
2.51188643150957e+002	(-3.69450184644826e+001dB,-9.01556268784119e+001°)
2.57039578276885e+002	(-3.67450189080291e+001dB,-9.01592518939502e+001°)
2.63026799189537e+002	(-3.65450193724792e+001dB,-9.01629613469375e+001°)
2.69153480392690e+002	(-3.63450198588183e+001dB,-9.01667572041740e+001°)
2.75422870333816e+002	(-3.61450203680779e+001dB,-9.01706414782723e+001°)
2.81838293126444e+002	(-3.59450209013382e+001dB,-9.01746162287250e+001°)
2.88403150312659e+002	(-3.57450214597304e+001dB,-9.01786835629962e+001°)
2.95120922666637e+002	(-3.55450220444388e+001dB,-9.01828456376391e+001°)
3.01995172040200e+002	(-3.53450226567037e+001dB,-9.01871046594395e+001°)
3.09029543251358e+002	(-3.51450232978239e+001dB,-9.01914628865856e+001°)
3.16227766016837e+002	(-3.49450239691592e+001dB,-9.01959226298657e+001°)
3.23593656929627e+002	(-3.47450246721337e+001dB,-9.02004862538930e+001°)
3.31131121482590e+002	(-3.45450254082384e+001dB,-9.02051561783598e+001°)
3.38844156139201e+002	(-3.43450261790347e+001dB,-9.02099348793198e+001°)
3.46736850452530e+002	(-3.41450269861577e+001dB,-9.02148248905015e+001°)
3.54813389233574e+002	(-3.39450278313194e+001dB,-9.02198288046516e+001°)
3.63078054770100e+002	(-3.37450287163124e+001dB,-9.02249492749091e+001°)
3.71535229097171e+002	(-3.35450296430140e+001dB,-9.02301890162128e+001°)
3.80189396320559e+002	(-3.33450306133899e+001dB,-9.02355508067401e+001°)
3.89045144994279e+002	(-3.31450316294984e+001dB,-9.02410374893805e+001°)
3.98107170553495e+002	(-3.29450326934947e+001dB,-9.02466519732429e+001°)
4.07380277804111e+002	(-3.27450338076359e+001dB,-9.02523972351975e+001°)
4.16869383470333e+002	(-3.25450349742852e+001dB,-9.02582763214548e+001°)
4.26579518801591e+002	(-3.23450361959173e+001dB,-9.02642923491804e+001°)
4.36515832240164e+002	(-3.21450374751234e+001dB,-9.02704485081480e+001°)
4.46683592150961e+002	(-3.19450388146169e+001dB,-9.02767480624300e+001°)
4.57088189614873e+002	(-3.17450402172392e+001dB,-9.02831943521291e+001°)
4.67735141287196e+002	(-3.15450416859653e+001dB,-9.02897907951483e+001°)
4.78630092322636e+002	(-3.13450432239108e+001dB,-9.02965408890039e+001°)
4.89778819368444e+002	(-3.11450448343380e+001dB,-9.03034482126793e+001°)
5.01187233627270e+002	(-3.09450465206627e+001dB,-9.03105164285228e+001°)
5.12861383991362e+002	(-3.07450482864619e+001dB,-9.03177492841896e+001°)
5.24807460249770e+002	(-3.05450501354814e+001dB,-9.03251506146285e+001°)
5.37031796370250e+002	(-3.03450520716431e+001dB,-9.03327243441154e+001°)
5.49540873857622e+002	(-3.01450540990540e+001dB,-9.03404744883339e+001°)
5.62341325190346e+002	(-2.99450562220146e+001dB,-9.03484051565046e+001°)
5.75439937337154e+002	(-2.97450584450281e+001dB,-9.03565205535635e+001°)
5.88843655355586e+002	(-2.95450607728100e+001dB,-9.03648249823916e+001°)
6.02559586074355e+002	(-2.93450632102979e+001dB,-9.03733228460966e+001°)
6.16595001861479e+002	(-2.91450657626623e+001dB,-9.03820186503470e+001°)
6.30957344480190e+002	(-2.89450684353170e+001dB,-9.03909170057612e+001°)
6.45654229034652e+002	(-2.87450712339315e+001dB,-9.04000226303519e+001°)
6.60693448007592e+002	(-2.85450741644422e+001dB,-9.04093403520281e+001°)
6.76082975391978e+002	(-2.83450772330652e+001dB,-9.04188751111542e+001°)
6.91830970918933e+002	(-2.81450804463097e+001dB,-9.04286319631698e+001°)
7.07945784384134e+002	(-2.79450838109918e+001dB,-9.04386160812697e+001°)
7.24435960074986e+002	(-2.77450873342486e+001dB,-9.04488327591473e+001°)
7.41310241300914e+002	(-2.75450910235538e+001dB,-9.04592874138009e+001°)
7.58577575029180e+002	(-2.73450948867332e+001dB,-9.04699855884055e+001°)
7.76247116628688e+002	(-2.71450989319815e+001dB,-9.04809329552525e+001°)
7.94328234724277e+002	(-2.69451031678797e+001dB,-9.04921353187564e+001°)
8.12830516164095e+002	(-2.67451076034129e+001dB,-9.05035986185329e+001°)
8.31763771102666e+002	(-2.65451122479902e+001dB,-9.05153289325474e+001°)
8.51138038202372e+002	(-2.63451171114639e+001dB,-9.05273324803380e+001°)
8.70963589956076e+002	(-2.61451222041505e+001dB,-9.05396156263128e+001°)
8.91250938133741e+002	(-2.59451275368530e+001dB,-9.05521848831241e+001°)
9.12010839355905e+002	(-2.57451331208835e+001dB,-9.05650469151217e+001°)
9.33254300796986e+002	(-2.55451389680872e+001dB,-9.05782085418860e+001°)
9.54992586021431e+002	(-2.53451450908677e+001dB,-9.05916767418438e+001°)
9.77237220955805e+002	(-2.51451515022132e+001dB,-9.06054586559678e+001°)
9.99999999999994e+002	(-2.49451582157239e+001dB,-9.06195615915631e+001°)
1.02329299228075e+003	(-2.47451652456413e+001dB,-9.06339930261412e+001°)
1.04712854805089e+003	(-2.45451726068779e+001dB,-9.06487606113842e+001°)
1.07151930523760e+003	(-2.43451803150494e+001dB,-9.06638721772019e+001°)
1.09647819614318e+003	(-2.41451883865072e+001dB,-9.06793357358829e+001°)
1.12201845430196e+003	(-2.39451968383736e+001dB,-9.06951594863425e+001°)
1.14815362149688e+003	(-2.37452056885778e+001dB,-9.07113518184695e+001°)
1.17489755493952e+003	(-2.35452149558944e+001dB,-9.07279213175744e+001°)
1.20226443461741e+003	(-2.33452246599826e+001dB,-9.07448767689410e+001°)
1.23026877081237e+003	(-2.31452348214284e+001dB,-9.07622271624841e+001°)
1.25892541179416e+003	(-2.29452454617882e+001dB,-9.07799816975154e+001°)
1.28824955169313e+003	(-2.27452566036345e+001dB,-9.07981497876213e+001°)
1.31825673855640e+003	(-2.25452682706036e+001dB,-9.08167410656527e+001°)
1.34896288259165e+003	(-2.23452804874461e+001dB,-9.08357653888326e+001°)
1.38038426460288e+003	(-2.21452932800793e+001dB,-9.08552328439818e+001°)
1.41253754462275e+003	(-2.19453066756421e+001dB,-9.08751537528663e+001°)
1.44543977074592e+003	(-2.17453207025527e+001dB,-9.08955386776695e+001°)
1.47910838816820e+003	(-2.15453353905690e+001dB,-9.09163984265918e+001°)
1.51356124843620e+003	(-2.13453507708515e+001dB,-9.09377440595803e+001°)
1.54881661891247e+003	(-2.11453668760298e+001dB,-9.09595868941920e+001°)
1.58489319246110e+003	(-2.09453837402715e+001dB,-9.09819385115943e+001°)
1.62181009735892e+003	(-2.07454013993549e+001dB,-9.10048107627037e+001°)
1.65958690743755e+003	(-2.05454198907451e+001dB,-9.10282157744690e+001°)
1.69824365246173e+003	(-2.03454392536732e+001dB,-9.10521659562996e+001°)
1.73780082874936e+003	(-2.01454595292199e+001dB,-9.10766740066444e+001°)
1.77827941003891e+003	(-1.99454807604025e+001dB,-9.11017529197232e+001°)
1.81970085860997e+003	(-1.97455029922663e+001dB,-9.11274159924151e+001°)
1.86208713666286e+003	(-1.95455262719804e+001dB,-9.11536768313073e+001°)
1.90546071796323e+003	(-1.93455506489374e+001dB,-9.11805493599080e+001°)
1.94984459975803e+003	(-1.91455761748590e+001dB,-9.12080478260272e+001°)
1.99526231496887e+003	(-1.89456029039051e+001dB,-9.12361868093294e+001°)
2.04173794466952e+003	(-1.87456308927892e+001dB,-9.12649812290617e+001°)
2.08929613085403e+003	(-1.85456602008991e+001dB,-9.12944463519627e+001°)
2.13796208950222e+003	(-1.83456908904222e+001dB,-9.13245978003545e+001°)
2.18776162394954e+003	(-1.81457230264785e+001dB,-9.13554515604237e+001°)
2.23872113856832e+003	(-1.79457566772584e+001dB,-9.13870239906953e+001°)
2.29086765276776e+003	(-1.77457919141677e+001dB,-9.14193318307029e+001°)
2.34422881531991e+003	(-1.75458288119794e+001dB,-9.14523922098620e+001°)
2.39883291901947e+003	(-1.73458674489922e+001dB,-9.14862226565488e+001°)
2.45470891568501e+003	(-1.71459079071975e+001dB,-9.15208411073906e+001°)
2.51188643150956e+003	(-1.69459502724529e+001dB,-9.15562659167728e+001°)
2.57039578276885e+003	(-1.67459946346651e+001dB,-9.15925158665667e+001°)
2.63026799189536e+003	(-1.65460410879811e+001dB,-9.16296101760836e+001°)
2.69153480392690e+003	(-1.63460897309879e+001dB,-9.16675685122611e+001°)
2.75422870333815e+003	(-1.61461406669222e+001dB,-9.17064110000857e+001°)
2.81838293126443e+003	(-1.59461940038902e+001dB,-9.17461582332586e+001°)
2.88403150312659e+003	(-1.57462498550970e+001dB,-9.17868312851090e+001°)
2.95120922666636e+003	(-1.55463083390876e+001dB,-9.18284517197617e+001°)
3.01995172040199e+003	(-1.53463695799988e+001dB,-9.18710416035648e+001°)
3.09029543251357e+003	(-1.51464337078235e+001dB,-9.19146235167821e+001°)
3.16227766016836e+003	(-1.49465008586871e+001dB,-9.19592205655588e+001°)
3.23593656929626e+003	(-1.47465711751367e+001dB,-9.20048563941645e+001°)
3.31131121482589e+003	(-1.45466448064453e+001dB,-9.20515551975216e+001°)
3.38844156139200e+003	(-1.43467219089285e+001dB,-9.20993417340246e+001°)
3.46736850452529e+003	(-1.41468026462778e+001dB,-9.21482413386578e+001°)
3.54813389233573e+003	(-1.39468871899089e+001dB,-9.21982799364174e+001°)
3.63078054770099e+003	(-1.37469757193267e+001dB,-9.22494840560468e+001°)
3.71535229097170e+003	(-1.35470684225072e+001dB,-9.23018808440896e+001°)
3.80189396320558e+003	(-1.33471654962986e+001dB,-9.23554980792707e+001°)
3.89045144994278e+003	(-1.31472671468398e+001dB,-9.24103641872108e+001°)
3.98107170553494e+003	(-1.29473735900002e+001dB,-9.24665082554828e+001°)
4.07380277804110e+003	(-1.27474850518395e+001dB,-9.25239600490187e+001°)
4.16869383470332e+003	(-1.25476017690896e+001dB,-9.25827500258733e+001°)
4.26579518801589e+003	(-1.23477239896594e+001dB,-9.26429093533554e+001°)
4.36515832240162e+003	(-1.21478519731634e+001dB,-9.27044699245325e+001°)
4.46683592150960e+003	(-1.19479859914756e+001dB,-9.27674643751192e+001°)
4.57088189614871e+003	(-1.17481263293094e+001dB,-9.28319261007575e+001°)
4.67735141287194e+003	(-1.15482732848255e+001dB,-9.28978892746987e+001°)
4.78630092322634e+003	(-1.13484271702683e+001dB,-9.29653888658949e+001°)
4.89778819368442e+003	(-1.11485883126326e+001dB,-9.30344606575107e+001°)
5.01187233627268e+003	(-1.09487570543625e+001dB,-9.31051412658643e+001°)
5.12861383991361e+003	(-1.07489337540828e+001dB,-9.31774681598074e+001°)
5.24807460249768e+003	(-1.05491187873658e+001dB,-9.32514796805551e+001°)
