Freq.	V(clean)
1.00000000000000e+001	(-4.41171553146636e+001dB,-9.00000428904634e+001°)
1.02329299228075e+001	(-4.39171553130026e+001dB,-9.00000438895106e+001°)
1.04712854805090e+001	(-4.37171553112632e+001dB,-9.00000449118286e+001°)
1.07151930523761e+001	(-4.35171553094419e+001dB,-9.00000459579594e+001°)
1.09647819614319e+001	(-4.33171553075348e+001dB,-9.00000470284577e+001°)
1.12201845430196e+001	(-4.31171553055377e+001dB,-9.00000481238911e+001°)
1.14815362149688e+001	(-4.29171553034466e+001dB,-9.00000492448404e+001°)
1.17489755493953e+001	(-4.27171553012569e+001dB,-9.00000503919000e+001°)
1.20226443461741e+001	(-4.25171552989640e+001dB,-9.00000515656780e+001°)
1.23026877081238e+001	(-4.23171552965630e+001dB,-9.00000527667968e+001°)
1.25892541179417e+001	(-4.21171552940489e+001dB,-9.00000539958933e+001°)
1.28824955169313e+001	(-4.19171552914163e+001dB,-9.00000552536191e+001°)
1.31825673855641e+001	(-4.17171552886597e+001dB,-9.00000565406411e+001°)
1.34896288259165e+001	(-4.15171552857731e+001dB,-9.00000578576416e+001°)
1.38038426460288e+001	(-4.13171552827505e+001dB,-9.00000592053191e+001°)
1.41253754462275e+001	(-4.11171552795854e+001dB,-9.00000605843879e+001°)
1.44543977074593e+001	(-4.09171552762712e+001dB,-9.00000619955794e+001°)
1.47910838816821e+001	(-4.07171552728007e+001dB,-9.00000634396418e+001°)
1.51356124843621e+001	(-4.05171552691667e+001dB,-9.00000649173406e+001°)
1.54881661891248e+001	(-4.03171552653615e+001dB,-9.00000664294595e+001°)
1.58489319246111e+001	(-4.01171552613769e+001dB,-9.00000679768002e+001°)
1.62181009735893e+001	(-3.99171552572045e+001dB,-9.00000695601830e+001°)
1.65958690743756e+001	(-3.97171552528355e+001dB,-9.00000711804475e+001°)
1.69824365246174e+001	(-3.95171552482606e+001dB,-9.00000728384528e+001°)
1.73780082874937e+001	(-3.93171552434700e+001dB,-9.00000745350780e+001°)
1.77827941003892e+001	(-3.91171552384537e+001dB,-9.00000762712226e+001°)
1.81970085860998e+001	(-3.89171552332010e+001dB,-9.00000780478073e+001°)
1.86208713666287e+001	(-3.87171552277007e+001dB,-9.00000798657738e+001°)
1.90546071796325e+001	(-3.85171552219413e+001dB,-9.00000817260862e+001°)
1.94984459975804e+001	(-3.83171552159103e+001dB,-9.00000836297309e+001°)
1.99526231496888e+001	(-3.81171552095952e+001dB,-9.00000855777170e+001°)
2.04173794466953e+001	(-3.79171552029824e+001dB,-9.00000875710776e+001°)
2.08929613085404e+001	(-3.77171551960580e+001dB,-9.00000896108695e+001°)
2.13796208950223e+001	(-3.75171551888072e+001dB,-9.00000916981741e+001°)
2.18776162394955e+001	(-3.73171551812147e+001dB,-9.00000938340983e+001°)
2.23872113856834e+001	(-3.71171551732644e+001dB,-9.00000960197746e+001°)
2.29086765276777e+001	(-3.69171551649394e+001dB,-9.00000982563617e+001°)
2.34422881531992e+001	(-3.67171551562221e+001dB,-9.00001005450455e+001°)
2.39883291901949e+001	(-3.65171551470939e+001dB,-9.00001028870396e+001°)
2.45470891568503e+001	(-3.63171551375355e+001dB,-9.00001052835857e+001°)
2.51188643150958e+001	(-3.61171551275267e+001dB,-9.00001077359545e+001°)
2.57039578276886e+001	(-3.59171551170462e+001dB,-9.00001102454462e+001°)
2.63026799189538e+001	(-3.57171551060717e+001dB,-9.00001128133913e+001°)
2.69153480392691e+001	(-3.55171550945800e+001dB,-9.00001154411516e+001°)
2.75422870333816e+001	(-3.53171550825467e+001dB,-9.00001181301201e+001°)
2.81838293126445e+001	(-3.51171550699463e+001dB,-9.00001208817227e+001°)
2.88403150312660e+001	(-3.49171550567521e+001dB,-9.00001236974182e+001°)
2.95120922666638e+001	(-3.47171550429360e+001dB,-9.00001265786996e+001°)
3.01995172040201e+001	(-3.45171550284689e+001dB,-9.00001295270945e+001°)
3.09029543251359e+001	(-3.43171550133199e+001dB,-9.00001325441663e+001°)
3.16227766016838e+001	(-3.41171549974569e+001dB,-9.00001356315145e+001°)
3.23593656929628e+001	(-3.39171549808464e+001dB,-9.00001387907762e+001°)
3.31131121482591e+001	(-3.37171549634530e+001dB,-9.00001420236264e+001°)
3.38844156139202e+001	(-3.35171549452399e+001dB,-9.00001453317792e+001°)
3.46736850452531e+001	(-3.33171549261684e+001dB,-9.00001487169886e+001°)
3.54813389233575e+001	(-3.31171549061982e+001dB,-9.00001521810494e+001°)
3.63078054770101e+001	(-3.29171548852867e+001dB,-9.00001557257984e+001°)
3.71535229097172e+001	(-3.27171548633898e+001dB,-9.00001593531150e+001°)
3.80189396320561e+001	(-3.25171548404608e+001dB,-9.00001630649224e+001°)
3.89045144994280e+001	(-3.23171548164513e+001dB,-9.00001668631887e+001°)
3.98107170553497e+001	(-3.21171547913102e+001dB,-9.00001707499277e+001°)
4.07380277804112e+001	(-3.19171547649843e+001dB,-9.00001747272002e+001°)
4.16869383470335e+001	(-3.17171547374176e+001dB,-9.00001787971149e+001°)
4.26579518801592e+001	(-3.15171547085518e+001dB,-9.00001829618299e+001°)
4.36515832240165e+001	(-3.13171546783256e+001dB,-9.00001872235531e+001°)
4.46683592150962e+001	(-3.11171546466748e+001dB,-9.00001915845443e+001°)
4.57088189614874e+001	(-3.09171546135325e+001dB,-9.00001960471156e+001°)
4.67735141287197e+001	(-3.07171545788281e+001dB,-9.00002006136331e+001°)
4.78630092322638e+001	(-3.05171545424882e+001dB,-9.00002052865180e+001°)
4.89778819368445e+001	(-3.03171545044356e+001dB,-9.00002100682479e+001°)
5.01187233627271e+001	(-3.01171544645897e+001dB,-9.00002149613580e+001°)
5.12861383991364e+001	(-2.99171544228659e+001dB,-9.00002199684428e+001°)
5.24807460249772e+001	(-2.97171543791757e+001dB,-9.00002250921569e+001°)
5.37031796370252e+001	(-2.95171543334265e+001dB,-9.00002303352171e+001°)
5.49540873857624e+001	(-2.93171542855211e+001dB,-9.00002357004030e+001°)
5.62341325190348e+001	(-2.91171542353581e+001dB,-9.00002411905595e+001°)
5.75439937337156e+001	(-2.89171541828309e+001dB,-9.00002468085973e+001°)
5.88843655355588e+001	(-2.87171541278282e+001dB,-9.00002525574952e+001°)
6.02559586074357e+001	(-2.85171540702333e+001dB,-9.00002584403013e+001°)
6.16595001861481e+001	(-2.83171540099241e+001dB,-9.00002644601344e+001°)
6.30957344480192e+001	(-2.81171539467725e+001dB,-9.00002706201865e+001°)
6.45654229034654e+001	(-2.79171538806448e+001dB,-9.00002769237235e+001°)
6.60693448007595e+001	(-2.77171538114005e+001dB,-9.00002833740874e+001°)
6.76082975391980e+001	(-2.75171537388928e+001dB,-9.00002899746984e+001°)
6.91830970918935e+001	(-2.73171536629679e+001dB,-9.00002967290560e+001°)
7.07945784384136e+001	(-2.71171535834649e+001dB,-9.00003036407412e+001°)
7.24435960074988e+001	(-2.69171535002149e+001dB,-9.00003107134188e+001°)
7.41310241300916e+001	(-2.67171534130415e+001dB,-9.00003179508384e+001°)
7.58577575029182e+001	(-2.65171533217598e+001dB,-9.00003253568373e+001°)
7.76247116628690e+001	(-2.63171532261760e+001dB,-9.00003329353421e+001°)
7.94328234724279e+001	(-2.61171531260876e+001dB,-9.00003406903709e+001°)
8.12830516164097e+001	(-2.59171530212821e+001dB,-9.00003486260353e+001°)
8.31763771102669e+001	(-2.57171529115373e+001dB,-9.00003567465426e+001°)
8.51138038202374e+001	(-2.55171527966204e+001dB,-9.00003650561982e+001°)
8.70963589956078e+001	(-2.53171526762876e+001dB,-9.00003735594078e+001°)
8.91250938133743e+001	(-2.51171525502837e+001dB,-9.00003822606797e+001°)
9.12010839355907e+001	(-2.49171524183414e+001dB,-9.00003911646270e+001°)
9.33254300796988e+001	(-2.47171522801808e+001dB,-9.00004002759704e+001°)
9.54992586021433e+001	(-2.45171521355090e+001dB,-9.00004095995406e+001°)
9.77237220955808e+001	(-2.43171519840189e+001dB,-9.00004191402808e+001°)
9.99999999999997e+001	(-2.41171518253894e+001dB,-9.00004289032492e+001°)
1.02329299228075e+002	(-2.39171516592839e+001dB,-9.00004388936218e+001°)
1.04712854805090e+002	(-2.37171514853501e+001dB,-9.00004491166952e+001°)
1.07151930523760e+002	(-2.35171513032190e+001dB,-9.00004595778895e+001°)
1.09647819614318e+002	(-2.33171511125043e+001dB,-9.00004702827507e+001°)
1.12201845430196e+002	(-2.31171509128015e+001dB,-9.00004812369542e+001°)
1.14815362149688e+002	(-2.29171507036871e+001dB,-9.00004924463076e+001°)
1.17489755493953e+002	(-2.27171504847173e+001dB,-9.00005039167535e+001°)
1.20226443461741e+002	(-2.25171502554278e+001dB,-9.00005156543731e+001°)
1.23026877081238e+002	(-2.23171500153323e+001dB,-9.00005276653892e+001°)
1.25892541179416e+002	(-2.21171497639213e+001dB,-9.00005399561694e+001°)
1.28824955169313e+002	(-2.19171495006618e+001dB,-9.00005525332296e+001°)
1.31825673855640e+002	(-2.17171492249951e+001dB,-9.00005654032376e+001°)
1.34896288259165e+002	(-2.15171489363367e+001dB,-9.00005785730163e+001°)
1.38038426460288e+002	(-2.13171486340743e+001dB,-9.00005920495475e+001°)
1.41253754462275e+002	(-2.11171483175666e+001dB,-9.00006058399755e+001°)
1.44543977074592e+002	(-2.09171479861424e+001dB,-9.00006199516113e+001°)
1.47910838816820e+002	(-2.07171476390986e+001dB,-9.00006343919356e+001°)
1.51356124843620e+002	(-2.05171472756991e+001dB,-9.00006491686037e+001°)
1.54881661891248e+002	(-2.03171468951732e+001dB,-9.00006642894490e+001°)
1.58489319246111e+002	(-2.01171464967136e+001dB,-9.00006797624873e+001°)
1.62181009735892e+002	(-1.99171460794751e+001dB,-9.00006955959211e+001°)
1.65958690743755e+002	(-1.97171456425728e+001dB,-9.00007117981437e+001°)
1.69824365246174e+002	(-1.95171451850798e+001dB,-9.00007283777439e+001°)
1.73780082874937e+002	(-1.93171447060259e+001dB,-9.00007453435106e+001°)
1.77827941003892e+002	(-1.91171442043948e+001dB,-9.00007627044372e+001°)
1.81970085860998e+002	(-1.89171436791226e+001dB,-9.00007804697263e+001°)
1.86208713666286e+002	(-1.87171431290949e+001dB,-9.00007986487950e+001°)
1.90546071796324e+002	(-1.85171425531453e+001dB,-9.00008172512796e+001°)
1.94984459975804e+002	(-1.83171419500519e+001dB,-9.00008362870405e+001°)
1.99526231496887e+002	(-1.81171413185356e+001dB,-9.00008557661679e+001°)
2.04173794466952e+002	(-1.79171406572568e+001dB,-9.00008756989867e+001°)
2.08929613085403e+002	(-1.77171399648128e+001dB,-9.00008960960621e+001°)
2.13796208950222e+002	(-1.75171392397349e+001dB,-9.00009169682054e+001°)
2.18776162394954e+002	(-1.73171384804850e+001dB,-9.00009383264794e+001°)
2.23872113856833e+002	(-1.71171376854527e+001dB,-9.00009601822043e+001°)
2.29086765276776e+002	(-1.69171368529516e+001dB,-9.00009825469639e+001°)
2.34422881531991e+002	(-1.67171359812159e+001dB,-9.00010054326115e+001°)
2.39883291901948e+002	(-1.65171350683964e+001dB,-9.00010288512763e+001°)
2.45470891568502e+002	(-1.63171341125570e+001dB,-9.00010528153698e+001°)
2.51188643150957e+002	(-1.61171331116701e+001dB,-9.00010773375920e+001°)
2.57039578276885e+002	(-1.59171320636128e+001dB,-9.00011024309389e+001°)
2.63026799189537e+002	(-1.57171309661619e+001dB,-9.00011281087083e+001°)
2.69153480392690e+002	(-1.55171298169895e+001dB,-9.00011543845079e+001°)
2.75422870333816e+002	(-1.53171286136582e+001dB,-9.00011812722617e+001°)
2.81838293126444e+002	(-1.51171273536154e+001dB,-9.00012087862177e+001°)
2.88403150312659e+002	(-1.49171260341885e+001dB,-9.00012369409551e+001°)
2.95120922666637e+002	(-1.47171246525786e+001dB,-9.00012657513927e+001°)
3.01995172040200e+002	(-1.45171232058553e+001dB,-9.00012952327957e+001°)
3.09029543251358e+002	(-1.43171216909497e+001dB,-9.00013254007849e+001°)
3.16227766016837e+002	(-1.41171201046485e+001dB,-9.00013562713438e+001°)
3.23593656929627e+002	(-1.39171184435869e+001dB,-9.00013878608280e+001°)
3.31131121482590e+002	(-1.37171167042416e+001dB,-9.00014201859732e+001°)
3.38844156139201e+002	(-1.35171148829230e+001dB,-9.00014532639043e+001°)
3.46736850452530e+002	(-1.33171129757679e+001dB,-9.00014871121441e+001°)
3.54813389233574e+002	(-1.31171109787309e+001dB,-9.00015217486230e+001°)
3.63078054770100e+002	(-1.29171088875760e+001dB,-9.00015571916880e+001°)
3.71535229097171e+002	(-1.27171066978674e+001dB,-9.00015934601124e+001°)
3.80189396320559e+002	(-1.25171044049604e+001dB,-9.00016305731060e+001°)
3.89045144994279e+002	(-1.23171020039913e+001dB,-9.00016685503248e+001°)
3.98107170553495e+002	(-1.21170994898674e+001dB,-9.00017074118814e+001°)
4.07380277804111e+002	(-1.19170968572556e+001dB,-9.00017471783558e+001°)
4.16869383470333e+002	(-1.17170941005717e+001dB,-9.00017878708059e+001°)
4.26579518801591e+002	(-1.15170912139684e+001dB,-9.00018295107786e+001°)
4.36515832240164e+002	(-1.13170881913226e+001dB,-9.00018721203214e+001°)
4.46683592150961e+002	(-1.11170850262228e+001dB,-9.00019157219933e+001°)
4.57088189614873e+002	(-1.09170817119551e+001dB,-9.00019603388772e+001°)
4.67735141287196e+002	(-1.07170782414894e+001dB,-9.00020059945917e+001°)
4.78630092322636e+002	(-1.05170746074641e+001dB,-9.00020527133036e+001°)
4.89778819368444e+002	(-1.03170708021709e+001dB,-9.00021005197402e+001°)
5.01187233627270e+002	(-1.01170668175378e+001dB,-9.00021494392027e+001°)
5.12861383991362e+002	(-9.91706264511275e+000dB,-9.00021994975788e+001°)
5.24807460249770e+002	(-9.71705827604516e+000dB,-9.00022507213567e+001°)
5.37031796370250e+002	(-9.51705370106733e+000dB,-9.00023031376388e+001°)
5.49540873857622e+002	(-9.31704891047478e+000dB,-9.00023567741553e+001°)
5.62341325190346e+002	(-9.11704389410563e+000dB,-9.00024116592794e+001°)
5.75439937337154e+002	(-8.91703864131909e+000dB,-9.00024678220413e+001°)
5.88843655355586e+002	(-8.71703314097284e+000dB,-9.00025252921439e+001°)
6.02559586074355e+002	(-8.51702738139941e+000dB,-9.00025840999775e+001°)
6.16595001861479e+002	(-8.31702135038143e+000dB,-9.00026442766362e+001°)
6.30957344480190e+002	(-8.11701503512571e+000dB,-9.00027058539336e+001°)
6.45654229034652e+002	(-7.91700842223609e+000dB,-9.00027688644192e+001°)
6.60693448007592e+002	(-7.71700149768502e+000dB,-9.00028333413953e+001°)
6.76082975391978e+002	(-7.51699424678380e+000dB,-9.00028993189342e+001°)
6.91830970918933e+002	(-7.31698665415147e+000dB,-9.00029668318956e+001°)
7.07945784384134e+002	(-7.11697870368206e+000dB,-9.00030359159445e+001°)
7.24435960074986e+002	(-6.91697037851054e+000dB,-9.00031066075695e+001°)
7.41310241300914e+002	(-6.71696166097696e+000dB,-9.00031789441017e+001°)
7.58577575029180e+002	(-6.51695253258901e+000dB,-9.00032529637334e+001°)
7.76247116628688e+002	(-6.31694297398281e+000dB,-9.00033287055378e+001°)
7.94328234724277e+002	(-6.11693296488175e+000dB,-9.00034062094888e+001°)
8.12830516164095e+002	(-5.91692248405356e+000dB,-9.00034855164814e+001°)
8.31763771102666e+002	(-5.71691150926519e+000dB,-9.00035666683523e+001°)
8.51138038202372e+002	(-5.51690001723565e+000dB,-9.00036497079014e+001°)
8.70963589956076e+002	(-5.31688798358667e+000dB,-9.00037346789129e+001°)
8.91250938133741e+002	(-5.11687538279086e+000dB,-9.00038216261778e+001°)
9.12010839355905e+002	(-4.91686218811766e+000dB,-9.00039105955159e+001°)
9.33254300796986e+002	(-4.71684837157653e+000dB,-9.00040016337995e+001°)
9.54992586021431e+002	(-4.51683390385762e+000dB,-9.00040947889761e+001°)
9.77237220955805e+002	(-4.31681875426950e+000dB,-9.00041901100925e+001°)
9.99999999999994e+002	(-4.11680289067411e+000dB,-9.00042876473194e+001°)
1.02329299228075e+003	(-3.91678627941850e+000dB,-9.00043874519761e+001°)
1.04712854805089e+003	(-3.71676888526346e+000dB,-9.00044895765554e+001°)
1.07151930523760e+003	(-3.51675067130867e+000dB,-9.00045940747503e+001°)
1.09647819614318e+003	(-3.31673159891446e+000dB,-9.00047010014793e+001°)
1.12201845430196e+003	(-3.11671162761976e+000dB,-9.00048104129140e+001°)
1.14815362149688e+003	(-2.91669071505622e+000dB,-9.00049223665058e+001°)
1.17489755493952e+003	(-2.71666881685833e+000dB,-9.00050369210142e+001°)
1.20226443461741e+003	(-2.51664588656919e+000dB,-9.00051541365345e+001°)
1.23026877081237e+003	(-2.31662187554197e+000dB,-9.00052740745272e+001°)
1.25892541179416e+003	(-2.11659673283660e+000dB,-9.00053967978470e+001°)
1.28824955169313e+003	(-1.91657040511165e+000dB,-9.00055223707723e+001°)
1.31825673855640e+003	(-1.71654283651113e+000dB,-9.00056508590362e+001°)
1.34896288259165e+003	(-1.51651396854586e+000dB,-9.00057823298567e+001°)
1.38038426460288e+003	(-1.31648373996935e+000dB,-9.00059168519684e+001°)
1.41253754462275e+003	(-1.11645208664774e+000dB,-9.00060544956540e+001°)
1.44543977074592e+003	(-9.16418941423643e-001dB,-9.00061953327767e+001°)
1.47910838816820e+003	(-7.16384233973590e-001dB,-9.00063394368131e+001°)
1.51356124843620e+003	(-5.16347890658650e-001dB,-9.00064868828862e+001°)
1.54881661891247e+003	(-3.16309834368114e-001dB,-9.00066377477991e+001°)
1.58489319246110e+003	(-1.16269984355718e-001dB,-9.00067921100696e+001°)
1.62181009735892e+003	(8.37717439318009e-002dB,-9.00069500499642e+001°)
1.65958690743755e+003	(2.83815439034315e-001dB,-9.00071116495336e+001°)
1.69824365246173e+003	(4.83861193666316e-001dB,-9.00072769926476e+001°)
1.73780082874936e+003	(6.83909104913855e-001dB,-9.00074461650314e+001°)
1.77827941003891e+003	(8.83959274440787e-001dB,-9.00076192543017e+001°)
1.81970085860997e+003	(1.08401180870469e+000dB,-9.00077963500030e+001°)
1.86208713666286e+003	(1.28406681918307e+000dB,-9.00079775436444e+001°)
1.90546071796323e+003	(1.48412442261017e+000dB,-9.00081629287369e+001°)
1.94984459975803e+003	(1.68418474122504e+000dB,-9.00083526008309e+001°)
1.99526231496887e+003	(1.88424790303122e+000dB,-9.00085466575531e+001°)
2.04173794466952e+003	(2.08431404206886e+000dB,-9.00087451986450e+001°)
2.08929613085403e+003	(2.28438329869947e+000dB,-9.00089483260003e+001°)
2.13796208950222e+003	(2.48445581990436e+000dB,-9.00091561437025e+001°)
2.18776162394954e+003	(2.68453175959702e+000dB,-9.00093687580636e+001°)
2.23872113856832e+003	(2.88461127895034e+000dB,-9.00095862776612e+001°)
2.29086765276776e+003	(3.08469454673929e+000dB,-9.00098088133766e+001°)
2.34422881531991e+003	(3.28478173969978e+000dB,-9.00100364784322e+001°)
2.39883291901947e+003	(3.48487304290451e+000dB,-9.00102693884286e+001°)
2.45470891568501e+003	(3.68496865015660e+000dB,-9.00105076613818e+001°)
2.51188643150956e+003	(3.88506876440184e+000dB,-9.00107514177590e+001°)
2.57039578276885e+003	(4.08517359816042e+000dB,-9.00110007805152e+001°)
2.63026799189536e+003	(4.28528337397914e+000dB,-9.00112558751275e+001°)
2.69153480392690e+003	(4.48539832490497e+000dB,-9.00115168296300e+001°)
2.75422870333815e+003	(4.68551869498105e+000dB,-9.00117837746468e+001°)
2.81838293126443e+003	(4.88564473976619e+000dB,-9.00120568434242e+001°)
2.88403150312659e+003	(5.08577672687899e+000dB,-9.00123361718620e+001°)
2.95120922666636e+003	(5.28591493656767e+000dB,-9.00126218985429e+001°)
3.01995172040199e+003	(5.48605966230696e+000dB,-9.00129141647599e+001°)
3.09029543251357e+003	(5.68621121142326e+000dB,-9.00132131145432e+001°)
3.16227766016836e+003	(5.88636990574946e+000dB,-9.00135188946835e+001°)
3.23593656929626e+003	(6.08653608231077e+000dB,-9.00138316547544e+001°)
3.31131121482589e+003	(6.28671009404311e+000dB,-9.00141515471306e+001°)
3.38844156139200e+003	(6.48689231054560e+000dB,-9.00144787270054e+001°)
3.46736850452529e+003	(6.68708311886876e+000dB,-9.00148133524028e+001°)
3.54813389233573e+003	(6.88728292434010e+000dB,-9.00151555841882e+001°)
3.63078054770099e+003	(7.08749215142898e+000dB,-9.00155055860735e+001°)
3.71535229097170e+003	(7.28771124465253e+000dB,-9.00158635246194e+001°)
3.80189396320558e+003	(7.48794066952463e+000dB,-9.00162295692324e+001°)
3.89045144994278e+003	(7.68818091355003e+000dB,-9.00166038921565e+001°)
3.98107170553494e+003	(7.88843248726579e+000dB,-9.00169866684604e+001°)
4.07380277804110e+003	(8.08869592533220e+000dB,-9.00173780760177e+001°)
4.16869383470332e+003	(8.28897178767576e+000dB,-9.00177782954805e+001°)
4.26579518801589e+003	(8.48926066068651e+000dB,-9.00181875102470e+001°)
4.36515832240162e+003	(8.68956315847247e+000dB,-9.00186059064195e+001°)
4.46683592150960e+003	(8.88987992417393e+000dB,-9.00190336727554e+001°)
4.57088189614871e+003	(9.09021163134041e+000dB,-9.00194710006081e+001°)
4.67735141287194e+003	(9.29055898537332e+000dB,-9.00199180838581e+001°)
4.78630092322634e+003	(9.49092272503766e+000dB,-9.00203751188330e+001°)
4.89778819368442e+003	(9.69130362404587e+000dB,-9.00208423042160e+001°)
5.01187233627268e+003	(9.89170249271743e+000dB,-9.00213198409409e+001°)
5.12861383991361e+003	(1.00921201797180e+001dB,-9.00218079320738e+001°)
5.24807460249768e+003	(1.02925575738818e+001dB,-9.00223067826793e+001°)
5.37031796370248e+003	(1.04930156061212e+001dB,-9.00228165996704e+001°)
