Freq.	V(vout)
1.00000000000000e+003	(-1.11635588493980e+002dB,1.79818436146141e+002°)
1.00230523807790e+003	(-1.11595567184259e+002dB,1.79818017471691e+002°)
1.00461579027840e+003	(-1.11555545776151e+002dB,1.79817597831219e+002°)
1.00693166885180e+003	(-1.11515524269200e+002dB,1.79817177222493e+002°)
1.00925288607668e+003	(-1.11475502662952e+002dB,1.79816755643273e+002°)
1.01157945425990e+003	(-1.11435480956946e+002dB,1.79816333091317e+002°)
1.01391138573668e+003	(-1.11395459150723e+002dB,1.79815909564376e+002°)
1.01624869287070e+003	(-1.11355437243819e+002dB,1.79815485060197e+002°)
1.01859138805412e+003	(-1.11315415235770e+002dB,1.79815059576519e+002°)
1.02093948370768e+003	(-1.11275393126107e+002dB,1.79814633111080e+002°)
1.02329299228075e+003	(-1.11235370914363e+002dB,1.79814205661608e+002°)
1.02565192625141e+003	(-1.11195348600066e+002dB,1.79813777225831e+002°)
1.02801629812647e+003	(-1.11155326182741e+002dB,1.79813347801466e+002°)
1.03038612044162e+003	(-1.11115303661914e+002dB,1.79812917386229e+002°)
1.03276140576140e+003	(-1.11075281037106e+002dB,1.79812485977830e+002°)
1.03514216667934e+003	(-1.11035258307836e+002dB,1.79812053573971e+002°)
1.03752841581801e+003	(-1.10995235473623e+002dB,1.79811620172352e+002°)
1.03992016582906e+003	(-1.10955212533982e+002dB,1.79811185770666e+002°)
1.04231742939330e+003	(-1.10915189488426e+002dB,1.79810750366600e+002°)
1.04472021922080e+003	(-1.10875166336466e+002dB,1.79810313957837e+002°)
1.04712854805090e+003	(-1.10835143077609e+002dB,1.79809876542055e+002°)
1.04954242865232e+003	(-1.10795119711364e+002dB,1.79809438116924e+002°)
1.05196187382322e+003	(-1.10755096237233e+002dB,1.79808998680112e+002°)
1.05438689639126e+003	(-1.10715072654718e+002dB,1.79808558229278e+002°)
1.05681750921366e+003	(-1.10675048963319e+002dB,1.79808116762079e+002°)
1.05925372517729e+003	(-1.10635025162533e+002dB,1.79807674276165e+002°)
1.06169555719872e+003	(-1.10595001251854e+002dB,1.79807230769179e+002°)
1.06414301822431e+003	(-1.10554977230776e+002dB,1.79806786238761e+002°)
1.06659612123026e+003	(-1.10514953098788e+002dB,1.79806340682544e+002°)
1.06905487922266e+003	(-1.10474928855378e+002dB,1.79805894098157e+002°)
1.07151930523761e+003	(-1.10434904500031e+002dB,1.79805446483221e+002°)
1.07398941234124e+003	(-1.10394880032230e+002dB,1.79804997835355e+002°)
1.07646521362983e+003	(-1.10354855451457e+002dB,1.79804548152168e+002°)
1.07894672222983e+003	(-1.10314830757189e+002dB,1.79804097431268e+002°)
1.08143395129794e+003	(-1.10274805948902e+002dB,1.79803645670254e+002°)
1.08392691402120e+003	(-1.10234781026069e+002dB,1.79803192866720e+002°)
1.08642562361706e+003	(-1.10194755988162e+002dB,1.79802739018257e+002°)
1.08893009333343e+003	(-1.10154730834648e+002dB,1.79802284122448e+002°)
1.09144033644875e+003	(-1.10114705564995e+002dB,1.79801828176870e+002°)
1.09395636627209e+003	(-1.10074680178664e+002dB,1.79801371179096e+002°)
1.09647819614318e+003	(-1.10034654675119e+002dB,1.79800913126692e+002°)
1.09900583943252e+003	(-1.09994629053817e+002dB,1.79800454017220e+002°)
1.10153930954141e+003	(-1.09954603314214e+002dB,1.79799993848233e+002°)
1.10407861990207e+003	(-1.09914577455764e+002dB,1.79799532617283e+002°)
1.10662378397766e+003	(-1.09874551477918e+002dB,1.79799070321913e+002°)
1.10917481526240e+003	(-1.09834525380124e+002dB,1.79798606959660e+002°)
1.11173172728159e+003	(-1.09794499161829e+002dB,1.79798142528058e+002°)
1.11429453359173e+003	(-1.09754472822476e+002dB,1.79797677024633e+002°)
1.11686324778056e+003	(-1.09714446361505e+002dB,1.79797210446906e+002°)
1.11943788346715e+003	(-1.09674419778356e+002dB,1.79796742792391e+002°)
1.12201845430196e+003	(-1.09634393072463e+002dB,1.79796274058599e+002°)
1.12460497396692e+003	(-1.09594366243261e+002dB,1.79795804243033e+002°)
1.12719745617551e+003	(-1.09554339290178e+002dB,1.79795333343190e+002°)
1.12979591467279e+003	(-1.09514312212644e+002dB,1.79794861356563e+002°)
1.13240036323555e+003	(-1.09474285010082e+002dB,1.79794388280637e+002°)
1.13501081567231e+003	(-1.09434257681917e+002dB,1.79793914112893e+002°)
1.13762728582343e+003	(-1.09394230227566e+002dB,1.79793438850805e+002°)
1.14024978756117e+003	(-1.09354202646449e+002dB,1.79792962491841e+002°)
1.14287833478977e+003	(-1.09314174937979e+002dB,1.79792485033464e+002°)
1.14551294144553e+003	(-1.09274147101567e+002dB,1.79792006473130e+002°)
1.14815362149688e+003	(-1.09234119136624e+002dB,1.79791526808291e+002°)
1.15080038894443e+003	(-1.09194091042555e+002dB,1.79791046036391e+002°)
1.15345325782109e+003	(-1.09154062818764e+002dB,1.79790564154869e+002°)
1.15611224219210e+003	(-1.09114034464651e+002dB,1.79790081161158e+002°)
1.15877735615512e+003	(-1.09074005979615e+002dB,1.79789597052684e+002°)
1.16144861384034e+003	(-1.09033977363051e+002dB,1.79789111826868e+002°)
1.16412602941049e+003	(-1.08993948614352e+002dB,1.79788625481126e+002°)
1.16680961706096e+003	(-1.08953919732906e+002dB,1.79788138012866e+002°)
1.16949939101987e+003	(-1.08913890718101e+002dB,1.79787649419490e+002°)
1.17219536554813e+003	(-1.08873861569321e+002dB,1.79787159698397e+002°)
1.17489755493953e+003	(-1.08833832285947e+002dB,1.79786668846975e+002°)
1.17760597352080e+003	(-1.08793802867358e+002dB,1.79786176862610e+002°)
1.18032063565173e+003	(-1.08753773312928e+002dB,1.79785683742681e+002°)
1.18304155572516e+003	(-1.08713743622030e+002dB,1.79785189484560e+002°)
1.18576874816716e+003	(-1.08673713794034e+002dB,1.79784694085612e+002°)
1.18850222743701e+003	(-1.08633683828307e+002dB,1.79784197543199e+002°)
1.19124200802737e+003	(-1.08593653724212e+002dB,1.79783699854673e+002°)
1.19398810446427e+003	(-1.08553623481111e+002dB,1.79783201017383e+002°)
1.19674053130724e+003	(-1.08513593098360e+002dB,1.79782701028671e+002°)
1.19949930314937e+003	(-1.08473562575315e+002dB,1.79782199885872e+002°)
1.20226443461741e+003	(-1.08433531911328e+002dB,1.79781697586315e+002°)
1.20503594037179e+003	(-1.08393501105748e+002dB,1.79781194127322e+002°)
1.20781383510678e+003	(-1.08353470157921e+002dB,1.79780689506212e+002°)
1.21059813355048e+003	(-1.08313439067190e+002dB,1.79780183720293e+002°)
1.21338885046497e+003	(-1.08273407832894e+002dB,1.79779676766871e+002°)
1.21618600064636e+003	(-1.08233376454370e+002dB,1.79779168643243e+002°)
1.21898959892486e+003	(-1.08193344930953e+002dB,1.79778659346701e+002°)
1.22179966016487e+003	(-1.08153313261973e+002dB,1.79778148874530e+002°)
1.22461619926504e+003	(-1.08113281446756e+002dB,1.79777637224009e+002°)
1.22743923115840e+003	(-1.08073249484629e+002dB,1.79777124392410e+002°)
1.23026877081238e+003	(-1.08033217374912e+002dB,1.79776610377001e+002°)
1.23310483322890e+003	(-1.07993185116923e+002dB,1.79776095175040e+002°)
1.23594743344450e+003	(-1.07953152709978e+002dB,1.79775578783781e+002°)
1.23879658653036e+003	(-1.07913120153388e+002dB,1.79775061200472e+002°)
1.24165230759241e+003	(-1.07873087446462e+002dB,1.79774542422352e+002°)
1.24451461177138e+003	(-1.07833054588506e+002dB,1.79774022446657e+002°)
1.24738351424294e+003	(-1.07793021578822e+002dB,1.79773501270613e+002°)
1.25025903021771e+003	(-1.07752988416708e+002dB,1.79772978891442e+002°)
1.25314117494141e+003	(-1.07712955101461e+002dB,1.79772455306359e+002°)
1.25602996369487e+003	(-1.07672921632374e+002dB,1.79771930512571e+002°)
1.25892541179416e+003	(-1.07632888008735e+002dB,1.79771404507282e+002°)
1.26182753459066e+003	(-1.07592854229831e+002dB,1.79770877287686e+002°)
1.26473634747115e+003	(-1.07552820294944e+002dB,1.79770348850971e+002°)
1.26765186585784e+003	(-1.07512786203355e+002dB,1.79769819194320e+002°)
1.27057410520854e+003	(-1.07472751954338e+002dB,1.79769288314908e+002°)
1.27350308101666e+003	(-1.07432717547166e+002dB,1.79768756209904e+002°)
1.27643880881134e+003	(-1.07392682981110e+002dB,1.79768222876471e+002°)
1.27938130415752e+003	(-1.07352648255434e+002dB,1.79767688311763e+002°)
1.28233058265601e+003	(-1.07312613369402e+002dB,1.79767152512931e+002°)
1.28528665994361e+003	(-1.07272578322273e+002dB,1.79766615477117e+002°)
1.28824955169313e+003	(-1.07232543113302e+002dB,1.79766077201456e+002°)
1.29121927361353e+003	(-1.07192507741742e+002dB,1.79765537683077e+002°)
1.29419584144998e+003	(-1.07152472206842e+002dB,1.79764996919103e+002°)
1.29717927098395e+003	(-1.07112436507847e+002dB,1.79764454906649e+002°)
1.30016957803328e+003	(-1.07072400643998e+002dB,1.79763911642824e+002°)
1.30316677845229e+003	(-1.07032364614535e+002dB,1.79763367124730e+002°)
1.30617088813183e+003	(-1.06992328418692e+002dB,1.79762821349463e+002°)
1.30918192299940e+003	(-1.06952292055701e+002dB,1.79762274314110e+002°)
1.31219989901920e+003	(-1.06912255524789e+002dB,1.79761726015754e+002°)
1.31522483219223e+003	(-1.06872218825180e+002dB,1.79761176451470e+002°)
1.31825673855640e+003	(-1.06832181956095e+002dB,1.79760625618325e+002°)
1.32129563418657e+003	(-1.06792144916752e+002dB,1.79760073513381e+002°)
1.32434153519466e+003	(-1.06752107706363e+002dB,1.79759520133692e+002°)
1.32739445772973e+003	(-1.06712070324138e+002dB,1.79758965476306e+002°)
1.33045441797808e+003	(-1.06672032769283e+002dB,1.79758409538263e+002°)
1.33352143216332e+003	(-1.06631995041002e+002dB,1.79757852316597e+002°)
1.33659551654643e+003	(-1.06591957138491e+002dB,1.79757293808335e+002°)
1.33967668742593e+003	(-1.06551919060948e+002dB,1.79756734010495e+002°)
1.34276496113786e+003	(-1.06511880807562e+002dB,1.79756172920092e+002°)
1.34586035405594e+003	(-1.06471842377521e+002dB,1.79755610534130e+002°)
1.34896288259165e+003	(-1.06431803770010e+002dB,1.79755046849609e+002°)
1.35207256319427e+003	(-1.06391764984208e+002dB,1.79754481863521e+002°)
1.35518941235103e+003	(-1.06351726019292e+002dB,1.79753915572849e+002°)
1.35831344658715e+003	(-1.06311686874433e+002dB,1.79753347974572e+002°)
1.36144468246594e+003	(-1.06271647548801e+002dB,1.79752779065660e+002°)
1.36458313658892e+003	(-1.06231608041560e+002dB,1.79752208843078e+002°)
1.36772882559584e+003	(-1.06191568351872e+002dB,1.79751637303780e+002°)
1.37088176616484e+003	(-1.06151528478893e+002dB,1.79751064444717e+002°)
1.37404197501251e+003	(-1.06111488421776e+002dB,1.79750490262830e+002°)
1.37720946889394e+003	(-1.06071448179671e+002dB,1.79749914755056e+002°)
1.38038426460288e+003	(-1.06031407751722e+002dB,1.79749337918320e+002°)
1.38356637897177e+003	(-1.05991367137072e+002dB,1.79748759749545e+002°)
1.38675582887188e+003	(-1.05951326334857e+002dB,1.79748180245643e+002°)
1.38995263121334e+003	(-1.05911285344211e+002dB,1.79747599403521e+002°)
1.39315680294529e+003	(-1.05871244164263e+002dB,1.79747017220077e+002°)
1.39636836105593e+003	(-1.05831202794139e+002dB,1.79746433692204e+002°)
1.39958732257261e+003	(-1.05791161232960e+002dB,1.79745848816785e+002°)
1.40281370456195e+003	(-1.05751119479842e+002dB,1.79745262590699e+002°)
1.40604752412990e+003	(-1.05711077533900e+002dB,1.79744675010813e+002°)
1.40928879842186e+003	(-1.05671035394241e+002dB,1.79744086073992e+002°)
1.41253754462274e+003	(-1.05630993059972e+002dB,1.79743495777090e+002°)
1.41579377995707e+003	(-1.05590950530193e+002dB,1.79742904116955e+002°)
1.41905752168908e+003	(-1.05550907804000e+002dB,1.79742311090427e+002°)
1.42232878712281e+003	(-1.05510864880486e+002dB,1.79741716694340e+002°)
1.42560759360218e+003	(-1.05470821758739e+002dB,1.79741120925518e+002°)
1.42889395851109e+003	(-1.05430778437843e+002dB,1.79740523780780e+002°)
1.43218789927353e+003	(-1.05390734916878e+002dB,1.79739925256937e+002°)
1.43548943335364e+003	(-1.05350691194919e+002dB,1.79739325350791e+002°)
1.43879857825583e+003	(-1.05310647271038e+002dB,1.79738724059139e+002°)
1.44211535152486e+003	(-1.05270603144301e+002dB,1.79738121378768e+002°)
1.44543977074592e+003	(-1.05230558813771e+002dB,1.79737517306459e+002°)
1.44877185354475e+003	(-1.05190514278507e+002dB,1.79736911838986e+002°)
1.45211161758773e+003	(-1.05150469537563e+002dB,1.79736304973114e+002°)
1.45545908058195e+003	(-1.05110424589987e+002dB,1.79735696705600e+002°)
1.45881426027534e+003	(-1.05070379434825e+002dB,1.79735087033196e+002°)
1.46217717445671e+003	(-1.05030334071118e+002dB,1.79734475952643e+002°)
1.46554784095590e+003	(-1.04990288497903e+002dB,1.79733863460677e+002°)
1.46892627764385e+003	(-1.04950242714210e+002dB,1.79733249554026e+002°)
1.47231250243271e+003	(-1.04910196719067e+002dB,1.79732634229408e+002°)
1.47570653327588e+003	(-1.04870150511498e+002dB,1.79732017483537e+002°)
1.47910838816819e+003	(-1.04830104090521e+002dB,1.79731399313117e+002°)
1.48251808514594e+003	(-1.04790057455148e+002dB,1.79730779714843e+002°)
1.48593564228699e+003	(-1.04750010604391e+002dB,1.79730158685406e+002°)
1.48936107771090e+003	(-1.04709963537252e+002dB,1.79729536221485e+002°)
1.49279440957898e+003	(-1.04669916252733e+002dB,1.79728912319755e+002°)
1.49623565609442e+003	(-1.04629868749828e+002dB,1.79728286976881e+002°)
1.49968483550236e+003	(-1.04589821027530e+002dB,1.79727660189521e+002°)
1.50314196609001e+003	(-1.04549773084822e+002dB,1.79727031954324e+002°)
1.50660706618673e+003	(-1.04509724920688e+002dB,1.79726402267932e+002°)
1.51008015416413e+003	(-1.04469676534103e+002dB,1.79725771126980e+002°)
1.51356124843619e+003	(-1.04429627924041e+002dB,1.79725138528093e+002°)
1.51705036745932e+003	(-1.04389579089467e+002dB,1.79724504467891e+002°)
1.52054752973248e+003	(-1.04349530029344e+002dB,1.79723868942982e+002°)
1.52405275379728e+003	(-1.04309480742630e+002dB,1.79723231949970e+002°)
1.52756605823806e+003	(-1.04269431228279e+002dB,1.79722593485450e+002°)
1.53108746168201e+003	(-1.04229381485237e+002dB,1.79721953546006e+002°)
1.53461698279928e+003	(-1.04189331512447e+002dB,1.79721312128218e+002°)
1.53815464030302e+003	(-1.04149281308849e+002dB,1.79720669228657e+002°)
1.54170045294954e+003	(-1.04109230873375e+002dB,1.79720024843883e+002°)
1.54525443953840e+003	(-1.04069180204954e+002dB,1.79719378970453e+002°)
1.54881661891247e+003	(-1.04029129302509e+002dB,1.79718731604910e+002°)
1.55238700995807e+003	(-1.03989078164959e+002dB,1.79718082743795e+002°)
1.55596563160506e+003	(-1.03949026791216e+002dB,1.79717432383636e+002°)
1.55955250282694e+003	(-1.03908975180190e+002dB,1.79716780520954e+002°)
1.56314764264094e+003	(-1.03868923330783e+002dB,1.79716127152265e+002°)
1.56675107010813e+003	(-1.03828871241894e+002dB,1.79715472274073e+002°)
1.57036280433354e+003	(-1.03788818912417e+002dB,1.79714815882874e+002°)
1.57398286446620e+003	(-1.03748766341238e+002dB,1.79714157975159e+002°)
1.57761126969933e+003	(-1.03708713527241e+002dB,1.79713498547407e+002°)
1.58124803927037e+003	(-1.03668660469304e+002dB,1.79712837596091e+002°)
1.58489319246110e+003	(-1.03628607166299e+002dB,1.79712175117674e+002°)
1.58854674859776e+003	(-1.03588553617094e+002dB,1.79711511108614e+002°)
1.59220872705115e+003	(-1.03548499820550e+002dB,1.79710845565356e+002°)
1.59587914723672e+003	(-1.03508445775525e+002dB,1.79710178484341e+002°)
1.59955802861465e+003	(-1.03468391480869e+002dB,1.79709509861998e+002°)
1.60324539069002e+003	(-1.03428336935430e+002dB,1.79708839694750e+002°)
1.60694125301286e+003	(-1.03388282138047e+002dB,1.79708167979011e+002°)
1.61064563517825e+003	(-1.03348227087557e+002dB,1.79707494711186e+002°)
1.61435855682647e+003	(-1.03308171782789e+002dB,1.79706819887672e+002°)
1.61808003764305e+003	(-1.03268116222569e+002dB,1.79706143504857e+002°)
1.62181009735891e+003	(-1.03228060405715e+002dB,1.79705465559122e+002°)
1.62554875575047e+003	(-1.03188004331041e+002dB,1.79704786046838e+002°)
1.62929603263970e+003	(-1.03147947997355e+002dB,1.79704104964368e+002°)
1.63305194789432e+003	(-1.03107891403461e+002dB,1.79703422308066e+002°)
1.63681652142779e+003	(-1.03067834548155e+002dB,1.79702738074278e+002°)
1.64058977319952e+003	(-1.03027777430229e+002dB,1.79702052259341e+002°)
1.64437172321491e+003	(-1.02987720048469e+002dB,1.79701364859583e+002°)
1.64816239152549e+003	(-1.02947662401656e+002dB,1.79700675871325e+002°)
1.65196179822900e+003	(-1.02907604488565e+002dB,1.79699985290877e+002°)
1.65576996346951e+003	(-1.02867546307964e+002dB,1.79699293114542e+002°)
1.65958690743754e+003	(-1.02827487858617e+002dB,1.79698599338614e+002°)
1.66341265037015e+003	(-1.02787429139281e+002dB,1.79697903959378e+002°)
1.66724721255104e+003	(-1.02747370148709e+002dB,1.79697206973110e+002°)
1.67109061431069e+003	(-1.02707310885647e+002dB,1.79696508376078e+002°)
1.67494287602642e+003	(-1.02667251348835e+002dB,1.79695808164540e+002°)
1.67880401812254e+003	(-1.02627191537008e+002dB,1.79695106334746e+002°)
1.68267406107045e+003	(-1.02587131448894e+002dB,1.79694402882938e+002°)
1.68655302538872e+003	(-1.02547071083217e+002dB,1.79693697805347e+002°)
1.69044093164324e+003	(-1.02507010438692e+002dB,1.79692991098197e+002°)
1.69433780044731e+003	(-1.02466949514032e+002dB,1.79692282757702e+002°)
1.69824365246172e+003	(-1.02426888307940e+002dB,1.79691572780068e+002°)
1.70215850839493e+003	(-1.02386826819116e+002dB,1.79690861161492e+002°)
1.70608238900310e+003	(-1.02346765046254e+002dB,1.79690147898160e+002°)
1.71001531509027e+003	(-1.02306702988039e+002dB,1.79689432986251e+002°)
1.71395730750840e+003	(-1.02266640643153e+002dB,1.79688716421936e+002°)
1.71790838715757e+003	(-1.02226578010270e+002dB,1.79687998201373e+002°)
1.72186857498598e+003	(-1.02186515088059e+002dB,1.79687278320716e+002°)
1.72583789199018e+003	(-1.02146451875182e+002dB,1.79686556776105e+002°)
1.72981635921508e+003	(-1.02106388370296e+002dB,1.79685833563676e+002°)
1.73380399775412e+003	(-1.02066324572050e+002dB,1.79685108679550e+002°)
1.73780082874935e+003	(-1.02026260479089e+002dB,1.79684382119844e+002°)
1.74180687339159e+003	(-1.01986196090050e+002dB,1.79683653880664e+002°)
1.74582215292048e+003	(-1.01946131403563e+002dB,1.79682923958105e+002°)
1.74984668862463e+003	(-1.01906066418254e+002dB,1.79682192348256e+002°)
1.75388050184174e+003	(-1.01866001132741e+002dB,1.79681459047194e+002°)
1.75792361395867e+003	(-1.01825935545637e+002dB,1.79680724050988e+002°)
1.76197604641161e+003	(-1.01785869655546e+002dB,1.79679987355698e+002°)
1.76603782068614e+003	(-1.01745803461069e+002dB,1.79679248957374e+002°)
1.77010895831740e+003	(-1.01705736960797e+002dB,1.79678508852057e+002°)
1.77418948089014e+003	(-1.01665670153317e+002dB,1.79677767035779e+002°)
1.77827941003890e+003	(-1.01625603037208e+002dB,1.79677023504562e+002°)
1.78237876744807e+003	(-1.01585535611044e+002dB,1.79676278254418e+002°)
1.78648757485203e+003	(-1.01545467873391e+002dB,1.79675531281351e+002°)
1.79060585403527e+003	(-1.01505399822809e+002dB,1.79674782581356e+002°)
1.79473362683250e+003	(-1.01465331457850e+002dB,1.79674032150415e+002°)
1.79887091512876e+003	(-1.01425262777062e+002dB,1.79673279984505e+002°)
1.80301774085954e+003	(-1.01385193778984e+002dB,1.79672526079590e+002°)
1.80717412601090e+003	(-1.01345124462148e+002dB,1.79671770431627e+002°)
1.81134009261958e+003	(-1.01305054825082e+002dB,1.79671013036562e+002°)
1.81551566277311e+003	(-1.01264984866304e+002dB,1.79670253890332e+002°)
1.81970085860996e+003	(-1.01224914584326e+002dB,1.79669492988863e+002°)
1.82389570231961e+003	(-1.01184843977655e+002dB,1.79668730328074e+002°)
1.82810021614272e+003	(-1.01144773044789e+002dB,1.79667965903871e+002°)
1.83231442237119e+003	(-1.01104701784219e+002dB,1.79667199712154e+002°)
1.83653834334832e+003	(-1.01064630194430e+002dB,1.79666431748810e+002°)
1.84077200146893e+003	(-1.01024558273901e+002dB,1.79665662009718e+002°)
1.84501541917945e+003	(-1.00984486021100e+002dB,1.79664890490747e+002°)
1.84926861897805e+003	(-1.00944413434493e+002dB,1.79664117187757e+002°)
1.85353162341478e+003	(-1.00904340512536e+002dB,1.79663342096596e+002°)
1.85780445509167e+003	(-1.00864267253677e+002dB,1.79662565213104e+002°)
1.86208713666284e+003	(-1.00824193656359e+002dB,1.79661786533110e+002°)
1.86637969083464e+003	(-1.00784119719016e+002dB,1.79661006052435e+002°)
1.87068214036577e+003	(-1.00744045440077e+002dB,1.79660223766888e+002°)
1.87499450806739e+003	(-1.00703970817961e+002dB,1.79659439672269e+002°)
1.87931681680324e+003	(-1.00663895851082e+002dB,1.79658653764369e+002°)
1.88364908948977e+003	(-1.00623820537845e+002dB,1.79657866038966e+002°)
1.88799134909627e+003	(-1.00583744876649e+002dB,1.79657076491831e+002°)
