Freq.	V(vo)/V(vm)
1.00000000000000e+000	(-3.51347365646342e+001dB,-5.87420956328994e-003°)
1.02329299228075e+000	(-3.51347366750139e+001dB,-6.01103749719688e-003°)
1.04712854805090e+000	(-3.51347367905957e+001dB,-6.15105256425366e-003°)
1.07151930523761e+000	(-3.51347369116247e+001dB,-6.29432900239973e-003°)
1.09647819614318e+000	(-3.51347370383576e+001dB,-6.44094277882739e-003°)
1.12201845430196e+000	(-3.51347371710633e+001dB,-6.59097163020639e-003°)
1.14815362149688e+000	(-3.51347373100232e+001dB,-6.74449510396746e-003°)
1.17489755493953e+000	(-3.51347374555320e+001dB,-6.90159460040930e-003°)
1.20226443461741e+000	(-3.51347376078985e+001dB,-7.06235341594092e-003°)
1.23026877081238e+000	(-3.51347377674458e+001dB,-7.22685678715890e-003°)
1.25892541179417e+000	(-3.51347379345124e+001dB,-7.39519193611130e-003°)
1.28824955169313e+000	(-3.51347381094525e+001dB,-7.56744811651258e-003°)
1.31825673855641e+000	(-3.51347382926373e+001dB,-7.74371666104894e-003°)
1.34896288259165e+000	(-3.51347384844554e+001dB,-7.92409102987316e-003°)
1.38038426460288e+000	(-3.51347386853136e+001dB,-8.10866686007325e-003°)
1.41253754462275e+000	(-3.51347388956379e+001dB,-8.29754201646154e-003°)
1.44543977074593e+000	(-3.51347391158745e+001dB,-8.49081664339721e-003°)
1.47910838816821e+000	(-3.51347393464906e+001dB,-8.68859321792903e-003°)
1.51356124843621e+000	(-3.51347395879752e+001dB,-8.89097660411660e-003°)
1.54881661891248e+000	(-3.51347398408407e+001dB,-9.09807410862644e-003°)
1.58489319246111e+000	(-3.51347401056234e+001dB,-9.30999553768259e-003°)
1.62181009735893e+000	(-3.51347403828849e+001dB,-9.52685325515304e-003°)
1.65958690743756e+000	(-3.51347406732134e+001dB,-9.74876224227746e-003°)
1.69824365246174e+000	(-3.51347409772246e+001dB,-9.97584015857618e-003°)
1.73780082874937e+000	(-3.51347412955634e+001dB,-1.02082074042360e-002°)
1.77827941003892e+000	(-3.51347416289052e+001dB,-1.04459871839161e-002°)
1.81970085860998e+000	(-3.51347419779568e+001dB,-1.06893055721435e-002°)
1.86208713666287e+000	(-3.51347423434587e+001dB,-1.09382915800843e-002°)
1.90546071796325e+000	(-3.51347427261863e+001dB,-1.11930772240520e-002°)
1.94984459975804e+000	(-3.51347431269512e+001dB,-1.14537975953799e-002°)
1.99526231496888e+000	(-3.51347435466036e+001dB,-1.17205909321784e-002°)
2.04173794466953e+000	(-3.51347439860337e+001dB,-1.19935986925480e-002°)
2.08929613085404e+000	(-3.51347444461735e+001dB,-1.22729656295917e-002°)
2.13796208950223e+000	(-3.51347449279991e+001dB,-1.25588398682296e-002°)
2.18776162394955e+000	(-3.51347454325323e+001dB,-1.28513729836313e-002°)
2.23872113856834e+000	(-3.51347459608436e+001dB,-1.31507200817858e-002°)
2.29086765276777e+000	(-3.51347465140535e+001dB,-1.34570398814856e-002°)
2.34422881531992e+000	(-3.51347470933353e+001dB,-1.37704947986347e-002°)
2.39883291901949e+000	(-3.51347476999179e+001dB,-1.40912510324487e-002°)
2.45470891568503e+000	(-3.51347483350879e+001dB,-1.44194786533829e-002°)
2.51188643150958e+000	(-3.51347490001926e+001dB,-1.47553516934240e-002°)
2.57039578276886e+000	(-3.51347496966428e+001dB,-1.50990482384275e-002°)
2.63026799189538e+000	(-3.51347504259157e+001dB,-1.54507505224225e-002°)
2.69153480392691e+000	(-3.51347511895583e+001dB,-1.58106450242741e-002°)
2.75422870333816e+000	(-3.51347519891903e+001dB,-1.61789225667279e-002°)
2.81838293126445e+000	(-3.51347528265079e+001dB,-1.65557784172516e-002°)
2.88403150312660e+000	(-3.51347537032871e+001dB,-1.69414123919445e-002°)
2.95120922666638e+000	(-3.51347546213877e+001dB,-1.73360289612850e-002°)
3.01995172040201e+000	(-3.51347555827573e+001dB,-1.77398373586066e-002°)
3.09029543251359e+000	(-3.51347565894348e+001dB,-1.81530516910245e-002°)
3.16227766016837e+000	(-3.51347576435558e+001dB,-1.85758910530286e-002°)
3.23593656929628e+000	(-3.51347587473561e+001dB,-1.90085796425291e-002°)
3.31131121482591e+000	(-3.51347599031770e+001dB,-1.94513468799826e-002°)
3.38844156139202e+000	(-3.51347611134703e+001dB,-1.99044275297953e-002°)
3.46736850452531e+000	(-3.51347623808031e+001dB,-2.03680618249556e-002°)
3.54813389233575e+000	(-3.51347637078637e+001dB,-2.08424955943873e-002°)
3.63078054770101e+000	(-3.51347650974669e+001dB,-2.13279803933401e-002°)
3.71535229097172e+000	(-3.51347665525604e+001dB,-2.18247736367623e-002°)
3.80189396320560e+000	(-3.51347680762305e+001dB,-2.23331387357917e-002°)
3.89045144994280e+000	(-3.51347696717094e+001dB,-2.28533452374003e-002°)
3.98107170553496e+000	(-3.51347713423811e+001dB,-2.33856689675325e-002°)
4.07380277804112e+000	(-3.51347730917895e+001dB,-2.39303921771595e-002°)
4.16869383470335e+000	(-3.51347749236454e+001dB,-2.44878036919889e-002°)
4.26579518801592e+000	(-3.51347768418344e+001dB,-2.50581990658065e-002°)
4.36515832240165e+000	(-3.51347788504253e+001dB,-2.56418807369853e-002°)
4.46683592150962e+000	(-3.51347809536787e+001dB,-2.62391581890844e-002°)
4.57088189614874e+000	(-3.51347831560560e+001dB,-2.68503481147979e-002°)
4.67735141287197e+000	(-3.51347854622287e+001dB,-2.74757745841081e-002°)
4.78630092322637e+000	(-3.51347878770886e+001dB,-2.81157692158261e-002°)
4.89778819368445e+000	(-3.51347904057581e+001dB,-2.87706713539288e-002°)
5.01187233627271e+000	(-3.51347930536009e+001dB,-2.94408282471143e-002°)
5.12861383991364e+000	(-3.51347958262336e+001dB,-3.01265952332147e-002°)
5.24807460249771e+000	(-3.51347987295374e+001dB,-3.08283359274985e-002°)
5.37031796370252e+000	(-3.51348017696707e+001dB,-3.15464224157080e-002°)
5.49540873857623e+000	(-3.51348049530823e+001dB,-3.22812354512751e-002°)
5.62341325190348e+000	(-3.51348082865247e+001dB,-3.30331646572160e-002°)
5.75439937337156e+000	(-3.51348117770688e+001dB,-3.38026087330610e-002°)
5.88843655355588e+000	(-3.51348154321187e+001dB,-3.45899756660241e-002°)
6.02559586074356e+000	(-3.51348192594275e+001dB,-3.53956829474720e-002°)
6.16595001861481e+000	(-3.51348232671136e+001dB,-3.62201577944549e-002°)
6.30957344480192e+000	(-3.51348274636782e+001dB,-3.70638373763368e-002°)
6.45654229034654e+000	(-3.51348318580229e+001dB,-3.79271690468110e-002°)
6.60693448007594e+000	(-3.51348364594691e+001dB,-3.88106105806338e-002°)
6.76082975391980e+000	(-3.51348412777775e+001dB,-3.97146304173726e-002°)
6.91830970918935e+000	(-3.51348463231686e+001dB,-4.06397079089471e-002°)
7.07945784384136e+000	(-3.51348516063449e+001dB,-4.15863335747139e-002°)
7.24435960074988e+000	(-3.51348571385131e+001dB,-4.25550093612821e-002°)
7.41310241300916e+000	(-3.51348629314082e+001dB,-4.35462489087897e-002°)
7.58577575029182e+000	(-3.51348689973183e+001dB,-4.45605778236444e-002°)
7.76247116628690e+000	(-3.51348753491105e+001dB,-4.55985339571665e-002°)
7.94328234724279e+000	(-3.51348820002584e+001dB,-4.66606676911815e-002°)
8.12830516164097e+000	(-3.51348889648708e+001dB,-4.77475422297072e-002°)
8.31763771102669e+000	(-3.51348962577214e+001dB,-4.88597338981903e-002°)
8.51138038202374e+000	(-3.51349038942801e+001dB,-4.99978324491674e-002°)
8.70963589956078e+000	(-3.51349118907460e+001dB,-5.11624413751692e-002°)
8.91250938133743e+000	(-3.51349202640818e+001dB,-5.23541782286745e-002°)
9.12010839355907e+000	(-3.51349290320494e+001dB,-5.35736749506858e-002°)
9.33254300796988e+000	(-3.51349382132483e+001dB,-5.48215782053218e-002°)
9.54992586021433e+000	(-3.51349478271543e+001dB,-5.60985497231180e-002°)
9.77237220955808e+000	(-3.51349578941613e+001dB,-5.74052666525398e-002°)
9.99999999999997e+000	(-3.51349684356244e+001dB,-5.87424219196092e-002°)
1.02329299228075e+001	(-3.51349794739052e+001dB,-6.01107245949236e-002°)
1.04712854805090e+001	(-3.51349910324194e+001dB,-6.15109002706922e-002°)
1.07151930523760e+001	(-3.51350031356864e+001dB,-6.29436914458936e-002°)
1.09647819614318e+001	(-3.51350158093810e+001dB,-6.44098579200643e-002°)
1.12201845430196e+001	(-3.51350290803886e+001dB,-6.59101771972568e-002°)
1.14815362149688e+001	(-3.51350429768615e+001dB,-6.74454448985423e-002°)
1.17489755493953e+001	(-3.51350575282792e+001dB,-6.90164751843479e-002°)
1.20226443461741e+001	(-3.51350727655106e+001dB,-7.06241011872340e-002°)
1.23026877081238e+001	(-3.51350887208796e+001dB,-7.22691754539253e-002°)
1.25892541179416e+001	(-3.51351054282338e+001dB,-7.39525703986827e-002°)
1.28824955169313e+001	(-3.51351229230163e+001dB,-7.56751787656709e-002°)
1.31825673855640e+001	(-3.51351412423408e+001dB,-7.74379141045934e-002°)
1.34896288259165e+001	(-3.51351604250705e+001dB,-7.92417112546887e-002°)
1.38038426460288e+001	(-3.51351805119004e+001dB,-8.10875268424938e-002°)
1.41253754462275e+001	(-3.51352015454438e+001dB,-8.29763397893371e-002°)
1.44543977074592e+001	(-3.51352235703230e+001dB,-8.49091518321102e-002°)
1.47910838816820e+001	(-3.51352466332635e+001dB,-8.68869880551210e-002°)
1.51356124843620e+001	(-3.51352707831934e+001dB,-8.89108974356067e-002°)
1.54881661891248e+001	(-3.51352960713474e+001dB,-9.09819534007135e-002°)
1.58489319246111e+001	(-3.51353225513754e+001dB,-9.31012543988922e-002°)
1.62181009735892e+001	(-3.51353502794564e+001dB,-9.52699244830612e-002°)
1.65958690743755e+001	(-3.51353793144178e+001dB,-9.74891139091791e-002°)
1.69824365246174e+001	(-3.51354097178602e+001dB,-9.97599997476735e-002°)
1.73780082874937e+001	(-3.51354415542884e+001dB,-1.02083786509647e-001°)
1.77827941003892e+001	(-3.51354748912480e+001dB,-1.04461706787859e-001°)
1.81970085860998e+001	(-3.51355097994691e+001dB,-1.06895021912048e-001°)
1.86208713666286e+001	(-3.51355463530165e+001dB,-1.09385022620739e-001°)
1.90546071796324e+001	(-3.51355846294467e+001dB,-1.11933029748336e-001°)
1.94984459975804e+001	(-3.51356247099727e+001dB,-1.14540394927962e-001°)
1.99526231496887e+001	(-3.51356666796368e+001dB,-1.17208501311375e-001°)
2.04173794466952e+001	(-3.51357106274905e+001dB,-1.19938764306105e-001°)
2.08929613085403e+001	(-3.51357566467844e+001dB,-1.22732632328000e-001°)
2.13796208950222e+001	(-3.51358048351658e+001dB,-1.25591587575411e-001°)
2.18776162394954e+001	(-3.51358552948861e+001dB,-1.28517146816427e-001°)
2.23872113856833e+001	(-3.51359081330183e+001dB,-1.31510862199313e-001°)
2.29086765276776e+001	(-3.51359634616843e+001dB,-1.34574322080086e-001°)
2.34422881531991e+001	(-3.51360213982930e+001dB,-1.37709151868250e-001°)
2.39883291901948e+001	(-3.51360820657899e+001dB,-1.40917014895644e-001°)
2.45470891568502e+001	(-3.51361455929183e+001dB,-1.44199613303005e-001°)
2.51188643150957e+001	(-3.51362121144929e+001dB,-1.47558688949278e-001°)
2.57039578276885e+001	(-3.51362817716864e+001dB,-1.50996024341228e-001°)
2.63026799189537e+001	(-3.51363547123293e+001dB,-1.54513443586459e-001°)
2.69153480392690e+001	(-3.51364310912244e+001dB,-1.58112813367299e-001°)
2.75422870333815e+001	(-3.51365110704759e+001dB,-1.61796043938667e-001°)
2.81838293126444e+001	(-3.51365948198336e+001dB,-1.65565090150569e-001°)
2.88403150312659e+001	(-3.51366825170544e+001dB,-1.69421952492973e-001°)
2.95120922666637e+001	(-3.51367743482802e+001dB,-1.73368678166637e-001°)
3.01995172040200e+001	(-3.51368705084333e+001dB,-1.77407362180143e-001°)
3.09029543251358e+001	(-3.51369712016317e+001dB,-1.81540148471051e-001°)
3.16227766016837e+001	(-3.51370766416229e+001dB,-1.85769231054928e-001°)
3.23593656929627e+001	(-3.51371870522387e+001dB,-1.90096855203528e-001°)
3.31131121482590e+001	(-3.51373026678716e+001dB,-1.94525318647631e-001°)
3.38844156139201e+001	(-3.51374237339739e+001dB,-1.99056972810528e-001°)
3.46736850452530e+001	(-3.51375505075795e+001dB,-2.03694224072508e-001°)
3.54813389233574e+001	(-3.51376832578517e+001dB,-2.08439535062534e-001°)
3.63078054770100e+001	(-3.51378222666564e+001dB,-2.13295425983472e-001°)
3.71535229097171e+001	(-3.51379678291617e+001dB,-2.18264475968493e-001°)
3.80189396320559e+001	(-3.51381202544675e+001dB,-2.23349324469211e-001°)
3.89045144994279e+001	(-3.51382798662634e+001dB,-2.28552672678560e-001°)
3.98107170553495e+001	(-3.51384470035188e+001dB,-2.33877284987931e-001°)
4.07380277804111e+001	(-3.51386220212054e+001dB,-2.39325990478501e-001°)
4.16869383470333e+001	(-3.51388052910537e+001dB,-2.44901684450602e-001°)
4.26579518801591e+001	(-3.51389972023461e+001dB,-2.50607329987833e-001°)
4.36515832240164e+001	(-3.51391981627469e+001dB,-2.56445959561589e-001°)
4.46683592150961e+001	(-3.51394085991722e+001dB,-2.62420676673780e-001°)
4.57088189614873e+001	(-3.51396289587011e+001dB,-2.68534657538537e-001°)
4.67735141287196e+001	(-3.51398597095299e+001dB,-2.74791152807595e-001°)
4.78630092322636e+001	(-3.51401013419719e+001dB,-2.81193489336040e-001°)
4.89778819368444e+001	(-3.51403543695048e+001dB,-2.87745071992385e-001°)
5.01187233627270e+001	(-3.51406193298681e+001dB,-2.94449385512878e-001°)
5.12861383991362e+001	(-3.51408967862119e+001dB,-3.01309996402221e-001°)
5.24807460249770e+001	(-3.51411873283018e+001dB,-3.08330554881141e-001°)
5.37031796370250e+001	(-3.51414915737798e+001dB,-3.15514796881991e-001°)
5.49540873857622e+001	(-3.51418101694865e+001dB,-3.22866546095778e-001°)
5.62341325190346e+001	(-3.51421437928456e+001dB,-3.30389716068244e-001°)
5.75439937337154e+001	(-3.51424931533148e+001dB,-3.38088312349266e-001°)
5.88843655355586e+001	(-3.51428589939061e+001dB,-3.45966434698326e-001°)
6.02559586074355e+001	(-3.51432420927783e+001dB,-3.54028279342304e-001°)
6.16595001861479e+001	(-3.51436432649063e+001dB,-3.62278141294403e-001°)
6.30957344480190e+001	(-3.51440633638299e+001dB,-3.70720416728453e-001°)
6.45654229034652e+001	(-3.51445032834862e+001dB,-3.79359605416548e-001°)
6.60693448007593e+001	(-3.51449639601302e+001dB,-3.88200313228314e-001°)
6.76082975391978e+001	(-3.51454463743477e+001dB,-3.97247254694347e-001°)
6.91830970918933e+001	(-3.51459515531638e+001dB,-4.06505255637142e-001°)
7.07945784384134e+001	(-3.51464805722538e+001dB,-4.15979255869140e-001°)
7.24435960074986e+001	(-3.51470345582602e+001dB,-4.25674311962132e-001°)
7.41310241300914e+001	(-3.51476146912204e+001dB,-4.35595600089053e-001°)
7.58577575029180e+001	(-3.51482222071127e+001dB,-4.45748418941278e-001°)
7.76247116628688e+001	(-3.51488584005238e+001dB,-4.56138192722881e-001°)
7.94328234724277e+001	(-3.51495246274462e+001dB,-4.66770474225728e-001°)
8.12830516164095e+001	(-3.51502223082097e+001dB,-4.77650947985537e-001°)
8.31763771102667e+001	(-3.51509529305559e+001dB,-4.88785433525364e-001°)
8.51138038202372e+001	(-3.51517180528606e+001dB,-5.00179888684799e-001°)
8.70963589956076e+001	(-3.51525193075133e+001dB,-5.11840413042837e-001°)
8.91250938133741e+001	(-3.51533584044606e+001dB,-5.23773251433291e-001°)
9.12010839355905e+001	(-3.51542371349218e+001dB,-5.35984797558174e-001°)
9.33254300796986e+001	(-3.51551573752853e+001dB,-5.48481597702194e-001°)
9.54992586021431e+001	(-3.51561210911963e+001dB,-5.61270354551821e-001°)
9.77237220955805e+001	(-3.51571303418423e+001dB,-5.74357931122550e-001°)
9.99999999999995e+001	(-3.51581872844502e+001dB,-5.87751354798569e-001°)
1.02329299228075e+002	(-3.51592941790025e+001dB,-6.01457821488493e-001°)
1.04712854805089e+002	(-3.51604533931865e+001dB,-6.15484699903058e-001°)
1.07151930523760e+002	(-3.51616674075855e+001dB,-6.29839535956588e-001°)
1.09647819614318e+002	(-3.51629388211269e+001dB,-6.44530057300108e-001°)
1.12201845430196e+002	(-3.51642703567997e+001dB,-6.59564177989456e-001°)
1.14815362149688e+002	(-3.51656648676545e+001dB,-6.74950003294050e-001°)
1.17489755493952e+002	(-3.51671253431013e+001dB,-6.90695834652293e-001°)
1.20226443461741e+002	(-3.51686549155207e+001dB,-7.06810174779480e-001°)
1.23026877081237e+002	(-3.51702568672050e+001dB,-7.23301732935227e-001°)
1.25892541179416e+002	(-3.51719346376456e+001dB,-7.40179430354498e-001°)
1.28824955169313e+002	(-3.51736918311863e+001dB,-7.57452405854649e-001°)
1.31825673855640e+002	(-3.51755322250605e+001dB,-7.75130021619510e-001°)
1.34896288259165e+002	(-3.51774597778344e+001dB,-7.93221869173505e-001°)
1.38038426460288e+002	(-3.51794786382757e+001dB,-8.11737775552226e-001°)
1.41253754462275e+002	(-3.51815931546737e+001dB,-8.30687809679363e-001°)
1.44543977074592e+002	(-3.51838078846318e+001dB,-8.50082288957430e-001°)
1.47910838816820e+002	(-3.51861276053608e+001dB,-8.69931786085663e-001°)
1.51356124843620e+002	(-3.51885573244995e+001dB,-8.90247136113994e-001°)
1.54881661891247e+002	(-3.51911022914911e+001dB,-9.11039443743630e-001°)
1.58489319246110e+002	(-3.51937680095466e+001dB,-9.32320090890598e-001°)
1.62181009735892e+002	(-3.51965602482291e+001dB,-9.54100744520378e-001°)
1.65958690743755e+002	(-3.51994850566908e+001dB,-9.76393364770941e-001°)
1.69824365246173e+002	(-3.52025487776037e+001dB,-9.99210213378518e-001°)
1.73780082874936e+002	(-3.52057580618198e+001dB,-1.02256386242171e+000°)
1.77827941003891e+002	(-3.52091198838046e+001dB,-1.04646720340165e+000°)
1.81970085860997e+002	(-3.52126415578887e+001dB,-1.07093345667590e+000°)
1.86208713666286e+002	(-3.52163307553835e+001dB,-1.09597618126690e+000°)
1.90546071796323e+002	(-3.52201955226140e+001dB,-1.12160928506540e+000°)
1.94984459975803e+002	(-3.52242442999205e+001dB,-1.14784703545166e+000°)
1.99526231496887e+002	(-3.52284859416895e+001dB,-1.17470407036025e+000°)
2.04173794466952e+002	(-3.52329297374732e+001dB,-1.20219540981228e+000°)
2.08929613085403e+002	(-3.52375854342666e+001dB,-1.23033646794620e+000°)
2.13796208950222e+002	(-3.52424632600101e+001dB,-1.25914306557671e+000°)
2.18776162394954e+002	(-3.52475739483955e+001dB,-1.28863144331375e+000°)
2.23872113856832e+002	(-3.52529287650565e+001dB,-1.31881827527956e+000°)
2.29086765276776e+002	(-3.52585395352302e+001dB,-1.34972068346115e+000°)
2.34422881531991e+002	(-3.52644186729844e+001dB,-1.38135625273993e+000°)
2.39883291901947e+002	(-3.52705792121100e+001dB,-1.41374304664448e+000°)
2.45470891568501e+002	(-3.52770348387897e+001dB,-1.44689962387597e+000°)
2.51188643150956e+002	(-3.52837999261557e+001dB,-1.48084505565823e+000°)
2.57039578276885e+002	(-3.52908895708659e+001dB,-1.51559894397231e+000°)
2.63026799189536e+002	(-3.52983196318325e+001dB,-1.55118144073794e+000°)
2.69153480392690e+002	(-3.53061067712495e+001dB,-1.58761326801105e+000°)
2.75422870333815e+002	(-3.53142684980776e+001dB,-1.62491573927151e+000°)
2.81838293126443e+002	(-3.53228232141580e+001dB,-1.66311078188561e+000°)
2.88403150312659e+002	(-3.53317902631403e+001dB,-1.70222096082952e+000°)
2.95120922666637e+002	(-3.53411899824255e+001dB,-1.74226950377560e+000°)
3.01995172040200e+002	(-3.53510437583425e+001dB,-1.78328032764634e+000°)
3.09029543251357e+002	(-3.53613740847939e+001dB,-1.82527806675497e+000°)
3.16227766016836e+002	(-3.53722046256310e+001dB,-1.86828810266302e+000°)
3.23593656929626e+002	(-3.53835602810360e+001dB,-1.91233659589679e+000°)
3.31131121482589e+002	(-3.53954672582191e+001dB,-1.95745051967990e+000°)
3.38844156139200e+002	(-3.54079531467628e+001dB,-2.00365769585548e+000°)
3.46736850452529e+002	(-3.54210469989790e+001dB,-2.05098683318922e+000°)
3.54813389233573e+002	(-3.54347794156770e+001dB,-2.09946756826536e+000°)
3.63078054770099e+002	(-3.54491826377790e+001dB,-2.14913050920958e+000°)
3.71535229097170e+002	(-3.54642906442634e+001dB,-2.20000728249924e+000°)
3.80189396320558e+002	(-3.54801392569600e+001dB,-2.25213058315062e+000°)
3.89045144994278e+002	(-3.54967662527772e+001dB,-2.30553422860334e+000°)
3.98107170553494e+002	(-3.55142114839968e+001dB,-2.36025321666156e+000°)
4.07380277804110e+002	(-3.55325170073398e+001dB,-2.41632378789235e+000°)
4.16869383470332e+002	(-3.55517272225784e+001dB,-2.47378349292729e+000°)
4.26579518801589e+002	(-3.55718890215508e+001dB,-2.53267126517022e+000°)
4.36515832240163e+002	(-3.55930519485317e+001dB,-2.59302749947283e+000°)
4.46683592150960e+002	(-3.56152683730089e+001dB,-2.65489413741056e+000°)
4.57088189614872e+002	(-3.56385936760401e+001dB,-2.71831475987202e+000°)
4.67735141287195e+002	(-3.56630864514913e+001dB,-2.78333468776418e+000°)
4.78630092322635e+002	(-3.56888087236116e+001dB,-2.85000109174517e+000°)
4.89778819368443e+002	(-3.57158261825666e+001dB,-2.91836311201212e+000°)
5.01187233627268e+002	(-3.57442084397456e+001dB,-2.98847198931608e+000°)
5.12861383991361e+002	(-3.57740293048803e+001dB,-3.06038120853463e+000°)
5.24807460249769e+002	(-3.58053670872584e+001dB,-3.13414665632029e+000°)
