Freq.	V(vo)/V(vi)
1.00000000000000e+000	(-3.82804513844062e+001dB,-5.87546680402896e-003°)
1.02329299228075e+000	(-3.82804514949369e+001dB,-6.01232402279403e-003°)
1.04712854805090e+000	(-3.82804516106768e+001dB,-6.15236905683228e-003°)
1.07151930523761e+000	(-3.82804517318714e+001dB,-6.29567615998377e-003°)
1.09647819614318e+000	(-3.82804518587776e+001dB,-6.44232131568302e-003°)
1.12201845430196e+000	(-3.82804519916648e+001dB,-6.59238227725694e-003°)
1.14815362149688e+000	(-3.82804521308148e+001dB,-6.74593860914633e-003°)
1.17489755493953e+000	(-3.82804522765227e+001dB,-6.90307172908949e-003°)
1.20226443461741e+000	(-3.82804524290976e+001dB,-7.06386495129911e-003°)
1.23026877081238e+000	(-3.82804525888631e+001dB,-7.22840353063117e-003°)
1.25892541179417e+000	(-3.82804527561581e+001dB,-7.39677470779136e-003°)
1.28824955169313e+000	(-3.82804529313376e+001dB,-7.56906775559213e-003°)
1.31825673855641e+000	(-3.82804531147730e+001dB,-7.74537402628865e-003°)
1.34896288259165e+000	(-3.82804533068534e+001dB,-7.92578700001148e-003°)
1.38038426460288e+000	(-3.82804535079863e+001dB,-8.11040233433581e-003°)
1.41253754462275e+000	(-3.82804537185983e+001dB,-8.29931791500006e-003°)
1.44543977074593e+000	(-3.82804539391362e+001dB,-8.49263390780886e-003°)
1.47910838816821e+000	(-3.82804541700677e+001dB,-8.69045281174189e-003°)
1.51356124843621e+000	(-3.82804544118827e+001dB,-8.89287951330140e-003°)
1.54881661891248e+000	(-3.82804546650941e+001dB,-9.10002134212511e-003°)
1.58489319246111e+000	(-3.82804549302389e+001dB,-9.31198812790176e-003°)
1.62181009735893e+000	(-3.82804552078797e+001dB,-9.52889225859493e-003°)
1.65958690743756e+000	(-3.82804554986053e+001dB,-9.75084874004306e-003°)
1.69824365246174e+000	(-3.82804558030323e+001dB,-9.97797525693656e-003°)
1.73780082874937e+000	(-3.82804561218066e+001dB,-1.02103922352172e-002°)
1.77827941003892e+000	(-3.82804564556043e+001dB,-1.04482229059325e-002°)
1.81970085860998e+000	(-3.82804568051334e+001dB,-1.06915933705751e-002°)
1.86208713666287e+000	(-3.82804571711353e+001dB,-1.09406326679483e-002°)
1.90546071796325e+000	(-3.82804575543863e+001dB,-1.11954728425837e-002°)
1.94984459975804e+000	(-3.82804579556994e+001dB,-1.14562490147595e-002°)
1.99526231496888e+000	(-3.82804583759259e+001dB,-1.17230994521459e-002°)
2.04173794466953e+000	(-3.82804588159570e+001dB,-1.19961656431145e-002°)
2.08929613085404e+000	(-3.82804592767262e+001dB,-1.22755923717660e-002°)
2.13796208950223e+000	(-3.82804597592108e+001dB,-1.25615277947058e-002°)
2.18776162394955e+000	(-3.82804602644343e+001dB,-1.28541235195809e-002°)
2.23872113856834e+000	(-3.82804607934682e+001dB,-1.31535346854980e-002°)
2.29086765276777e+000	(-3.82804613474347e+001dB,-1.34599200452642e-002°)
2.34422881531992e+000	(-3.82804619275089e+001dB,-1.37734420495705e-002°)
2.39883291901949e+000	(-3.82804625349212e+001dB,-1.40942669331363e-002°)
2.45470891568503e+000	(-3.82804631709601e+001dB,-1.44225648028427e-002°)
2.51188643150958e+000	(-3.82804638369745e+001dB,-1.47585097279430e-002°)
2.57039578276886e+000	(-3.82804645343773e+001dB,-1.51022798323636e-002°)
2.63026799189538e+000	(-3.82804652646478e+001dB,-1.54540573891402e-002°)
2.69153480392691e+000	(-3.82804660293349e+001dB,-1.58140289170888e-002°)
2.75422870333816e+000	(-3.82804668300607e+001dB,-1.61823852796858e-002°)
2.81838293126445e+000	(-3.82804676685236e+001dB,-1.65593217863042e-002°)
2.88403150312660e+000	(-3.82804685465021e+001dB,-1.69450382957499e-002°)
2.95120922666638e+000	(-3.82804694658586e+001dB,-1.73397393222527e-002°)
3.01995172040201e+000	(-3.82804704285431e+001dB,-1.77436341439175e-002°)
3.09029543251359e+000	(-3.82804714365976e+001dB,-1.81569369136878e-002°)
3.16227766016837e+000	(-3.82804724921604e+001dB,-1.85798667729139e-002°)
3.23593656929628e+000	(-3.82804735974706e+001dB,-1.90126479675426e-002°)
3.31131121482591e+000	(-3.82804747548725e+001dB,-1.94555099670531e-002°)
3.38844156139202e+000	(-3.82804759668212e+001dB,-1.99086875861196e-002°)
3.46736850452531e+000	(-3.82804772358876e+001dB,-2.03724211091311e-002°)
3.54813389233575e+000	(-3.82804785647634e+001dB,-2.08469564176263e-002°)
3.63078054770101e+000	(-3.82804799562673e+001dB,-2.13325451206636e-002°)
3.71535229097172e+000	(-3.82804814133511e+001dB,-2.18294446882567e-002°)
3.80189396320560e+000	(-3.82804829391054e+001dB,-2.23379185879074e-002°)
3.89045144994280e+000	(-3.82804845367666e+001dB,-2.28582364243268e-002°)
3.98107170553496e+000	(-3.82804862097236e+001dB,-2.33906740824000e-002°)
4.07380277804112e+000	(-3.82804879615249e+001dB,-2.39355138734952e-002°)
4.16869383470335e+000	(-3.82804897958865e+001dB,-2.44930446851788e-002°)
4.26579518801592e+000	(-3.82804917166993e+001dB,-2.50635621344054e-002°)
4.36515832240165e+000	(-3.82804937280376e+001dB,-2.56473687243096e-002°)
4.46683592150962e+000	(-3.82804958341679e+001dB,-2.62447740046202e-002°)
4.57088189614874e+000	(-3.82804980395577e+001dB,-2.68560947358151e-002°)
4.67735141287197e+000	(-3.82805003488848e+001dB,-2.74816550571377e-002°)
4.78630092322637e+000	(-3.82805027670479e+001dB,-2.81217866584723e-002°)
4.89778819368445e+000	(-3.82805052991762e+001dB,-2.87768289562773e-002°)
5.01187233627271e+000	(-3.82805079506408e+001dB,-2.94471292735806e-002°)
5.12861383991364e+000	(-3.82805107270660e+001dB,-3.01330430242232e-002°)
5.24807460249771e+000	(-3.82805136343411e+001dB,-3.08349339012928e-002°)
5.37031796370252e+000	(-3.82805166786328e+001dB,-3.15531740700946e-002°)
5.49540873857623e+000	(-3.82805198663988e+001dB,-3.22881443654903e-002°)
5.62341325190348e+000	(-3.82805232044008e+001dB,-3.30402344939046e-002°)
5.75439937337156e+000	(-3.82805266997194e+001dB,-3.38098432400421e-002°)
5.88843655355588e+000	(-3.82805303597687e+001dB,-3.45973786783936e-002°)
6.02559586074356e+000	(-3.82805341923126e+001dB,-3.54032583896645e-002°)
6.16595001861481e+000	(-3.82805382054806e+001dB,-3.62279096823328e-002°)
6.30957344480192e+000	(-3.82805424077853e+001dB,-3.70717698192476e-002°)
6.45654229034654e+000	(-3.82805468081407e+001dB,-3.79352862496118e-002°)
6.60693448007594e+000	(-3.82805514158810e+001dB,-3.88189168463224e-002°)
6.76082975391980e+000	(-3.82805562407800e+001dB,-3.97231301488735e-002°)
6.91830970918935e+000	(-3.82805612930723e+001dB,-4.06484056119077e-002°)
7.07945784384136e+000	(-3.82805665834751e+001dB,-4.15952338595370e-002°)
7.24435960074988e+000	(-3.82805721232104e+001dB,-4.25641169456808e-002°)
7.41310241300916e+000	(-3.82805779240291e+001dB,-4.35555686203654e-002°)
7.58577575029182e+000	(-3.82805839982363e+001dB,-4.45701146023367e-002°)
7.76247116628690e+000	(-3.82805903587166e+001dB,-4.56082928579314e-002°)
7.94328234724279e+000	(-3.82805970189621e+001dB,-4.66706538865600e-002°)
8.12830516164097e+000	(-3.82806039931009e+001dB,-4.77577610127655e-002°)
8.31763771102669e+000	(-3.82806112959268e+001dB,-4.88701906851392e-002°)
8.51138038202374e+000	(-3.82806189429309e+001dB,-5.00085327822038e-002°)
8.70963589956078e+000	(-3.82806269503345e+001dB,-5.11733909254063e-002°)
8.91250938133743e+000	(-3.82806353351234e+001dB,-5.23653827994797e-002°)
9.12010839355907e+000	(-3.82806441150841e+001dB,-5.35851404802016e-002°)
9.33254300796988e+000	(-3.82806533088411e+001dB,-5.48333107698835e-002°)
9.54992586021433e+000	(-3.82806629358971e+001dB,-5.61105555406110e-002°)
9.77237220955808e+000	(-3.82806730166739e+001dB,-5.74175520855694e-002°)
9.99999999999997e+000	(-3.82806835725556e+001dB,-5.87549934785366e-002°)
1.02329299228075e+001	(-3.82806946259347e+001dB,-6.01235889417348e-002°)
1.04712854805090e+001	(-3.82807062002587e+001dB,-6.15240642223761e-002°)
1.07151930523760e+001	(-3.82807183200806e+001dB,-6.29571619779059e-002°)
1.09647819614318e+001	(-3.82807310111103e+001dB,-6.44236421702754e-002°)
1.12201845430196e+001	(-3.82807443002700e+001dB,-6.59242824694483e-002°)
1.14815362149688e+001	(-3.82807582157505e+001dB,-6.74598786662958e-002°)
1.17489755493953e+001	(-3.82807727870715e+001dB,-6.90312450952011e-002°)
1.20226443461741e+001	(-3.82807880451443e+001dB,-7.06392150664692e-002°)
1.23026877081238e+001	(-3.82808040223369e+001dB,-7.22846413088644e-002°)
1.25892541179416e+001	(-3.82808207525432e+001dB,-7.39683964225610e-002°)
1.28824955169313e+001	(-3.82808382712548e+001dB,-7.56913733426287e-002°)
1.31825673855640e+001	(-3.82808566156361e+001dB,-7.74544858133062e-002°)
1.34896288259165e+001	(-3.82808758246035e+001dB,-7.92586688734949e-002°)
1.38038426460288e+001	(-3.82808959389077e+001dB,-8.11048793535359e-002°)
1.41253754462275e+001	(-3.82809170012202e+001dB,-8.29940963836034e-002°)
1.44543977074592e+001	(-3.82809390562244e+001dB,-8.49273219140282e-002°)
1.47910838816820e+001	(-3.82809621507095e+001dB,-8.69055812478192e-002°)
1.51356124843620e+001	(-3.82809863336708e+001dB,-8.89299235856107e-002°)
1.54881661891248e+001	(-3.82810116564129e+001dB,-9.10014225834514e-002°)
1.58489319246111e+001	(-3.82810381726590e+001dB,-9.31211769234873e-002°)
1.62181009735892e+001	(-3.82810659386651e+001dB,-9.52903108983536e-002°)
1.65958690743755e+001	(-3.82810950133388e+001dB,-9.75099750088002e-002°)
1.69824365246174e+001	(-3.82811254583653e+001dB,-9.97813465758985e-002°)
1.73780082874937e+001	(-3.82811573383372e+001dB,-1.02105630367051e-001°)
1.77827941003892e+001	(-3.82811907208928e+001dB,-1.04484059237094e-001°)
1.81970085860998e+001	(-3.82812256768588e+001dB,-1.06917894784237e-001°)
1.86208713666286e+001	(-3.82812622804011e+001dB,-1.09408428021544e-001°)
1.90546071796324e+001	(-3.82813006091824e+001dB,-1.11956980064094e-001°)
1.94984459975804e+001	(-3.82813407445269e+001dB,-1.14564902832321e-001°)
1.99526231496887e+001	(-3.82813827715928e+001dB,-1.17233579771877e-001°)
2.04173794466952e+001	(-3.82814267795537e+001dB,-1.19964426590554e-001°)
2.08929613085403e+001	(-3.82814728617875e+001dB,-1.22758892012275e-001°)
2.13796208950222e+001	(-3.82815211160751e+001dB,-1.25618458549219e-001°)
2.18776162394954e+001	(-3.82815716448077e+001dB,-1.28544643291740e-001°)
2.23872113856833e+001	(-3.82816245552046e+001dB,-1.31538998717215e-001°)
2.29086765276776e+001	(-3.82816799595410e+001dB,-1.34603113517803e-001°)
2.34422881531991e+001	(-3.82817379753864e+001dB,-1.37738613447827e-001°)
2.39883291901948e+001	(-3.82817987258542e+001dB,-1.40947162191061e-001°)
2.45470891568502e+001	(-3.82818623398639e+001dB,-1.44230462248672e-001°)
2.51188643150957e+001	(-3.82819289524144e+001dB,-1.47590255847883e-001°)
2.57039578276885e+001	(-3.82819987048713e+001dB,-1.51028325872492e-001°)
2.63026799189537e+001	(-3.82820717452672e+001dB,-1.54546496815202e-001°)
2.69153480392690e+001	(-3.82821482286166e+001dB,-1.58146635752441e-001°)
2.75422870333815e+001	(-3.82822283172451e+001dB,-1.61830653342560e-001°)
2.81838293126444e+001	(-3.82823121811346e+001dB,-1.65600504847507e-001°)
2.88403150312659e+001	(-3.82823999982850e+001dB,-1.69458191178863e-001°)
2.95120922666637e+001	(-3.82824919550924e+001dB,-1.73405759968662e-001°)
3.01995172040200e+001	(-3.82825882467457e+001dB,-1.77445306665884e-001°)
3.09029543251358e+001	(-3.82826890776416e+001dB,-1.81578975658920e-001°)
3.16227766016837e+001	(-3.82827946618198e+001dB,-1.85808961424764e-001°)
3.23593656929627e+001	(-3.82829052234179e+001dB,-1.90137509705653e-001°)
3.31131121482590e+001	(-3.82830209971487e+001dB,-1.94566918714163e-001°)
3.38844156139201e+001	(-3.82831422287998e+001dB,-1.99099540366618e-001°)
3.46736850452530e+001	(-3.82832691757562e+001dB,-2.03737781546430e-001°)
3.54813389233574e+001	(-3.82834021075492e+001dB,-2.08484105397454e-001°)
3.63078054770100e+001	(-3.82835413064293e+001dB,-2.13341032648867e-001°)
3.71535229097171e+001	(-3.82836870679681e+001dB,-2.18311142971355e-001°)
3.80189396320559e+001	(-3.82838397016874e+001dB,-2.23397076366549e-001°)
3.89045144994279e+001	(-3.82839995317192e+001dB,-2.28601534589252e-001°)
3.98107170553495e+001	(-3.82841668974955e+001dB,-2.33927282605045e-001°)
4.07380277804111e+001	(-3.82843421544729e+001dB,-2.39377150082113e-001°)
4.16869383470333e+001	(-3.82845256748894e+001dB,-2.44954032920188e-001°)
4.26579518801591e+001	(-3.82847178485589e+001dB,-2.50660894815867e-001°)
4.36515832240164e+001	(-3.82849190837022e+001dB,-2.56500768866708e-001°)
4.46683592150961e+001	(-3.82851298078184e+001dB,-2.62476759213851e-001°)
4.57088189614873e+001	(-3.82853504685965e+001dB,-2.68592042725310e-001°)
4.67735141287196e+001	(-3.82855815348719e+001dB,-2.74849870720205e-001°)
4.78630092322636e+001	(-3.82858234976270e+001dB,-2.81253570735418e-001°)
4.89778819368444e+001	(-3.82860768710403e+001dB,-2.87806548335639e-001°)
5.01187233627270e+001	(-3.82863421935846e+001dB,-2.94512288968300e-001°)
5.12861383991362e+001	(-3.82866200291787e+001dB,-3.01374359864243e-001°)
5.24807460249770e+001	(-3.82869109683922e+001dB,-3.08396411985513e-001°)
5.37031796370250e+001	(-3.82872156297097e+001dB,-3.15582182021653e-001°)
5.49540873857622e+001	(-3.82875346608538e+001dB,-3.22935494435895e-001°)
5.62341325190346e+001	(-3.82878687401718e+001dB,-3.30460263562356e-001°)
5.75439937337154e+001	(-3.82882185780886e+001dB,-3.38160495756189e-001°)
5.88843655355586e+001	(-3.82885849186288e+001dB,-3.46040291597474e-001°)
6.02559586074355e+001	(-3.82889685410118e+001dB,-3.54103848151462e-001°)
6.16595001861479e+001	(-3.82893702613228e+001dB,-3.62355461285310e-001°)
6.30957344480190e+001	(-3.82897909342644e+001dB,-3.70799528044712e-001°)
6.45654229034652e+001	(-3.82902314549913e+001dB,-3.79440549090515e-001°)
6.60693448007593e+001	(-3.82906927610335e+001dB,-3.88283131198544e-001°)
6.76082975391978e+001	(-3.82911758343117e+001dB,-3.97331989823456e-001°)
6.91830970918933e+001	(-3.82916817032491e+001dB,-4.06591951728960e-001°)
7.07945784384134e+001	(-3.82922114449847e+001dB,-4.16067957686921e-001°)
7.24435960074986e+001	(-3.82927661876938e+001dB,-4.25765065246298e-001°)
7.41310241300914e+001	(-3.82933471130189e+001dB,-4.35688451575581e-001°)
7.58577575029180e+001	(-3.82939554586191e+001dB,-4.45843416379831e-001°)
7.76247116628688e+001	(-3.82945925208409e+001dB,-4.56235384895065e-001°)
7.94328234724277e+001	(-3.82952596575196e+001dB,-4.66869910963032e-001°)
8.12830516164095e+001	(-3.82959582909148e+001dB,-4.77752680188182e-001°)
8.31763771102667e+001	(-3.82966899107887e+001dB,-4.88889513179872e-001°)
8.51138038202372e+001	(-3.82974560776331e+001dB,-5.00286368883139e-001°)
8.70963589956076e+001	(-3.82982584260529e+001dB,-5.11949347999859e-001°)
8.91250938133741e+001	(-3.82990986683148e+001dB,-5.23884696505112e-001°)
9.12010839355905e+001	(-3.82999785980673e+001dB,-5.36098809259705e-001°)
9.33254300796986e+001	(-3.83009000942429e+001dB,-5.48598233725543e-001°)
9.54992586021431e+001	(-3.83018651251502e+001dB,-5.61389673782853e-001°)
9.77237220955805e+001	(-3.83028757527662e+001dB,-5.74479993658607e-001°)
9.99999999999995e+001	(-3.83039341372384e+001dB,-5.87876221964803e-001°)
1.02329299228075e+002	(-3.83050425416077e+001dB,-6.01585555854721e-001°)
1.04712854805089e+002	(-3.83062033367638e+001dB,-6.15615365298775e-001°)
1.07151930523760e+002	(-3.83074190066434e+001dB,-6.29973197486957e-001°)
1.09647819614318e+002	(-3.83086921536854e+001dB,-6.44666781360258e-001°)
1.12201845430196e+002	(-3.83100255045558e+001dB,-6.59704032278026e-001°)
1.14815362149688e+002	(-3.83114219161552e+001dB,-6.75093056826855e-001°)
1.17489755493952e+002	(-3.83128843819255e+001dB,-6.90842157773775e-001°)
1.20226443461741e+002	(-3.83144160384688e+001dB,-7.06959839174322e-001°)
1.23026877081237e+002	(-3.83160201724981e+001dB,-7.23454811637252e-001°)
1.25892541179416e+002	(-3.83177002281337e+001dB,-7.40335997756691e-001°)
1.28824955169313e+002	(-3.83194598145666e+001dB,-7.57612537714615e-001°)
1.31825673855640e+002	(-3.83213027141056e+001dB,-7.75293795066023e-001°)
1.34896288259165e+002	(-3.83232328906317e+001dB,-7.93389362710149e-001°)
1.38038426460288e+002	(-3.83252544984779e+001dB,-8.11909069059428e-001°)
1.41253754462275e+002	(-3.83273718917607e+001dB,-8.30862984413308e-001°)
1.44543977074592e+002	(-3.83295896341858e+001dB,-8.50261427548487e-001°)
1.47910838816820e+002	(-3.83319125093537e+001dB,-8.70114972532620e-001°)
1.51356124843620e+002	(-3.83343455315939e+001dB,-8.90434455776099e-001°)
1.54881661891247e+002	(-3.83368939573557e+001dB,-9.11230983330276e-001°)
1.58489319246110e+002	(-3.83395632971865e+001dB,-9.32515938446681e-001°)
1.62181009735892e+002	(-3.83423593283311e+001dB,-9.54300989408339e-001°)
1.65958690743755e+002	(-3.83452881079862e+001dB,-9.76598097649189e-001°)
1.69824365246173e+002	(-3.83483559872466e+001dB,-9.99419526175405e-001°)
1.73780082874936e+002	(-3.83515696257844e+001dB,-1.02277784830532e+000°)
1.77827941003891e+002	(-3.83549360073010e+001dB,-1.04668595674331e+000°)
1.81970085860997e+002	(-3.83584624557979e+001dB,-1.07115707300977e+000°)
1.86208713666286e+002	(-3.83621566527132e+001dB,-1.09620475724272e+000°)
1.90546071796323e+002	(-3.83660266549757e+001dB,-1.12184291839499e+000°)
1.94984459975803e+002	(-3.83700809140297e+001dB,-1.14808582484899e+000°)
1.99526231496887e+002	(-3.83743282958883e+001dB,-1.17494811547344e+000°)
2.04173794466952e+002	(-3.83787781022788e+001dB,-1.20244481114736e+000°)
2.08929613085403e+002	(-3.83834400929447e+001dB,-1.23059132678308e+000°)
2.13796208950222e+002	(-3.83883245091758e+001dB,-1.25940348387446e+000°)
2.18776162394954e+002	(-3.83934420986423e+001dB,-1.28889752360663e+000°)
2.23872113856832e+002	(-3.83988041416152e+001dB,-1.31909012056224e+000°)
2.29086765276776e+002	(-3.84044224786585e+001dB,-1.34999839705989e+000°)
2.34422881531991e+002	(-3.84103095398890e+001dB,-1.38163993817393e+000°)
2.39883291901947e+002	(-3.84164783759037e+001dB,-1.41403280747171e+000°)
2.45470891568501e+002	(-3.84229426904822e+001dB,-1.44719556352358e+000°)
2.51188643150956e+002	(-3.84297168751836e+001dB,-1.48114727723877e+000°)
2.57039578276885e+002	(-3.84368160459610e+001dB,-1.51590755008021e+000°)
2.63026799189536e+002	(-3.84442560819309e+001dB,-1.55149653322981e+000°)
2.69153480392690e+002	(-3.84520536664435e+001dB,-1.58793494776367e+000°)
2.75422870333815e+002	(-3.84602263306128e+001dB,-1.62524410592062e+000°)
2.81838293126443e+002	(-3.84687924994774e+001dB,-1.66344593353815e+000°)
2.88403150312659e+002	(-3.84777715409771e+001dB,-1.70256299375433e+000°)
2.95120922666637e+002	(-3.84871838179480e+001dB,-1.74261851206478e+000°)
3.01995172040200e+002	(-3.84970507433521e+001dB,-1.78363640284839e+000°)
3.09029543251357e+002	(-3.85073948389809e+001dB,-1.82564129747694e+000°)
3.16227766016836e+002	(-3.85182397978878e+001dB,-1.86865857413916e+000°)
3.23593656929626e+002	(-3.85296105508341e+001dB,-1.91271438952038e+000°)
3.31131121482589e+002	(-3.85415333370491e+001dB,-1.95783571249787e+000°)
3.38844156139200e+002	(-3.85540357796435e+001dB,-2.00405036001944e+000°)
3.46736850452529e+002	(-3.85671469660374e+001dB,-2.05138703536378e+000°)
3.54813389233573e+002	(-3.85808975338021e+001dB,-2.09987536898614e+000°)
3.63078054770099e+002	(-3.85953197623544e+001dB,-2.14954596219198e+000°)
3.71535229097170e+002	(-3.86104476709807e+001dB,-2.20043043389063e+000°)
3.80189396320558e+002	(-3.86263171237184e+001dB,-2.25256147072171e+000°)
3.89045144994278e+002	(-3.86429659416716e+001dB,-2.30597288087839e+000°)
3.98107170553494e+002	(-3.86604340234006e+001dB,-2.36069965197688e+000°)
4.07380277804110e+002	(-3.86787634740853e+001dB,-2.41677801338298e+000°)
4.16869383470332e+002	(-3.86979987442395e+001dB,-2.47424550343403e+000°)
4.26579518801589e+002	(-3.87181867788342e+001dB,-2.53314104206113e+000°)
4.36515832240163e+002	(-3.87393771777798e+001dB,-2.59350500937367e+000°)
4.46683592150960e+002	(-3.87616223688209e+001dB,-2.65537933083775e+000°)
4.57088189614872e+002	(-3.87849777940167e+001dB,-2.71880756975956e+000°)
4.67735141287195e+002	(-3.88095021111087e+001dB,-2.78383502787821e+000°)
4.78630092322635e+002	(-3.88352574112305e+001dB,-2.85050885497708e+000°)
4.89778819368443e+002	(-3.88623094545830e+001dB,-2.91887816854202e+000°)
5.01187233627268e+002	(-3.88907279258902e+001dB,-2.98899418463589e+000°)
5.12861383991361e+002	(-3.89205867116729e+001dB,-3.06091036132337e+000°)
5.24807460249769e+002	(-3.89519642016255e+001dB,-3.13468255615565e+000°)
