Freq.	V(vout)
Step Information: Run=1  (Run: 1/100)
1.00000000000000e+003	(8.91475198889383e-002dB,-3.27218885378629e+001°)
1.00770481413610e+003	(9.02848024796230e-002dB,-3.29864960354974e+001°)
1.01546899243308e+003	(9.14305812463527e-002dB,-3.32534464541623e+001°)
1.02329299228075e+003	(9.25846428259554e-002dB,-3.35227653600979e+001°)
1.03117727459306e+003	(9.37467569212513e-002dB,-3.37944787031416e+001°)
1.03912230383517e+003	(9.49166754794263e-002dB,-3.40686128241657e+001°)
1.04712854805090e+003	(9.60941318342956e-002dB,-3.43451944626630e+001°)
1.05519647889024e+003	(9.72788398107095e-002dB,-3.46242507644812e+001°)
1.06332657163716e+003	(9.84704927894907e-002dB,-3.49058092897074e+001°)
1.07151930523761e+003	(9.96687627311766e-002dB,-3.51898980207047e+001°)
1.07977516232771e+003	(1.00873299156929e-001dB,-3.54765453703003e+001°)
1.08809462926223e+003	(1.02083728084624e-001dB,-3.57657801901278e+001°)
1.09647819614319e+003	(1.03299650918358e-001dB,-3.60576317791229e+001°)
1.10492635684876e+003	(1.04520643289181e-001dB,-3.63521298921742e+001°)
1.11343960906236e+003	(1.05746253845320e-001dB,-3.66493047489275e+001°)
1.12201845430197e+003	(1.06976002989247e-001dB,-3.69491870427461e+001°)
1.13066339794964e+003	(1.08209381559921e-001dB,-3.72518079498247e+001°)
1.13937494928134e+003	(1.09445849457345e-001dB,-3.75571991384565e+001°)
1.14815362149688e+003	(1.10684834207462e-001dB,-3.78653927784540e+001°)
1.15699993175021e+003	(1.11925729464437e-001dB,-3.81764215507208e+001°)
1.16591440117983e+003	(1.13167893448145e-001dB,-3.84903186569721e+001°)
1.17489755493953e+003	(1.14410647313744e-001dB,-3.88071178296045e+001°)
1.18394992222930e+003	(1.15653273450840e-001dB,-3.91268533417088e+001°)
1.19307203632654e+003	(1.16895013708966e-001dB,-3.94495600172259e+001°)
1.20226443461742e+003	(1.18135067546703e-001dB,-3.97752732412398e+001°)
1.21152765862859e+003	(1.19372590100960e-001dB,-4.01040289704046e+001°)
1.22086225405907e+003	(1.20606690173169e-001dB,-4.04358637435008e+001°)
1.23026877081238e+003	(1.21836428129332e-001dB,-4.07708146921138e+001°)
1.23974776302895e+003	(1.23060813709836e-001dB,-4.11089195514301e+001°)
1.24929978911874e+003	(1.24278803745781e-001dB,-4.14502166711426e+001°)
1.25892541179417e+003	(1.25489299777927e-001dB,-4.17947450264577e+001°)
1.26862519810326e+003	(1.26691145574252e-001dB,-4.21425442291948e+001°)
1.27839971946303e+003	(1.27883124542131e-001dB,-4.24936545389690e+001°)
1.28824955169314e+003	(1.29063957030945e-001dB,-4.28481168744439e+001°)
1.29817527504985e+003	(1.30232297520658e-001dB,-4.32059728246457e+001°)
1.30817747426020e+003	(1.31386731692073e-001dB,-4.35672646603214e+001°)
1.31825673855641e+003	(1.32525773373934e-001dB,-4.39320353453294e+001°)
1.32841366171065e+003	(1.33647861362185e-001dB,-4.43003285480434e+001°)
1.33864884207000e+003	(1.34751356106495e-001dB,-4.46721886527548e+001°)
1.34896288259166e+003	(1.35834536258820e-001dB,-4.50476607710524e+001°)
1.35935639087853e+003	(1.36895595078987e-001dB,-4.54267907531577e+001°)
1.36982997921497e+003	(1.37932636691771e-001dB,-4.58096251991951e+001°)
1.38038426460289e+003	(1.38943672189924e-001dB,-4.61962114703698e+001°)
1.39101986879806e+003	(1.39926615577605e-001dB,-4.65865977000273e+001°)
1.40173741834677e+003	(1.40879279548400e-001dB,-4.69808328045654e+001°)
1.41253754462276e+003	(1.41799371091792e-001dB,-4.73789664941659e+001°)
1.42342088386435e+003	(1.42684486922275e-001dB,-4.77810492833127e+001°)
1.43438807721197e+003	(1.43532108724615e-001dB,-4.81871325010591e+001°)
1.44543977074593e+003	(1.44339598209279e-001dB,-4.85972683010032e+001°)
1.45657661552446e+003	(1.45104191971140e-001dB,-4.90115096709301e+001°)
1.46779926762207e+003	(1.45822996145402e-001dB,-4.94299104420738e+001°)
1.47910838816821e+003	(1.46492980853637e-001dB,-4.98525252979483e+001°)
1.49050464338620e+003	(1.47110974433691e-001dB,-5.02794097826957e+001°)
1.50198870463249e+003	(1.47673657446184e-001dB,-5.07106203088942e+001°)
1.51356124843621e+003	(1.48177556451296e-001dB,-5.11462141647630e+001°)
1.52522295653902e+003	(1.48619037548568e-001dB,-5.15862495207000e+001°)
1.53697451593528e+003	(1.48994299673136e-001dB,-5.20307854350817e+001°)
1.54881661891249e+003	(1.49299367641585e-001dB,-5.24798818592498e+001°)
1.56074996309212e+003	(1.49530084940392e-001dB,-5.29335996416044e+001°)
1.57277525147067e+003	(1.49682106250684e-001dB,-5.33920005307200e+001°)
1.58489319246112e+003	(1.49750889702533e-001dB,-5.38551471773898e+001°)
1.59710449993461e+003	(1.49731688852298e-001dB,-5.43231031355059e+001°)
1.60940989326254e+003	(1.49619544377166e-001dB,-5.47959328616691e+001°)
1.62181009735894e+003	(1.49409275480738e-001dB,-5.52737017134193e+001°)
1.63430584272314e+003	(1.49095471004099e-001dB,-5.57564759459725e+001°)
1.64689786548288e+003	(1.48672480237212e-001dB,-5.62443227073388e+001°)
1.65958690743757e+003	(1.48134403425731e-001dB,-5.67373100316929e+001°)
1.67237371610209e+003	(1.47475081969133e-001dB,-5.72355068308578e+001°)
1.68525904475076e+003	(1.46688088306350e-001dB,-5.77389828837573e+001°)
1.69824365246175e+003	(1.45766715485905e-001dB,-5.82478088236826e+001°)
1.71132830416179e+003	(1.44703966418225e-001dB,-5.87620561232113e+001°)
1.72451377067121e+003	(1.43492542809011e-001dB,-5.92817970766086e+001°)
1.73780082874938e+003	(1.42124833773010e-001dB,-5.98071047795298e+001°)
1.75119026114047e+003	(1.40592904128849e-001dB,-6.03380531058379e+001°)
1.76468285661951e+003	(1.38888482377093e-001dB,-6.08747166813361e+001°)
1.77827941003893e+003	(1.37002948364612e-001dB,-6.14171708542114e+001°)
1.79198072237534e+003	(1.34927320639908e-001dB,-6.19654916619697e+001°)
1.80578760077673e+003	(1.32652243506121e-001dB,-6.25197557946405e+001°)
1.81970085860999e+003	(1.30167973779642e-001dB,-6.30800405540126e+001°)
1.83372131550889e+003	(1.27464367264854e-001dB,-6.36464238086596e+001°)
1.84784979742230e+003	(1.24530864957088e-001dB,-6.42189839444991e+001°)
1.86208713666288e+003	(1.21356478988941e-001dB,-6.47977998106258e+001°)
1.87643417195610e+003	(1.17929778337068e-001dB,-6.53829506601451e+001°)
1.89089174848965e+003	(1.14238874309827e-001dB,-6.59745160857301e+001°)
1.90546071796326e+003	(1.10271405838949e-001dB,-6.65725759496130e+001°)
1.92014193863881e+003	(1.06014524601597e-001dB,-6.71772103077194e+001°)
1.93493627539096e+003	(1.01454880003194e-001dB,-6.77884993276443e+001°)
1.94984459975806e+003	(9.65786040544618e-002dB,-6.84065232001644e+001°)
1.96486778999348e+003	(9.13712961805915e-002dB,-6.90313620439789e+001°)
1.98000673111740e+003	(8.58180080049646e-002dB,-6.96630958033652e+001°)
1.99526231496889e+003	(7.99032281537626e-002dB,-7.03018041384390e+001°)
2.01063544025850e+003	(7.36108671331952e-002dB,-7.09475663077035e+001°)
2.02612701262116e+003	(6.69242423362552e-002dB,-7.16004610425800e+001°)
2.04173794466954e+003	(5.98260632404568e-002dB,-7.22605664136149e+001°)
2.05746915604785e+003	(5.22984168651399e-002dB,-7.29279596880637e+001°)
2.07332157348597e+003	(4.43227535610742e-002dB,-7.36027171785666e+001°)
2.08929613085405e+003	(3.58798732127686e-002dB,-7.42849140826407e+001°)
2.10539376921757e+003	(2.69499119391350e-002dB,-7.49746243127310e+001°)
2.12161543689270e+003	(1.75123293855414e-002dB,-7.56719203165832e+001°)
2.13796208950225e+003	(7.54589670604672e-003dB,-7.63768728877256e+001°)
2.15443469003190e+003	(-2.97131465749704e-003dB,-7.70895509658761e+001°)
2.17103420888697e+003	(-1.40619432868200e-002dB,-7.78100214271250e+001°)
2.18776162394957e+003	(-2.57493470691510e-002dB,-7.85383488637799e+001°)
2.20461792063620e+003	(-3.80576113224013e-002dB,-7.92745953538069e+001°)
2.22160409195583e+003	(-5.10115556307597e-002dB,-8.00188202198501e+001°)
2.23872113856835e+003	(-6.46367392497870e-002dB,-8.07710797778669e+001°)
2.25597006884359e+003	(-7.89594649349432e-002dB,-8.15314270754785e+001°)
2.27335189892065e+003	(-9.40067810409572e-002dB,-8.22999116202073e+001°)
2.29086765276779e+003	(-1.09806481733959e-001dB,-8.30765790978409e+001°)
2.30851836224278e+003	(-1.26387105153845e-001dB,-8.38614710812526e+001°)
2.32630506715364e+003	(-1.43777929359511e-001dB,-8.46546247300920e+001°)
2.34422881531994e+003	(-1.62008965886933e-001dB,-8.54560724818558e+001°)
2.36229066263448e+003	(-1.81110950747370e-001dB,-8.62658417349553e+001°)
2.38049167312553e+003	(-2.01115332691898e-001dB,-8.70839545245006e+001°)
2.39883291901951e+003	(-2.22054258568718e-001dB,-8.79104271916414e+001°)
2.41731548080412e+003	(-2.43960555601103e-001dB,-8.87452700474247e+001°)
2.43594044729204e+003	(-2.66867710417695e-001dB,-8.95884870322530e+001°)
2.45470891568505e+003	(-2.90809844670873e-001dB,-9.04400753721618e+001°)
2.47362199163864e+003	(-3.15821687087166e-001dB,-9.13000252332663e+001°)
2.49268078932720e+003	(-3.41938541802214e-001dB,-9.21683193758641e+001°)
2.51188643150960e+003	(-3.69196252844221e-001dB,-9.30449328098198e+001°)
2.53124004959538e+003	(-3.97631164643929e-001dB,-9.39298324529927e+001°)
2.55074278371138e+003	(-4.27280078465666e-001dB,-9.48229767946059e+001°)
2.57039578276888e+003	(-4.58180204672810e-001dB,-9.57243155655827e+001°)
2.59020020453134e+003	(-4.90369110762825e-001dB,-9.66337894180079e+001°)
2.61015721568256e+003	(-5.23884665131709e-001dB,-9.75513296159808e+001°)
2.63026799189540e+003	(-5.58764976554868e-001dB,-9.84768577402403e+001°)
2.65053371790110e+003	(-5.95048329401098e-001dB,-9.94102854090324e+001°)
2.67095558755901e+003	(-6.32773114628970e-001dB,-1.00351514017770e+002°)
2.69153480392694e+003	(-6.71977756650686e-001dB,-1.01300434500094e+002°)
2.71227257933205e+003	(-7.12700636184049e-001dB,-1.02256927112993e+002°)
2.73317013544226e+003	(-7.54980009254365e-001dB,-1.03220861248633e+002°)
2.75422870333819e+003	(-7.98853922547344e-001dB,-1.04192095275575e+002°)
2.77544952358573e+003	(-8.44360125357805e-001dB,-1.05170476411986e+002°)
2.79683384630910e+003	(-8.91535978420620e-001dB,-1.06155840633401e+002°)
2.81838293126448e+003	(-9.40418359955324e-001dB,-1.07148012617501e+002°)
2.84009804791424e+003	(-9.91043569297646e-001dB,-1.08146805728217e+002°)
2.86198047550173e+003	(-1.04344722853511e+000dB,-1.09152022041329e+002°)
2.88403150312663e+003	(-1.09766418260360e+000dB,-1.10163452413513e+002°)
2.90625242982089e+003	(-1.15372839834187e+000dB,-1.11180876596556e+002°)
2.92864456462526e+003	(-1.21167286303652e+000dB,-1.12204063398198e+002°)
2.95120922666641e+003	(-1.27152948302236e+000dB,-1.13232770890754e+002°)
2.97394774523463e+003	(-1.33332898293233e+000dB,-1.14266746668318e+002°)
2.99686145986215e+003	(-1.39710080621387e+000dB,-1.15305728153037e+002°)
3.01995172040204e+003	(-1.46287301754647e+000dB,-1.16349442950503e+002°)
3.04321988710775e+003	(-1.53067220780816e+000dB,-1.17397609253944e+002°)
3.06666733071321e+003	(-1.60052340224210e+000dB,-1.18449936296456e+002°)
3.09029543251362e+003	(-1.67244997247412e+000dB,-1.19506124850101e+002°)
3.11410558444679e+003	(-1.74647355302168e+000dB,-1.20565867770229e+002°)
3.13809918917516e+003	(-1.82261396291854e+000dB,-1.21628850582992e+002°)
3.16227766016841e+003	(-1.90088913305432e+000dB,-1.22694752113537e+002°)
3.18664242178676e+003	(-1.98131503979658e+000dB,-1.23763245151998e+002°)
3.21119490936485e+003	(-2.06390564542263e+000dB,-1.24833997153982e+002°)
3.23593656929631e+003	(-2.14867284584252e+000dB,-1.25906670971891e+002°)
3.26086885911896e+003	(-2.23562642604081e+000dB,-1.26980925613090e+002°)
3.28599324760069e+003	(-2.32477402360566e+000dB,-1.28056417020620e+002°)
3.31131121482594e+003	(-2.41612110064959e+000dB,-1.29132798871933e+002°)
3.33682425228297e+003	(-2.50967092435735e+000dB,-1.30209723390905e+002°)
3.36253386295166e+003	(-2.60542455632375e+000dB,-1.31286842168223e+002°)
3.38844156139206e+003	(-2.70338085077097e+000dB,-1.32363806985180e+002°)
3.41454887383364e+003	(-2.80353646165736e+000dB,-1.33440270635847e+002°)
3.44085733826517e+003	(-2.90588585861520e+000dB,-1.34515887742618e+002°)
3.46736850452535e+003	(-3.01042135157907e+000dB,-1.35590315560199e+002°)
3.49408393439410e+003	(-3.11713312389317e+000dB,-1.36663214763248e+002°)
3.52100520168456e+003	(-3.22600927361701e+000dB,-1.37734250213051e+002°)
3.54813389233579e+003	(-3.33703586268146e+000dB,-1.38803091698870e+002°)
3.57547160450625e+003	(-3.45019697348749e+000dB,-1.39869414649835e+002°)
3.60301994866789e+003	(-3.56547477248371e+000dB,-1.40932900813648e+002°)
3.63078054770105e+003	(-3.68284958021027e+000dB,-1.41993238898637e+002°)
3.65875503699007e+003	(-3.80229994725497e+000dB,-1.43050125176153e+002°)
3.68694506451962e+003	(-3.92380273553222e+000dB,-1.44103264040672e+002°)
3.71535229097177e+003	(-4.04733320426867e+000dB,-1.45152368525401e+002°)
3.74397838982385e+003	(-4.17286510006011e+000dB,-1.46197160771622e+002°)
3.77282504744704e+003	(-4.30037075035182e+000dB,-1.47237372450435e+002°)
3.80189396320565e+003	(-4.42982115969107e+000dB,-1.48272745136019e+002°)
3.83118684955733e+003	(-4.56118610810247e+000dB,-1.49303030629915e+002°)
3.86070543215386e+003	(-4.69443425094725e+000dB,-1.50327991236303e+002°)
3.89045144994285e+003	(-4.82953321964298e+000dB,-1.51347399988567e+002°)
3.92042665527020e+003	(-4.96644972264228e+000dB,-1.52361040827886e+002°)
3.95063281398328e+003	(-5.10514964609587e+000dB,-1.53368708734864e+002°)
3.98107170553502e+003	(-5.24559815365624e+000dB,-1.54370209815570e+002°)
4.01174512308867e+003	(-5.38775978491389e+000dB,-1.55365361343619e+002°)
4.04265487362349e+003	(-5.53159855199558e+000dB,-1.56353991760168e+002°)
4.07380277804117e+003	(-5.67707803389491e+000dB,-1.57335940633934e+002°)
4.10519067127313e+003	(-5.82416146814693e+000dB,-1.58311058583489e+002°)
4.13682040238856e+003	(-5.97281183950292e+000dB,-1.59279207164253e+002°)
4.16869383470340e+003	(-6.12299196530313e+000dB,-1.60240258722705e+002°)
4.20081284589012e+003	(-6.27466457729019e+000dB,-1.61194096220417e+002°)
4.23317932808826e+003	(-6.42779239964753e+000dB,-1.62140613030548e+002°)
4.26579518801598e+003	(-6.58233822308870e+000dB,-1.63079712709464e+002°)
4.29866234708233e+003	(-6.73826497486351e+000dB,-1.64011308746144e+002°)
4.33178274150047e+003	(-6.89553578458481e+000dB,-1.64935324291994e+002°)
4.36515832240171e+003	(-7.05411404581529e+000dB,-1.65851691873631e+002°)
4.39879105595049e+003	(-7.21396347338698e+000dB,-1.66760353091137e+002°)
4.43268292346014e+003	(-7.37504815645740e+000dB,-1.67661258304195e+002°)
4.46683592150969e+003	(-7.53733260733376e+000dB,-1.68554366308406e+002°)
4.50125206206139e+003	(-7.70078180612243e+000dB,-1.69439644003969e+002°)
4.53593337257933e+003	(-7.86536124128355e+000dB,-1.70317066058813e+002°)
4.57088189614881e+003	(-8.03103694619015e+000dB,-1.71186614568096e+002°)
4.60609969159672e+003	(-8.19777553180889e+000dB,-1.72048278711887e+002°)
4.64158883361284e+003	(-8.36554421563422e+000dB,-1.72902054412699e+002°)
4.67735141287204e+003	(-8.53431084701941e+000dB,-1.73747943994394e+002°)
4.71338953615747e+003	(-8.70404392905871e+000dB,-1.74585955843859e+002°)
4.74970532648462e+003	(-8.87471263718161e+000dB,-1.75416104076712e+002°)
4.78630092322645e+003	(-9.04628683462704e+000dB,-1.76238408208155e+002°)
4.82317848223937e+003	(-9.21873708496794e+000dB,-1.77052892829982e+002°)
4.86034017599028e+003	(-9.39203466185986e+000dB,-1.77859587294607e+002°)
4.89778819368453e+003	(-9.56615155618705e+000dB,-1.78658525406879e+002°)
4.93552474139487e+003	(-9.74106048077927e+000dB,-1.79449745124321e+002°)
4.97355204219146e+003	(-9.91673487287037e+000dB,1.79766711733660e+002°)
5.01187233627279e+003	(-1.00931488944667e+001dB,1.78990799767151e+002°)
5.05048788109766e+003	(-1.02702774307896e+001dB,1.78222470267345e+002°)
5.08940095151816e+003	(-1.04480960869509e+001dB,1.77461671478123e+002°)
5.12861383991372e+003	(-1.06265811830167e+001dB,1.76708348847412e+002°)
5.16812885632611e+003	(-1.08057097476068e+001dB,1.75962445268205e+002°)
5.20794832859554e+003	(-1.09854595101721e+001dB,1.75223901309177e+002°)
5.24807460249780e+003	(-1.11658088920860e+001dB,1.74492655434917e+002°)
5.28851004188245e+003	(-1.13467369966780e+001dB,1.73768644215813e+002°)
5.32925702881208e+003	(-1.15282235983325e+001dB,1.73051802527698e+002°)
5.37031796370260e+003	(-1.17102491307666e+001dB,1.72342063741400e+002°)
5.41169526546471e+003	(-1.18927946745957e+001dB,1.71639359902366e+002°)
5.45339137164635e+003	(-1.20758419442889e+001dB,1.70943621900571e+002°)
5.49540873857633e+003	(-1.22593732746071e+001dB,1.70254779630934e+002°)
5.53774984150898e+003	(-1.24433716066136e+001dB,1.69572762144512e+002°)
5.58041717477005e+003	(-1.26278204733368e+001dB,1.68897497790723e+002°)
5.62341325190357e+003	(-1.28127039851628e+001dB,1.68228914350898e+002°)
5.66674060582000e+003	(-1.29980068150241e+001dB,1.67566939163451e+002°)
5.71040178894535e+003	(-1.31837141834507e+001dB,1.66911499240974e+002°)
5.75439937337165e+003	(-1.33698118435412e+001dB,1.66262521379570e+002°)
5.79873595100840e+003	(-1.35562860659048e+001dB,1.65619932260723e+002°)
5.84341413373526e+003	(-1.37431236236251e+001dB,1.64983658546046e+002°)
5.88843655355598e+003	(-1.39303117772869e+001dB,1.64353626965195e+002°)
5.93380586275337e+003	(-1.41178382601057e+001dB,1.63729764397270e+002°)
5.97952473404561e+003	(-1.43056912631951e+001dB,1.63111997946016e+002°)
6.02559586074367e+003	(-1.44938594210015e+001dB,1.62500255009121e+002°)
6.07202195690998e+003	(-1.46823317969354e+001dB,1.61894463341908e+002°)
6.11880575751831e+003	(-1.48710978692216e+001dB,1.61294551115709e+002°)
6.16595001861492e+003	(-1.50601475169903e+001dB,1.60700446971215e+002°)
6.21345751748085e+003	(-1.52494710066262e+001dB,1.60112080067059e+002°)
6.26133105279562e+003	(-1.54390589783911e+001dB,1.59529380123915e+002°)
6.30957344480203e+003	(-1.56289024333339e+001dB,1.58952277464354e+002°)
6.35818753547233e+003	(-1.58189927204963e+001dB,1.58380703048724e+002°)
6.40717618867564e+003	(-1.60093215244254e+001dB,1.57814588507268e+002°)
6.45654229034666e+003	(-1.61998808529982e+001dB,1.57253866168732e+002°)
6.50628874865568e+003	(-1.63906630255627e+001dB,1.56698469085677e+002°)
6.55641849417989e+003	(-1.65816606614009e+001dB,1.56148331056683e+002°)
6.60693448007607e+003	(-1.67728666685138e+001dB,1.55603386645687e+002°)
6.65783968225447e+003	(-1.69642742327294e+001dB,1.55063571198606e+002°)
6.70913709955422e+003	(-1.71558768071350e+001dB,1.54528820857452e+002°)
6.76082975391993e+003	(-1.73476681018302e+001dB,1.53999072572106e+002°)
6.81292069057972e+003	(-1.75396420739997e+001dB,1.53474264109912e+002°)
6.86541297822466e+003	(-1.77317929183022e+001dB,1.52954334063252e+002°)
6.91830970918948e+003	(-1.79241150575726e+001dB,1.52439221855244e+002°)
6.97161399963479e+003	(-1.81166031338314e+001dB,1.51928867743718e+002°)
7.02532898973064e+003	(-1.83092519995978e+001dB,1.51423212823577e+002°)
7.07945784384150e+003	(-1.85020567095011e+001dB,1.50922199027697e+002°)
7.13400375071268e+003	(-1.86950125121839e+001dB,1.50425769126455e+002°)
7.18896992365819e+003	(-1.88881148424909e+001dB,1.49933866726027e+002°)
7.24435960075002e+003	(-1.90813593139385e+001dB,1.49446436265529e+002°)
7.30017604500890e+003	(-1.92747417114564e+001dB,1.48963423013124e+002°)
7.35642254459654e+003	(-1.94682579843966e+001dB,1.48484773061171e+002°)
7.41310241300930e+003	(-1.96619042398011e+001dB,1.48010433320514e+002°)
7.47021898927344e+003	(-1.98556767359228e+001dB,1.47540351513987e+002°)
7.52777563814179e+003	(-2.00495718759914e+001dB,1.47074476169203e+002°)
7.58577575029197e+003	(-2.02435862022183e+001dB,1.46612756610715e+002°)
7.64422274252613e+003	(-2.04377163900323e+001dB,1.46155142951603e+002°)
7.70312005797228e+003	(-2.06319592425402e+001dB,1.45701586084548e+002°)
7.76247116628705e+003	(-2.08263116852051e+001dB,1.45252037672460e+002°)
7.82227956386016e+003	(-2.10207707607336e+001dB,1.44806450138707e+002°)
7.88254877402035e+003	(-2.12153336241689e+001dB,1.44364776656990e+002°)
7.94328234724295e+003	(-2.14099975381787e+001dB,1.43926971140928e+002°)
8.00448386135906e+003	(-2.16047598685347e+001dB,1.43492988233372e+002°)
8.06615692176628e+003	(-2.17996180797751e+001dB,1.43062783295507e+002°)
8.12830516164114e+003	(-2.19945697310447e+001dB,1.42636312395777e+002°)
8.19093224215312e+003	(-2.21896124721056e+001dB,1.42213532298647e+002°)
