Freq.	V(vout)
Step Information: Run=1  (Run: 1/50)
1.00000000000000e+002	(-9.97830361672781e-004dB,-3.55625355301438e+000°)
1.00770481413610e+002	(-1.00469624638834e-003dB,-3.58366074936828e+000°)
1.01546899243308e+002	(-1.01166817664305e-003dB,-3.61127927466914e+000°)
1.02329299228075e+002	(-1.01874778787428e-003dB,-3.63911076094369e+000°)
1.03117727459306e+002	(-1.02593674066393e-003dB,-3.66715685288155e+000°)
1.03912230383517e+002	(-1.03323672109660e-003dB,-3.69541920793492e+000°)
1.04712854805090e+002	(-1.04064944122574e-003dB,-3.72389949641902e+000°)
1.05519647889024e+002	(-1.04817663938833e-003dB,-3.75259940161338e+000°)
1.06332657163716e+002	(-1.05582008064990e-003dB,-3.78152061986394e+000°)
1.07151930523761e+002	(-1.06358155719834e-003dB,-3.81066486068604e+000°)
1.07977516232771e+002	(-1.07146288879559e-003dB,-3.84003384686820e+000°)
1.08809462926223e+002	(-1.07946592313397e-003dB,-3.86962931457680e+000°)
1.09647819614319e+002	(-1.08759253629751e-003dB,-3.89945301346159e+000°)
1.10492635684876e+002	(-1.09584463321660e-003dB,-3.92950670676205e+000°)
1.11343960906236e+002	(-1.10422414806483e-003dB,-3.95979217141475e+000°)
1.12201845430196e+002	(-1.11273304472810e-003dB,-3.99031119816142e+000°)
1.13066339794964e+002	(-1.12137331726414e-003dB,-4.02106559165808e+000°)
1.13937494928134e+002	(-1.13014699037265e-003dB,-4.05205717058495e+000°)
1.14815362149688e+002	(-1.13905611979408e-003dB,-4.08328776775733e+000°)
1.15699993175021e+002	(-1.14810279289261e-003dB,-4.11475923023741e+000°)
1.16591440117983e+002	(-1.15728912903864e-003dB,-4.14647341944701e+000°)
1.17489755493953e+002	(-1.16661728015217e-003dB,-4.17843221128118e+000°)
1.18394992222930e+002	(-1.17608943119530e-003dB,-4.21063749622288e+000°)
1.19307203632654e+002	(-1.18570780063469e-003dB,-4.24309117945851e+000°)
1.20226443461742e+002	(-1.19547464100826e-003dB,-4.27579518099443e+000°)
1.21152765862859e+002	(-1.20539223942051e-003dB,-4.30875143577454e+000°)
1.22086225405907e+002	(-1.21546291806975e-003dB,-4.34196189379864e+000°)
1.23026877081238e+002	(-1.22568903473766e-003dB,-4.37542852024207e+000°)
1.23974776302895e+002	(-1.23607298341393e-003dB,-4.40915329557607e+000°)
1.24929978911874e+002	(-1.24661719483699e-003dB,-4.44313821568937e+000°)
1.25892541179417e+002	(-1.25732413693450e-003dB,-4.47738529201065e+000°)
1.26862519810326e+002	(-1.26819631555026e-003dB,-4.51189655163217e+000°)
1.27839971946303e+002	(-1.27923627491557e-003dB,-4.54667403743428e+000°)
1.28824955169314e+002	(-1.29044659827401e-003dB,-4.58171980821117e+000°)
1.29817527504985e+002	(-1.30182990848205e-003dB,-4.61703593879751e+000°)
1.30817747426020e+002	(-1.31338886857695e-003dB,-4.65262452019632e+000°)
1.31825673855641e+002	(-1.32512618240445e-003dB,-4.68848765970776e+000°)
1.32841366171065e+002	(-1.33704459525427e-003dB,-4.72462748105916e+000°)
1.33864884207000e+002	(-1.34914689447045e-003dB,-4.76104612453610e+000°)
1.34896288259166e+002	(-1.36143591008976e-003dB,-4.79774574711457e+000°)
1.35935639087853e+002	(-1.37391451551485e-003dB,-4.83472852259436e+000°)
1.36982997921497e+002	(-1.38658562813247e-003dB,-4.87199664173345e+000°)
1.38038426460289e+002	(-1.39945221000301e-003dB,-4.90955231238369e+000°)
1.39101986879806e+002	(-1.41251726856466e-003dB,-4.94739775962754e+000°)
1.40173741834677e+002	(-1.42578385726806e-003dB,-4.98553522591605e+000°)
1.41253754462276e+002	(-1.43925507630070e-003dB,-5.02396697120801e+000°)
1.42342088386435e+002	(-1.45293407333457e-003dB,-5.06269527311029e+000°)
1.43438807721197e+002	(-1.46682404416667e-003dB,-5.10172242701934e+000°)
1.44543977074593e+002	(-1.48092823349952e-003dB,-5.14105074626408e+000°)
1.45657661552446e+002	(-1.49524993568690e-003dB,-5.18068256224983e+000°)
1.46779926762207e+002	(-1.50979249545364e-003dB,-5.22062022460360e+000°)
1.47910838816821e+002	(-1.52455930869450e-003dB,-5.26086610132063e+000°)
1.49050464338620e+002	(-1.53955382321333e-003dB,-5.30142257891217e+000°)
1.50198870463249e+002	(-1.55477953955579e-003dB,-5.34229206255464e+000°)
1.51356124843621e+002	(-1.57024001173702e-003dB,-5.38347697623994e+000°)
1.52522295653902e+002	(-1.58593884813327e-003dB,-5.42497976292723e+000°)
1.53697451593528e+002	(-1.60187971223474e-003dB,-5.46680288469596e+000°)
1.54881661891249e+002	(-1.61806632354408e-003dB,-5.50894882290026e+000°)
1.56074996309212e+002	(-1.63450245833797e-003dB,-5.55142007832469e+000°)
1.57277525147067e+002	(-1.65119195060623e-003dB,-5.59421917134136e+000°)
1.58489319246112e+002	(-1.66813869290997e-003dB,-5.63734864206847e+000°)
1.59710449993461e+002	(-1.68534663720314e-003dB,-5.68081105053022e+000°)
1.60940989326254e+002	(-1.70281979580458e-003dB,-5.72460897681811e+000°)
1.62181009735894e+002	(-1.72056224231902e-003dB,-5.76874502125383e+000°)
1.63430584272314e+002	(-1.73857811242988e-003dB,-5.81322180455331e+000°)
1.64689786548288e+002	(-1.75687160501711e-003dB,-5.85804196799258e+000°)
1.65958690743757e+002	(-1.77544698299158e-003dB,-5.90320817357485e+000°)
1.67237371610209e+002	(-1.79430857430603e-003dB,-5.94872310419923e+000°)
1.68525904475076e+002	(-1.81346077290241e-003dB,-5.99458946383088e+000°)
1.69824365246175e+002	(-1.83290803977216e-003dB,-6.04080997767280e+000°)
1.71132830416179e+002	(-1.85265490387666e-003dB,-6.08738739233905e+000°)
1.72451377067121e+002	(-1.87270596326069e-003dB,-6.13432447602962e+000°)
1.73780082874938e+002	(-1.89306588602518e-003dB,-6.18162401870688e+000°)
1.75119026114047e+002	(-1.91373941142919e-003dB,-6.22928883227357e+000°)
1.76468285661951e+002	(-1.93473135093321e-003dB,-6.27732175075252e+000°)
1.77827941003893e+002	(-1.95604658931774e-003dB,-6.32572563046791e+000°)
1.79198072237534e+002	(-1.97769008573154e-003dB,-6.37450335022823e+000°)
1.80578760077673e+002	(-1.99966687488661e-003dB,-6.42365781151098e+000°)
1.81970085860999e+002	(-2.02198206811432e-003dB,-6.47319193864892e+000°)
1.83372131550889e+002	(-2.04464085458658e-003dB,-6.52310867901822e+000°)
1.84784979742230e+002	(-2.06764850247251e-003dB,-6.57341100322826e+000°)
1.86208713666288e+002	(-2.09101036006623e-003dB,-6.62410190531308e+000°)
1.87643417195610e+002	(-2.11473185706523e-003dB,-6.67518440292490e+000°)
1.89089174848965e+002	(-2.13881850578716e-003dB,-6.72666153752909e+000°)
1.90546071796326e+002	(-2.16327590238758e-003dB,-6.77853637460133e+000°)
1.92014193863881e+002	(-2.18810972809820e-003dB,-6.83081200382630e+000°)
1.93493627539096e+002	(-2.21332575055486e-003dB,-6.88349153929835e+000°)
1.94984459975806e+002	(-2.23892982506678e-003dB,-6.93657811972423e+000°)
1.96486778999348e+002	(-2.26492789593424e-003dB,-6.99007490862745e+000°)
1.98000673111740e+002	(-2.29132599783381e-003dB,-7.04398509455481e+000°)
1.99526231496889e+002	(-2.31813025705327e-003dB,-7.09831189128469e+000°)
2.01063544025850e+002	(-2.34534689301797e-003dB,-7.15305853803763e+000°)
2.02612701262116e+002	(-2.37298221958969e-003dB,-7.20822829968853e+000°)
2.04173794466954e+002	(-2.40104264651415e-003dB,-7.26382446698121e+000°)
2.05746915604785e+002	(-2.42953468086196e-003dB,-7.31985035674488e+000°)
2.07332157348597e+002	(-2.45846492847930e-003dB,-7.37630931211278e+000°)
2.08929613085405e+002	(-2.48784009547933e-003dB,-7.43320470274281e+000°)
2.10539376921756e+002	(-2.51766698975494e-003dB,-7.49053992504048e+000°)
2.12161543689270e+002	(-2.54795252247816e-003dB,-7.54831840238390e+000°)
2.13796208950225e+002	(-2.57870370967691e-003dB,-7.60654358535100e+000°)
2.15443469003190e+002	(-2.60992767378010e-003dB,-7.66521895194901e+000°)
2.17103420888697e+002	(-2.64163164524584e-003dB,-7.72434800784622e+000°)
2.18776162394957e+002	(-2.67382296418212e-003dB,-7.78393428660587e+000°)
2.20461792063620e+002	(-2.70650908192140e-003dB,-7.84398134992262e+000°)
2.22160409195583e+002	(-2.73969756281434e-003dB,-7.90449278786121e+000°)
2.23872113856836e+002	(-2.77339608579607e-003dB,-7.96547221909737e+000°)
2.25597006884359e+002	(-2.80761244619770e-003dB,-8.02692329116152e+000°)
2.27335189892065e+002	(-2.84235455742298e-003dB,-8.08884968068450e+000°)
2.29086765276779e+002	(-2.87763045279981e-003dB,-8.15125509364611e+000°)
2.30851836224278e+002	(-2.91344828728719e-003dB,-8.21414326562597e+000°)
2.32630506715364e+002	(-2.94981633938993e-003dB,-8.27751796205697e+000°)
2.34422881531994e+002	(-2.98674301291141e-003dB,-8.34138297848138e+000°)
2.36229066263448e+002	(-3.02423683895461e-003dB,-8.40574214080947e+000°)
2.38049167312553e+002	(-3.06230647772843e-003dB,-8.47059930558087e+000°)
2.39883291901951e+002	(-3.10096072053861e-003dB,-8.53595836022862e+000°)
2.41731548080412e+002	(-3.14020849175860e-003dB,-8.60182322334588e+000°)
2.43594044729205e+002	(-3.18005885078050e-003dB,-8.66819784495552e+000°)
2.45470891568505e+002	(-3.22052099412442e-003dB,-8.73508620678244e+000°)
2.47362199163864e+002	(-3.26160425740063e-003dB,-8.80249232252875e+000°)
2.49268078932720e+002	(-3.30331811748996e-003dB,-8.87042023815196e+000°)
2.51188643150960e+002	(-3.34567219462707e-003dB,-8.93887403214591e+000°)
2.53124004959538e+002	(-3.38867625452951e-003dB,-9.00785781582485e+000°)
2.55074278371138e+002	(-3.43234021065423e-003dB,-9.07737573361048e+000°)
2.57039578276889e+002	(-3.47667412638425e-003dB,-9.14743196332207e+000°)
2.59020020453135e+002	(-3.52168821723382e-003dB,-9.21803071646964e+000°)
2.61015721568256e+002	(-3.56739285328463e-003dB,-9.28917623855044e+000°)
2.63026799189541e+002	(-3.61379856134835e-003dB,-9.36087280934851e+000°)
2.65053371790110e+002	(-3.66091602745760e-003dB,-9.43312474323753e+000°)
2.67095558755901e+002	(-3.70875609919714e-003dB,-9.50593638948707e+000°)
2.69153480392694e+002	(-3.75732978820045e-003dB,-9.57931213257210e+000°)
2.71227257933205e+002	(-3.80664827257922e-003dB,-9.65325639248590e+000°)
2.73317013544226e+002	(-3.85672289946133e-003dB,-9.72777362505657e+000°)
2.75422870333819e+002	(-3.90756518755910e-003dB,-9.80286832226692e+000°)
2.77544952358574e+002	(-3.95918682976228e-003dB,-9.87854501257802e+000°)
2.79683384630910e+002	(-4.01159969579503e-003dB,-9.95480826125640e+000°)
2.81838293126448e+002	(-4.06481583486191e-003dB,-1.00316626707048e+001°)
2.84009804791424e+002	(-4.11884747843715e-003dB,-1.01091128807971e+001°)
2.86198047550173e+002	(-4.17370704294634e-003dB,-1.01871635692160e+001°)
2.88403150312663e+002	(-4.22940713270247e-003dB,-1.02658194517964e+001°)
2.90625242982089e+002	(-4.28596054267361e-003dB,-1.03450852828707e+001°)
2.92864456462527e+002	(-4.34338026144322e-003dB,-1.04249658556195e+001°)
2.95120922666642e+002	(-4.40167947412952e-003dB,-1.05054660024259e+001°)
2.97394774523464e+002	(-4.46087156548978e-003dB,-1.05865905952340e+001°)
2.99686145986216e+002	(-4.52097012285250e-003dB,-1.06683445459112e+001°)
3.01995172040205e+002	(-4.58198893928856e-003dB,-1.07507328066156e+001°)
3.04321988710775e+002	(-4.64394201684579e-003dB,-1.08337603701672e+001°)
3.06666733071322e+002	(-4.70684356964134e-003dB,-1.09174322704233e+001°)
3.09029543251362e+002	(-4.77070802722019e-003dB,-1.10017535826593e+001°)
3.11410558444679e+002	(-4.83555003785065e-003dB,-1.10867294239531e+001°)
3.13809918917516e+002	(-4.90138447194414e-003dB,-1.11723649535746e+001°)
3.16227766016841e+002	(-4.96822642546991e-003dB,-1.12586653733803e+001°)
3.18664242178677e+002	(-5.03609122349802e-003dB,-1.13456359282118e+001°)
3.21119490936486e+002	(-5.10499442372566e-003dB,-1.14332819063003e+001°)
3.23593656929632e+002	(-5.17495182015975e-003dB,-1.15216086396751e+001°)
3.26086885911897e+002	(-5.24597944681007e-003dB,-1.16106215045782e+001°)
3.28599324760069e+002	(-5.31809358140253e-003dB,-1.17003259218829e+001°)
3.31131121482595e+002	(-5.39131074932886e-003dB,-1.17907273575189e+001°)
3.33682425228298e+002	(-5.46564772741199e-003dB,-1.18818313229020e+001°)
3.36253386295166e+002	(-5.54112154804588e-003dB,-1.19736433753693e+001°)
3.38844156139206e+002	(-5.61774950309312e-003dB,-1.20661691186203e+001°)
3.41454887383364e+002	(-5.69554914811661e-003dB,-1.21594142031636e+001°)
3.44085733826517e+002	(-5.77453830661226e-003dB,-1.22533843267690e+001°)
3.46736850452536e+002	(-5.85473507418302e-003dB,-1.23480852349263e+001°)
3.49408393439411e+002	(-5.93615782305175e-003dB,-1.24435227213091e+001°)
3.52100520168456e+002	(-6.01882520641910e-003dB,-1.25397026282456e+001°)
3.54813389233580e+002	(-6.10275616311193e-003dB,-1.26366308471949e+001°)
3.57547160450626e+002	(-6.18796992207207e-003dB,-1.27343133192304e+001°)
3.60301994866790e+002	(-6.27448600729009e-003dB,-1.28327560355291e+001°)
3.63078054770106e+002	(-6.36232424249454e-003dB,-1.29319650378676e+001°)
3.65875503699008e+002	(-6.45150475609915e-003dB,-1.30319464191251e+001°)
3.68694506451962e+002	(-6.54204798628860e-003dB,-1.31327063237931e+001°)
3.71535229097177e+002	(-6.63397468613954e-003dB,-1.32342509484921e+001°)
3.74397838982386e+002	(-6.72730592882228e-003dB,-1.33365865424953e+001°)
3.77282504744704e+002	(-6.82206311302221e-003dB,-1.34397194082600e+001°)
3.80189396320566e+002	(-6.91826796841013e-003dB,-1.35436559019658e+001°)
3.83118684955734e+002	(-7.01594256116641e-003dB,-1.36484024340613e+001°)
3.86070543215386e+002	(-7.11510929982351e-003dB,-1.37539654698175e+001°)
3.89045144994286e+002	(-7.21579094100021e-003dB,-1.38603515298898e+001°)
3.92042665527020e+002	(-7.31801059545531e-003dB,-1.39675671908879e+001°)
3.95063281398329e+002	(-7.42179173416255e-003dB,-1.40756190859536e+001°)
3.98107170553502e+002	(-7.52715819462790e-003dB,-1.41845139053478e+001°)
4.01174512308867e+002	(-7.63413418719920e-003dB,-1.42942583970451e+001°)
4.04265487362350e+002	(-7.74274430173610e-003dB,-1.44048593673377e+001°)
4.07380277804118e+002	(-7.85301351425320e-003dB,-1.45163236814483e+001°)
4.10519067127313e+002	(-7.96496719381845e-003dB,-1.46286582641517e+001°)
4.13682040238856e+002	(-8.07863110958604e-003dB,-1.47418701004065e+001°)
4.16869383470341e+002	(-8.19403143805578e-003dB,-1.48559662359952e+001°)
4.20081284589012e+002	(-8.31119477041221e-003dB,-1.49709537781751e+001°)
4.23317932808826e+002	(-8.43014812018480e-003dB,-1.50868398963383e+001°)
4.26579518801598e+002	(-8.55091893098438e-003dB,-1.52036318226829e+001°)
4.29866234708233e+002	(-8.67353508449798e-003dB,-1.53213368528933e+001°)
4.33178274150047e+002	(-8.79802490872235e-003dB,-1.54399623468320e+001°)
4.36515832240172e+002	(-8.92441718631126e-003dB,-1.55595157292420e+001°)
4.39879105595049e+002	(-9.05274116326882e-003dB,-1.56800044904601e+001°)
4.43268292346015e+002	(-9.18302655781389e-003dB,-1.58014361871420e+001°)
4.46683592150969e+002	(-9.31530356950367e-003dB,-1.59238184429986e+001°)
4.50125206206140e+002	(-9.44960288857898e-003dB,-1.60471589495440e+001°)
4.53593337257934e+002	(-9.58595570565294e-003dB,-1.61714654668560e+001°)
4.57088189614881e+002	(-9.72439372156741e-003dB,-1.62967458243491e+001°)
4.60609969159672e+002	(-9.86494915765799e-003dB,-1.64230079215594e+001°)
4.64158883361284e+002	(-1.00076547661251e-002dB,-1.65502597289434e+001°)
4.67735141287205e+002	(-1.01525438410508e-002dB,-1.66785092886897e+001°)
4.71338953615747e+002	(-1.02996502292972e-002dB,-1.68077647155439e+001°)
4.74970532648462e+002	(-1.04490083421050e-002dB,-1.69380341976477e+001°)
4.78630092322645e+002	(-1.06006531668529e-002dB,-1.70693259973928e+001°)
4.82317848223938e+002	(-1.07546202792675e-002dB,-1.72016484522879e+001°)
4.86034017599029e+002	(-1.09109458559592e-002dB,-1.73350099758423e+001°)
4.89778819368453e+002	(-1.10696666873070e-002dB,-1.74694190584634e+001°)
4.93552474139488e+002	(-1.12308201909810e-002dB,-1.76048842683702e+001°)
4.97355204219147e+002	(-1.13944444255103e-002dB,-1.77414142525233e+001°)
5.01187233627280e+002	(-1.15605781047381e-002dB,-1.78790177375706e+001°)
5.05048788109766e+002	(-1.17292606123302e-002dB,-1.80177035308100e+001°)
5.08940095151816e+002	(-1.19005320171217e-002dB,-1.81574805211691e+001°)
5.12861383991372e+002	(-1.20744330887072e-002dB,-1.82983576802029e+001°)
5.16812885632611e+002	(-1.22510053137279e-002dB,-1.84403440631088e+001°)
5.20794832859554e+002	(-1.24302909125995e-002dB,-1.85834488097607e+001°)
5.24807460249781e+002	(-1.26123328569211e-002dB,-1.87276811457617e+001°)
5.28851004188246e+002	(-1.27971748873876e-002dB,-1.88730503835161e+001°)
5.32925702881209e+002	(-1.29848615324270e-002dB,-1.90195659233213e+001°)
5.37031796370261e+002	(-1.31754381273920e-002dB,-1.91672372544797e+001°)
5.41169526546472e+002	(-1.33689508345170e-002dB,-1.93160739564321e+001°)
5.45339137164636e+002	(-1.35654466635674e-002dB,-1.94660856999122e+001°)
5.49540873857633e+002	(-1.37649734932315e-002dB,-1.96172822481221e+001°)
5.53774984150899e+002	(-1.39675800933125e-002dB,-1.97696734579316e+001°)
5.58041717477005e+002	(-1.41733161476963e-002dB,-1.99232692810994e+001°)
5.62341325190358e+002	(-1.43822322782089e-002dB,-2.00780797655185e+001°)
5.66674060582000e+002	(-1.45943800693970e-002dB,-2.02341150564852e+001°)
5.71040178894536e+002	(-1.48098120941492e-002dB,-2.03913853979937e+001°)
5.75439937337166e+002	(-1.50285819403985e-002dB,-2.05499011340549e+001°)
5.79873595100841e+002	(-1.52507442387488e-002dB,-2.07096727100422e+001°)
5.84341413373527e+002	(-1.54763546912500e-002dB,-2.08707106740640e+001°)
5.88843655355599e+002	(-1.57054701012465e-002dB,-2.10330256783625e+001°)
5.93380586275338e+002	(-1.59381484043981e-002dB,-2.11966284807419e+001°)
5.97952473404562e+002	(-1.61744487009352e-002dB,-2.13615299460250e+001°)
6.02559586074368e+002	(-1.64144312891163e-002dB,-2.15277410475386e+001°)
6.07202195690999e+002	(-1.66581577001986e-002dB,-2.16952728686303e+001°)
6.11880575751832e+002	(-1.69056907345767e-002dB,-2.18641366042154e+001°)
6.16595001861493e+002	(-1.71570944995292e-002dB,-2.20343435623568e+001°)
6.21345751748086e+002	(-1.74124344485432e-002dB,-2.22059051658764e+001°)
6.26133105279563e+002	(-1.76717774220345e-002dB,-2.23788329540012e+001°)
6.30957344480204e+002	(-1.79351916899529e-002dB,-2.25531385840428e+001°)
6.35818753547234e+002	(-1.82027469959959e-002dB,-2.27288338331132e+001°)
6.40717618867565e+002	(-1.84745146037679e-002dB,-2.29059305998759e+001°)
6.45654229034667e+002	(-1.87505673447747e-002dB,-2.30844409063353e+001°)
6.50628874865568e+002	(-1.90309796684491e-002dB,-2.32643768996635e+001°)
6.55641849417990e+002	(-1.93158276942956e-002dB,-2.34457508540662e+001°)
6.60693448007607e+002	(-1.96051892662622e-002dB,-2.36285751726894e+001°)
6.65783968225448e+002	(-1.98991440093094e-002dB,-2.38128623895672e+001°)
6.70913709955423e+002	(-2.01977733885568e-002dB,-2.39986251716114e+001°)
6.76082975391994e+002	(-2.05011607707789e-002dB,-2.41858763206453e+001°)
6.81292069057973e+002	(-2.08093914886998e-002dB,-2.43746287754817e+001°)
6.86541297822467e+002	(-2.11225529079417e-002dB,-2.45648956140468e+001°)
6.91830970918949e+002	(-2.14407344969319e-002dB,-2.47566900555509e+001°)
6.97161399963480e+002	(-2.17640278998474e-002dB,-2.49500254627074e+001°)
7.02532898973064e+002	(-2.20925270126835e-002dB,-2.51449153440018e+001°)
7.07945784384150e+002	(-2.24263280626980e-002dB,-2.53413733560104e+001°)
7.13400375071269e+002	(-2.27655296913751e-002dB,-2.55394133057721e+001°)
7.18896992365820e+002	(-2.31102330408837e-002dB,-2.57390491532133e+001°)
7.24435960075003e+002	(-2.34605418445803e-002dB,-2.59402950136278e+001°)
7.30017604500891e+002	(-2.38165625213415e-002dB,-2.61431651602125e+001°)
7.35642254459654e+002	(-2.41784042740782e-002dB,-2.63476740266619e+001°)
7.41310241300931e+002	(-2.45461791927960e-002dB,-2.65538362098210e+001°)
7.47021898927345e+002	(-2.49200023621046e-002dB,-2.67616664723999e+001°)
7.52777563814180e+002	(-2.52999919735577e-002dB,-2.69711797457499e+001°)
7.58577575029198e+002	(-2.56862694430970e-002dB,-2.71823911327045e+001°)
7.64422274252614e+002	(-2.60789595337070e-002dB,-2.73953159104860e+001°)
7.70312005797229e+002	(-2.64781904836052e-002dB,-2.76099695336788e+001°)
7.76247116628706e+002	(-2.68840941402657e-002dB,-2.78263676372737e+001°)
7.82227956386017e+002	(-2.72968061004302e-002dB,-2.80445260397808e+001°)
7.88254877402036e+002	(-2.77164658565008e-002dB,-2.82644607464174e+001°)
7.94328234724297e+002	(-2.81432169496475e-002dB,-2.84861879523694e+001°)
8.00448386135907e+002	(-2.85772071296540e-002dB,-2.87097240461293e+001°)
8.06615692176629e+002	(-2.90185885223522e-002dB,-2.89350856129137e+001°)
