Freq.	V(vout)
Step Information: Run=1  (Run: 1/50)
1.00000000000000e+003	(-4.70948871512722e-002dB,-3.63633102551770e+001°)
1.00770481413610e+003	(-4.78831335985889e-002dB,-3.66524323794492e+001°)
1.01546899243308e+003	(-4.86875568091968e-002dB,-3.69440158435196e+001°)
1.02329299228075e+003	(-4.95086174454136e-002dB,-3.72380859136519e+001°)
1.03117727459306e+003	(-5.03467938390020e-002dB,-3.75346682237448e+001°)
1.03912230383517e+003	(-5.12025827750282e-002dB,-3.78337887827873e+001°)
1.04712854805090e+003	(-5.20765003116131e-002dB,-3.81354739824763e+001°)
1.05519647889024e+003	(-5.29690826376127e-002dB,-3.84397506049995e+001°)
1.06332657163716e+003	(-5.38808869697797e-002dB,-3.87466458309851e+001°)
1.07151930523761e+003	(-5.48124924911474e-002dB,-3.90561872476208e+001°)
1.07977516232771e+003	(-5.57645013326270e-002dB,-3.93684028569429e+001°)
1.08809462926223e+003	(-5.67375395997383e-002dB,-3.96833210842980e+001°)
1.09647819614319e+003	(-5.77322584465105e-002dB,-4.00009707869780e+001°)
1.10492635684876e+003	(-5.87493351986181e-002dB,-4.03213812630294e+001°)
1.11343960906236e+003	(-5.97894745280754e-002dB,-4.06445822602387e+001°)
1.12201845430197e+003	(-6.08534096818012e-002dB,-4.09706039852935e+001°)
1.13066339794964e+003	(-6.19419037662714e-002dB,-4.12994771131198e+001°)
1.13937494928134e+003	(-6.30557510910706e-002dB,-4.16312327963968e+001°)
1.14815362149688e+003	(-6.41957785737196e-002dB,-4.19659026752472e+001°)
1.15699993175021e+003	(-6.53628472086500e-002dB,-4.23035188871029e+001°)
1.16591440117983e+003	(-6.65578536029841e-002dB,-4.26441140767453e+001°)
1.17489755493953e+003	(-6.77817315823519e-002dB,-4.29877214065190e+001°)
1.18394992222930e+003	(-6.90354538695689e-002dB,-4.33343745667153e+001°)
1.19307203632654e+003	(-7.03200338394255e-002dB,-4.36841077861249e+001°)
1.20226443461742e+003	(-7.16365273530427e-002dB,-4.40369558427549e+001°)
1.21152765862859e+003	(-7.29860346750679e-002dB,-4.43929540747078e+001°)
1.22086225405907e+003	(-7.43697024774613e-002dB,-4.47521383912162e+001°)
1.23026877081238e+003	(-7.57887259334587e-002dB,-4.51145452838306e+001°)
1.23974776302895e+003	(-7.72443509056252e-002dB,-4.54802118377512e+001°)
1.24929978911874e+003	(-7.87378762322651e-002dB,-4.58491757432993e+001°)
1.25892541179417e+003	(-8.02706561157734e-002dB,-4.62214753075186e+001°)
1.26862519810326e+003	(-8.18441026179620e-002dB,-4.65971494658997e+001°)
1.27839971946303e+003	(-8.34596882662464e-002dB,-4.69762377942154e+001°)
1.28824955169314e+003	(-8.51189487757229e-002dB,-4.73587805204572e+001°)
1.29817527504985e+003	(-8.68234858917020e-002dB,-4.77448185368607e+001°)
1.30817747426020e+003	(-8.85749703578231e-002dB,-4.81343934120046e+001°)
1.31825673855641e+003	(-9.03751450147614e-002dB,-4.85275474029711e+001°)
1.32841366171065e+003	(-9.22258280348947e-002dB,-4.89243234675468e+001°)
1.33864884207000e+003	(-9.41289162984156e-002dB,-4.93247652764503e+001°)
1.34896288259166e+003	(-9.60863889165667e-002dB,-4.97289172255612e+001°)
1.35935639087853e+003	(-9.81003109075981e-002dB,-5.01368244481336e+001°)
1.36982997921497e+003	(-1.00172837031783e-001dB,-5.05485328269653e+001°)
1.38038426460289e+003	(-1.02306215791483e-001dB,-5.09640890064998e+001°)
1.39101986879806e+003	(-1.04502793602352e-001dB,-5.13835404048289e+001°)
1.40173741834677e+003	(-1.06765019142753e-001dB,-5.18069352255682e+001°)
1.41253754462276e+003	(-1.09095447887461e-001dB,-5.22343224695685e+001°)
1.42342088386435e+003	(-1.11496746832850e-001dB,-5.26657519464282e+001°)
1.43438807721197e+003	(-1.13971699420317e-001dB,-5.31012742857657e+001°)
1.44543977074593e+003	(-1.16523210665210e-001dB,-5.35409409482092e+001°)
1.45657661552446e+003	(-1.19154312498445e-001dB,-5.39848042360573e+001°)
1.46779926762207e+003	(-1.21868169328122e-001dB,-5.44329173035598e+001°)
1.47910838816821e+003	(-1.24668083828729e-001dB,-5.48853341667650e+001°)
1.49050464338620e+003	(-1.27557502965345e-001dB,-5.53421097128756e+001°)
1.50198870463249e+003	(-1.30540024260876e-001dB,-5.58032997090491e+001°)
1.51356124843621e+003	(-1.33619402313393e-001dB,-5.62689608105783e+001°)
1.52522295653902e+003	(-1.36799555571998e-001dB,-5.67391505683760e+001°)
1.53697451593528e+003	(-1.40084573378482e-001dB,-5.72139274356906e+001°)
1.54881661891249e+003	(-1.43478723282681e-001dB,-5.76933507739670e+001°)
1.56074996309212e+003	(-1.46986458639355e-001dB,-5.81774808577664e+001°)
1.57277525147067e+003	(-1.50612426493742e-001dB,-5.86663788786492e+001°)
1.58489319246112e+003	(-1.54361475763825e-001dB,-5.91601069479208e+001°)
1.59710449993461e+003	(-1.58238665725974e-001dB,-5.96587280981335e+001°)
1.60940989326254e+003	(-1.62249274811402e-001dB,-6.01623062832287e+001°)
1.62181009735894e+003	(-1.66398809720104e-001dB,-6.06709063771992e+001°)
1.63430584272314e+003	(-1.70693014858599e-001dB,-6.11845941711417e+001°)
1.64689786548288e+003	(-1.75137882107389e-001dB,-6.17034363685621e+001°)
1.65958690743757e+003	(-1.79739660923829e-001dB,-6.22275005787883e+001°)
1.67237371610209e+003	(-1.84504868785075e-001dB,-6.27568553083363e+001°)
1.68525904475076e+003	(-1.89440301975519e-001dB,-6.32915699500667e+001°)
1.69824365246175e+003	(-1.94553046722083e-001dB,-6.38317147699599e+001°)
1.71132830416179e+003	(-1.99850490679827e-001dB,-6.43773608913263e+001°)
1.72451377067121e+003	(-2.05340334769802e-001dB,-6.49285802762629e+001°)
1.73780082874938e+003	(-2.11030605369255e-001dB,-6.54854457041524e+001°)
1.75119026114047e+003	(-2.16929666853502e-001dB,-6.60480307469931e+001°)
1.76468285661951e+003	(-2.23046234487524e-001dB,-6.66164097413399e+001°)
1.77827941003893e+003	(-2.29389387662985e-001dB,-6.71906577566198e+001°)
1.79198072237534e+003	(-2.35968583475880e-001dB,-6.77708505595814e+001°)
1.80578760077673e+003	(-2.42793670636620e-001dB,-6.83570645746225e+001°)
1.81970085860999e+003	(-2.49874903703827e-001dB,-6.89493768397323e+001°)
1.83372131550889e+003	(-2.57222957629337e-001dB,-6.95478649577712e+001°)
1.84784979742230e+003	(-2.64848942600438e-001dB,-7.01526070428030e+001°)
1.86208713666288e+003	(-2.72764419162180e-001dB,-7.07636816611848e+001°)
1.87643417195610e+003	(-2.80981413599357e-001dB,-7.13811677671066e+001°)
1.89089174848965e+003	(-2.89512433555046e-001dB,-7.20051446322678e+001°)
1.90546071796326e+003	(-2.98370483858741e-001dB,-7.26356917693666e+001°)
1.92014193863881e+003	(-3.07569082533031e-001dB,-7.32728888490718e+001°)
1.93493627539096e+003	(-3.17122276944447e-001dB,-7.39168156101384e+001°)
1.94984459975806e+003	(-3.27044660058832e-001dB,-7.45675517623263e+001°)
1.96486778999348e+003	(-3.37351386757638e-001dB,-7.52251768817722e+001°)
1.98000673111740e+003	(-3.48058190165750e-001dB,-7.58897702984675e+001°)
1.99526231496889e+003	(-3.59181397937359e-001dB,-7.65614109754919e+001°)
2.01063544025850e+003	(-3.70737948438961e-001dB,-7.72401773796526e+001°)
2.02612701262116e+003	(-3.82745406764579e-001dB,-7.79261473431874e+001°)
2.04173794466954e+003	(-3.95221980510507e-001dB,-7.86193979161919e+001°)
2.05746915604785e+003	(-4.08186535231148e-001dB,-7.93200052094434e+001°)
2.07332157348597e+003	(-4.21658609490688e-001dB,-8.00280442273088e+001°)
2.08929613085405e+003	(-4.35658429417438e-001dB,-8.07435886904350e+001°)
2.10539376921757e+003	(-4.50206922661799e-001dB,-8.14667108479492e+001°)
2.12161543689270e+003	(-4.65325731649634e-001dB,-8.21974812789159e+001°)
2.13796208950225e+003	(-4.81037226016676e-001dB,-8.29359686828292e+001°)
2.15443469003190e+003	(-4.97364514100659e-001dB,-8.36822396589588e+001°)
2.17103420888697e+003	(-5.14331453360360e-001dB,-8.44363584744025e+001°)
2.18776162394957e+003	(-5.31962659583707e-001dB,-8.51983868207529e+001°)
2.20461792063620e+003	(-5.50283514737793e-001dB,-8.59683835593332e+001°)
2.22160409195583e+003	(-5.69320173307500e-001dB,-8.67464044550250e+001°)
2.23872113856835e+003	(-5.89099566961384e-001dB,-8.75325018987709e+001°)
2.25597006884359e+003	(-6.09649407376864e-001dB,-8.83267246189181e+001°)
2.27335189892065e+003	(-6.30998187050119e-001dB,-8.91291173816460e+001°)
2.29086765276779e+003	(-6.53175177910756e-001dB,-8.99397206808146e+001°)
2.30851836224278e+003	(-6.76210427555759e-001dB,-9.07585704176700e+001°)
2.32630506715364e+003	(-7.00134752913734e-001dB,-9.15856975709476e+001°)
2.34422881531994e+003	(-7.24979731147487e-001dB,-9.24211278580304e+001°)
2.36229066263448e+003	(-7.50777687600810e-001dB,-9.32648813879395e+001°)
2.38049167312553e+003	(-7.77561680596033e-001dB,-9.41169723070683e+001°)
2.39883291901951e+003	(-8.05365482889690e-001dB,-9.49774084387005e+001°)
2.41731548080412e+003	(-8.34223559597424e-001dB,-9.58461909175013e+001°)
2.43594044729204e+003	(-8.64171042404652e-001dB,-9.67233138203162e+001°)
2.45470891568505e+003	(-8.95243699886877e-001dB,-9.76087637947611e+001°)
2.47362199163864e+003	(-9.27477903773972e-001dB,-9.85025196872450e+001°)
2.49268078932720e+003	(-9.60910591005395e-001dB,-9.94045521722231e+001°)
2.51188643150960e+003	(-9.95579221438573e-001dB,-1.00314823384629e+002°)
2.53124004959538e+003	(-1.03152173109118e+000dB,-1.01233286557595e+002°)
2.55074278371138e+003	(-1.06877648081989e+000dB,-1.02159885667711e+002°)
2.57039578276888e+003	(-1.10738220036166e+000dB,-1.03094555090225e+002°)
2.59020020453134e+003	(-1.14737792769248e+000dB,-1.04037219266703e+002°)
2.61015721568256e+003	(-1.18880294368852e+000dB,-1.04987792387824e+002°)
2.63026799189540e+003	(-1.23169670210885e+000dB,-1.05946178094032e+002°)
2.65053371790110e+003	(-1.27609875495570e+000dB,-1.06912269196927e+002°)
2.67095558755901e+003	(-1.32204867330842e+000dB,-1.07885947424289e+002°)
2.69153480392694e+003	(-1.36958596376892e+000dB,-1.08867083191692e+002°)
2.71227257933205e+003	(-1.41874998070135e+000dB,-1.09855535403699e+002°)
2.73317013544226e+003	(-1.46957983449603e+000dB,-1.10851151287585e+002°)
2.75422870333819e+003	(-1.52211429613409e+000dB,-1.11853766262510e+002°)
2.77544952358573e+003	(-1.57639169837986e+000dB,-1.12863203846988e+002°)
2.79683384630910e+003	(-1.63244983397621e+000dB,-1.13879275607359e+002°)
2.81838293126448e+003	(-1.69032585126795e+000dB,-1.14901781149847e+002°)
2.84009804791424e+003	(-1.75005614772532e+000dB,-1.15930508158565e+002°)
2.86198047550173e+003	(-1.81167626188681e+000dB,-1.16965232481603e+002°)
2.88403150312663e+003	(-1.87522076428367e+000dB,-1.18005718267078e+002°)
2.90625242982089e+003	(-1.94072314794868e+000dB,-1.19051718150677e+002°)
2.92864456462526e+003	(-2.00821571914779e+000dB,-1.20102973495912e+002°)
2.95120922666641e+003	(-2.07772948900423e+000dB,-1.21159214687887e+002°)
2.97394774523463e+003	(-2.14929406670979e+000dB,-1.22220161480987e+002°)
2.99686145986215e+003	(-2.22293755503627e+000dB,-1.23285523400448e+002°)
3.01995172040204e+003	(-2.29868644887162e+000dB,-1.24355000197283e+002°)
3.04321988710775e+003	(-2.37656553750893e+000dB,-1.25428282355594e+002°)
3.06666733071321e+003	(-2.45659781141087e+000dB,-1.26505051650768e+002°)
3.09029543251362e+003	(-2.53880437415982e+000dB,-1.27584981756590e+002°)
3.11410558444679e+003	(-2.62320436028085e+000dB,-1.28667738898789e+002°)
3.13809918917516e+003	(-2.70981485959420e+000dB,-1.29752982552083e+002°)
3.16227766016841e+003	(-2.79865084871388e+000dB,-1.30840366177285e+002°)
3.18664242178676e+003	(-2.88972513026114e+000dB,-1.31929537994640e+002°)
3.21119490936485e+003	(-2.98304828030479e+000dB,-1.33020141789135e+002°)
3.23593656929631e+003	(-3.07862860447835e+000dB,-1.34111817743170e+002°)
3.26086885911896e+003	(-3.17647210315233e+000dB,-1.35204203291679e+002°)
3.28599324760069e+003	(-3.27658244596616e+000dB,-1.36296933994502e+002°)
3.31131121482594e+003	(-3.37896095594297e+000dB,-1.37389644420651e+002°)
3.33682425228297e+003	(-3.48360660332830e+000dB,-1.38481969038923e+002°)
3.36253386295166e+003	(-3.59051600920711e+000dB,-1.39573543109282e+002°)
3.38844156139206e+003	(-3.69968345886841e+000dB,-1.40664003569402e+002°)
3.41454887383364e+003	(-3.81110092480020e+000dB,-1.41752989910817e+002°)
3.44085733826517e+003	(-3.92475809911345e+000dB,-1.42840145039256e+002°)
3.46736850452535e+003	(-4.04064243511371e+000dB,-1.43925116113922e+002°)
3.49408393439410e+003	(-4.15873919766021e+000dB,-1.45007555360708e+002°)
3.52100520168456e+003	(-4.27903152188340e+000dB,-1.46087120854663e+002°)
3.54813389233579e+003	(-4.40150047976404e+000dB,-1.47163477267333e+002°)
3.57547160450625e+003	(-4.52612515402046e+000dB,-1.48236296575040e+002°)
3.60301994866789e+003	(-4.65288271869967e+000dB,-1.49305258724536e+002°)
3.63078054770105e+003	(-4.78174852582578e+000dB,-1.50370052252960e+002°)
3.65875503699007e+003	(-4.91269619742568e+000dB,-1.51430374859500e+002°)
3.68694506451962e+003	(-5.04569772222761e+000dB,-1.52485933926623e+002°)
3.71535229097177e+003	(-5.18072355631235e+000dB,-1.53536446989271e+002°)
3.74397838982385e+003	(-5.31774272698887e+000dB,-1.54581642150887e+002°)
3.77282504744704e+003	(-5.45672293916865e+000dB,-1.55621258445630e+002°)
3.80189396320565e+003	(-5.59763068352134e+000dB,-1.56655046146609e+002°)
3.83118684955733e+003	(-5.74043134571095e+000dB,-1.57682767020422e+002°)
3.86070543215386e+003	(-5.88508931603538e+000dB,-1.58704194528691e+002°)
3.89045144994285e+003	(-6.03156809882173e+000dB,-1.59719113977707e+002°)
3.92042665527020e+003	(-6.17983042096355e+000dB,-1.60727322617625e+002°)
3.95063281398328e+003	(-6.32983833902644e+000dB,-1.61728629693011e+002°)
3.98107170553502e+003	(-6.48155334439051e+000dB,-1.62722856446785e+002°)
4.01174512308867e+003	(-6.63493646594383e+000dB,-1.63709836079890e+002°)
4.04265487362349e+003	(-6.78994836988873e+000dB,-1.64689413669200e+002°)
4.07380277804117e+003	(-6.94654945627146e+000dB,-1.65661446046340e+002°)
4.10519067127313e+003	(-7.10469995189524e+000dB,-1.66625801640242e+002°)
4.13682040238856e+003	(-7.26435999932563e+000dB,-1.67582360286333e+002°)
4.16869383470340e+003	(-7.42548974174539e+000dB,-1.68531013005302e+002°)
4.20081284589012e+003	(-7.58804940346358e+000dB,-1.69471661754435e+002°)
4.23317932808826e+003	(-7.75199936592799e+000dB,-1.70404219154470e+002°)
4.26579518801598e+003	(-7.91730023913387e+000dB,-1.71328608194918e+002°)
4.29866234708233e+003	(-8.08391292836206e+000dB,-1.72244761920699e+002°)
4.33178274150047e+003	(-8.25179869621696e+000dB,-1.73152623102904e+002°)
4.36515832240171e+003	(-8.42091921997059e+000dB,-1.74052143896335e+002°)
4.39879105595049e+003	(-8.59123664424952e+000dB,-1.74943285486419e+002°)
4.43268292346014e+003	(-8.76271362913083e+000dB,-1.75826017727913e+002°)
4.46683592150969e+003	(-8.93531339373848e+000dB,-1.76700318777703e+002°)
4.50125206206139e+003	(-9.10899975545345e+000dB,-1.77566174723844e+002°)
4.53593337257933e+003	(-9.28373716487051e+000dB,-1.78423579212836e+002°)
4.57088189614881e+003	(-9.45949073665076e+000dB,-1.79272533076979e+002°)
4.60609969159672e+003	(-9.63622627643240e+000dB,1.79886956036509e+002°)
4.64158883361284e+003	(-9.81391030397327e+000dB,1.79054874033084e+002°)
4.67735141287204e+003	(-9.99251007270640e+000dB,1.78231200733800e+002°)
4.71338953615747e+003	(-1.01719935858968e+001dB,1.77415910232334e+002°)
4.74970532648462e+003	(-1.03523296095911e+001dB,1.76608971245033e+002°)
4.78630092322645e+003	(-1.05334876825525e+001dB,1.75810347453030e+002°)
4.82317848223937e+003	(-1.07154381233776e+001dB,1.75019997835623e+002°)
4.86034017599028e+003	(-1.08981520349846e+001dB,1.74237876994215e+002°)
4.89778819368453e+003	(-1.10816013066656e+001dB,1.73463935466256e+002°)
4.93552474139487e+003	(-1.12657586138878e+001dB,1.72698120028702e+002°)
4.97355204219146e+003	(-1.14505974160269e+001dB,1.71940373990650e+002°)
5.00000000000000e+003	(-1.15787058949455e+001dB,1.71421453716435e+002°)
Step Information: Run=2  (Run: 2/50)
1.00000000000000e+003	(2.48377434468937e-002dB,-3.50593409973855e+001°)
1.00770481413610e+003	(2.52407996596440e-002dB,-3.53390414591536e+001°)
1.01546899243308e+003	(2.56484868745047e-002dB,-3.56211521247384e+001°)
1.02329299228075e+003	(2.60607354675522e-002dB,-3.59056986610386e+001°)
1.03117727459306e+003	(2.64774659990196e-002dB,-3.61927071370138e+001°)
1.03912230383517e+003	(2.68985885829886e-002dB,-3.64822040327007e+001°)
1.04712854805090e+003	(2.73240022226919e-002dB,-3.67742162484568e+001°)
1.05519647889024e+003	(2.77535941095007e-002dB,-3.70687711144412e+001°)
1.06332657163716e+003	(2.81872388839781e-002dB,-3.73658964003332e+001°)
1.07151930523761e+003	(2.86247978569952e-002dB,-3.76656203252976e+001°)
1.07977516232771e+003	(2.90661181886918e-002dB,-3.79679715681981e+001°)
1.08809462926223e+003	(2.95110320235002e-002dB,-3.82729792780658e+001°)
1.09647819614319e+003	(2.99593555786937e-002dB,-3.85806730848273e+001°)
1.10492635684876e+003	(3.04108881842766e-002dB,-3.88910831102966e+001°)
1.11343960906236e+003	(3.08654112717307e-002dB,-3.92042399794350e+001°)
1.12201845430197e+003	(3.13226873090938e-002dB,-3.95201748318851e+001°)
1.13066339794964e+003	(3.17824586795218e-002dB,-3.98389193337821e+001°)
1.13937494928134e+003	(3.22444465007997e-002dB,-4.01605056898463e+001°)
1.14815362149688e+003	(3.27083493825176e-002dB,-4.04849666557616e+001°)
1.15699993175021e+003	(3.31738421181313e-002dB,-4.08123355508436e+001°)
1.16591440117983e+003	(3.36405743083817e-002dB,-4.11426462710007e+001°)
1.17489755493953e+003	(3.41081689129937e-002dB,-4.14759333019908e+001°)
1.18394992222930e+003	(3.45762207267311e-002dB,-4.18122317329785e+001°)
1.19307203632654e+003	(3.50442947765545e-002dB,-4.21515772703921e+001°)
1.20226443461742e+003	(3.55119246355427e-002dB,-4.24940062520857e+001°)
1.21152765862859e+003	(3.59786106497732e-002dB,-4.28395556618068e+001°)
1.22086225405907e+003	(3.64438180739855e-002dB,-4.31882631439692e+001°)
1.23026877081238e+003	(3.69069751112960e-002dB,-4.35401670187342e+001°)
1.23974776302895e+003	(3.73674708526227e-002dB,-4.38953062973984e+001°)
1.24929978911874e+003	(3.78246531107529e-002dB,-4.42537206980872e+001°)
1.25892541179417e+003	(3.82778261441259e-002dB,-4.46154506617539e+001°)
1.26862519810326e+003	(3.87262482649515e-002dB,-4.49805373684802e+001°)
1.27839971946303e+003	(3.91691293262833e-002dB,-4.53490227540758e+001°)
1.28824955169314e+003	(3.96056280820115e-002dB,-4.57209495269729e+001°)
1.29817527504985e+003	(4.00348494140657e-002dB,-4.60963611854090e+001°)
1.30817747426020e+003	(4.04558414204086e-002dB,-4.64753020348919e+001°)
1.31825673855641e+003	(4.08675923572995e-002dB,-4.68578172059399e+001°)
1.32841366171065e+003	(4.12690274289963e-002dB,-4.72439526720849e+001°)
1.33864884207000e+003	(4.16590054178683e-002dB,-4.76337552681307e+001°)
1.34896288259166e+003	(4.20363151476092e-002dB,-4.80272727086500e+001°)
1.35935639087853e+003	(4.23996717716286e-002dB,-4.84245536067089e+001°)
1.36982997921497e+003	(4.27477128789620e-002dB,-4.88256474927993e+001°)
1.38038426460289e+003	(4.30789944091503e-002dB,-4.92306048339616e+001°)
1.39101986879806e+003	(4.33919863676792e-002dB,-4.96394770530758e+001°)
1.40173741834677e+003	(4.36850683328938e-002dB,-5.00523165482977e+001°)
1.41253754462276e+003	(4.39565247453394e-002dB,-5.04691767126120e+001°)
1.42342088386435e+003	(4.42045399696252e-002dB,-5.08901119534737e+001°)
1.43438807721197e+003	(4.44271931192359e-002dB,-5.13151777125048e+001°)
1.44543977074593e+003	(4.46224526338461e-002dB,-5.17444304852079e+001°)
1.45657661552446e+003	(4.47881705984444e-002dB,-5.21779278406589e+001°)
1.46779926762207e+003	(4.49220767936619e-002dB,-5.26157284411321e+001°)
1.47910838816821e+003	(4.50217724656150e-002dB,-5.30578920616101e+001°)
1.49050464338620e+003	(4.50847238039649e-002dB,-5.35044796091243e+001°)
1.50198870463249e+003	(4.51082551161514e-002dB,-5.39555531418678e+001°)
1.51356124843621e+003	(4.50895416855684e-002dB,-5.44111758880159e+001°)
1.52522295653902e+003	(4.50256023010463e-002dB,-5.48714122641859e+001°)
1.53697451593528e+003	(4.49132914450195e-002dB,-5.53363278934579e+001°)
1.54881661891249e+003	(4.47492911269365e-002dB,-5.58059896228761e+001°)
1.56074996309212e+003	(4.45301023489395e-002dB,-5.62804655403392e+001°)
1.57277525147067e+003	(4.42520361898588e-002dB,-5.67598249907833e+001°)
1.58489319246112e+003	(4.39112044939717e-002dB,-5.72441385915519e+001°)
1.59710449993461e+003	(4.35035101506915e-002dB,-5.77334782468390e+001°)
