Freq.	V(vout)
Step Information: Run=1  (Run: 1/50)
1.00000000000000e+003	(-4.51773667764779e-002dB,-3.60606640357042e+001°)
1.00770481413610e+003	(-4.59272482230476e-002dB,-3.63472075928335e+001°)
1.01546899243308e+003	(-4.66923695661861e-002dB,-3.66361864302174e+001°)
1.02329299228075e+003	(-4.74731629806718e-002dB,-3.69276254588607e+001°)
1.03117727459306e+003	(-4.82700772867668e-002dB,-3.72215499510820e+001°)
1.03912230383517e+003	(-4.90835786935584e-002dB,-3.75179855478612e+001°)
1.04712854805090e+003	(-4.99141515768594e-002dB,-3.78169582663497e+001°)
1.05519647889024e+003	(-5.07622992931679e-002dB,-3.81184945075470e+001°)
1.06332657163716e+003	(-5.16285450312998e-002dB,-3.84226210641439e+001°)
1.07151930523761e+003	(-5.25134327036253e-002dB,-3.87293651285365e+001°)
1.07977516232771e+003	(-5.34175278783107e-002dB,-3.90387543010106e+001°)
1.08809462926223e+003	(-5.43414187549476e-002dB,-3.93508165981013e+001°)
1.09647819614319e+003	(-5.52857171852090e-002dB,-3.96655804611264e+001°)
1.10492635684876e+003	(-5.62510597405591e-002dB,-3.99830747648974e+001°)
1.11343960906236e+003	(-5.72381088293578e-002dB,-4.03033288266075e+001°)
1.12201845430197e+003	(-5.82475538655296e-002dB,-4.06263724149003e+001°)
1.13066339794964e+003	(-5.92801124908853e-002dB,-4.09522357591154e+001°)
1.13937494928134e+003	(-6.03365318539494e-002dB,-4.12809495587174e+001°)
1.14815362149688e+003	(-6.14175899473652e-002dB,-4.16125449929029e+001°)
1.15699993175021e+003	(-6.25240970068541e-002dB,-4.19470537303887e+001°)
1.16591440117983e+003	(-6.36568969743368e-002dB,-4.22845079393802e+001°)
1.17489755493953e+003	(-6.48168690279696e-002dB,-4.26249402977173e+001°)
1.18394992222930e+003	(-6.60049291822555e-002dB,-4.29683840031986e+001°)
1.19307203632654e+003	(-6.72220319612369e-002dB,-4.33148727840811e+001°)
1.20226443461742e+003	(-6.84691721479481e-002dB,-4.36644409097524e+001°)
1.21152765862859e+003	(-6.97473866135117e-002dB,-4.40171232015737e+001°)
1.22086225405907e+003	(-7.10577562294135e-002dB,-4.43729550438886e+001°)
1.23026877081238e+003	(-7.24014078664585e-002dB,-4.47319723951944e+001°)
1.23974776302895e+003	(-7.37795164842659e-002dB,-4.50942117994709e+001°)
1.24929978911874e+003	(-7.51933073151536e-002dB,-4.54597103976596e+001°)
1.25892541179417e+003	(-7.66440581464891e-002dB,-4.58285059392886e+001°)
1.26862519810326e+003	(-7.81331017057121e-002dB,-4.62006367942335e+001°)
1.27839971946303e+003	(-7.96618281522777e-002dB,-4.65761419646072e+001°)
1.28824955169314e+003	(-8.12316876813689e-002dB,-4.69550610967679e+001°)
1.29817527504985e+003	(-8.28441932435446e-002dB,-4.73374344934353e+001°)
1.30817747426020e+003	(-8.45009233856850e-002dB,-4.77233031259015e+001°)
1.31825673855641e+003	(-8.62035252178882e-002dB,-4.81127086463247e+001°)
1.32841366171065e+003	(-8.79537175117916e-002dB,-4.85056934000895e+001°)
1.33864884207000e+003	(-8.97532939353008e-002dB,-4.89023004382173e+001°)
1.34896288259166e+003	(-9.16041264297566e-002dB,-4.93025735298094e+001°)
1.35935639087853e+003	(-9.35081687348779e-002dB,-4.97065571745029e+001°)
1.36982997921497e+003	(-9.54674600672979e-002dB,-5.01142966149146e+001°)
1.38038426460289e+003	(-9.74841289593160e-002dB,-5.05258378490536e+001°)
1.39101986879806e+003	(-9.95603972634551e-002dB,-5.09412276426729e+001°)
1.40173741834677e+003	(-1.01698584329609e-001dB,-5.13605135415313e+001°)
1.41253754462276e+003	(-1.03901111361240e-001dB,-5.17837438835375e+001°)
1.42342088386435e+003	(-1.06170505957545e-001dB,-5.22109678107390e+001°)
1.43438807721197e+003	(-1.08509406848218e-001dB,-5.26422352811217e+001°)
1.44543977074593e+003	(-1.10920568828090e-001dB,-5.30775970801789e+001°)
1.45657661552446e+003	(-1.13406867899046e-001dB,-5.35171048322081e+001°)
1.46779926762207e+003	(-1.15971306626057e-001dB,-5.39608110112876e+001°)
1.47910838816821e+003	(-1.18617019715362e-001dB,-5.44087689518841e+001°)
1.49050464338620e+003	(-1.21347279822112e-001dB,-5.48610328590363e+001°)
1.50198870463249e+003	(-1.24165503595344e-001dB,-5.53176578180576e+001°)
1.51356124843621e+003	(-1.27075257967965e-001dB,-5.57786998036933e+001°)
1.52522295653902e+003	(-1.30080266699652e-001dB,-5.62442156886672e+001°)
1.53697451593528e+003	(-1.33184417180714e-001dB,-5.67142632515447e+001°)
1.54881661891249e+003	(-1.36391767504604e-001dB,-5.71889011838341e+001°)
1.56074996309212e+003	(-1.39706553817156e-001dB,-5.76681890962447e+001°)
1.57277525147067e+003	(-1.43133197950357e-001dB,-5.81521875240125e+001°)
1.58489319246112e+003	(-1.46676315348530e-001dB,-5.86409579311992e+001°)
1.59710449993461e+003	(-1.50340723294390e-001dB,-5.91345627138619e+001°)
1.60940989326254e+003	(-1.54131449442672e-001dB,-5.96330652019884e+001°)
1.62181009735894e+003	(-1.58053740668447e-001dB,-6.01365296600808e+001°)
1.63430584272314e+003	(-1.62113072237288e-001dB,-6.06450212862660e+001°)
1.64689786548288e+003	(-1.66315157303556e-001dB,-6.11586062098036e+001°)
1.65958690743757e+003	(-1.70665956743646e-001dB,-6.16773514868524e+001°)
1.67237371610209e+003	(-1.75171689329310e-001dB,-6.22013250943503e+001°)
1.68525904475076e+003	(-1.79838842246680e-001dB,-6.27305959218495e+001°)
1.69824365246175e+003	(-1.84674181965278e-001dB,-6.32652337611477e+001°)
1.71132830416179e+003	(-1.89684765460752e-001dB,-6.38053092935359e+001°)
1.72451377067121e+003	(-1.94877951794537e-001dB,-6.43508940744852e+001°)
1.73780082874938e+003	(-2.00261414051808e-001dB,-6.49020605155749e+001°)
1.75119026114047e+003	(-2.05843151639063e-001dB,-6.54588818634607e+001°)
1.76468285661951e+003	(-2.11631502940364e-001dB,-6.60214321756690e+001°)
1.77827941003893e+003	(-2.17635158330721e-001dB,-6.65897862929920e+001°)
1.79198072237534e+003	(-2.23863173543098e-001dB,-6.71640198082488e+001°)
1.80578760077673e+003	(-2.30324983383666e-001dB,-6.77442090311657e+001°)
1.81970085860999e+003	(-2.37030415788524e-001dB,-6.83304309491192e+001°)
1.83372131550889e+003	(-2.43989706212459e-001dB,-6.89227631834726e+001°)
1.84784979742230e+003	(-2.51213512338299e-001dB,-6.95212839412274e+001°)
1.86208713666288e+003	(-2.58712929092748e-001dB,-7.01260719617000e+001°)
1.87643417195610e+003	(-2.66499503951948e-001dB,-7.07372064579233e+001°)
1.89089174848965e+003	(-2.74585252516740e-001dB,-7.13547670524618e+001°)
1.90546071796326e+003	(-2.82982674334555e-001dB,-7.19788337073229e+001°)
1.92014193863881e+003	(-2.91704768941241e-001dB,-7.26094866476334e+001°)
1.93493627539096e+003	(-3.00765052092040e-001dB,-7.32468062787453e+001°)
1.94984459975806e+003	(-3.10177572147316e-001dB,-7.38908730964278e+001°)
1.96486778999348e+003	(-3.19956926573545e-001dB,-7.45417675897955e+001°)
1.98000673111740e+003	(-3.30118278516088e-001dB,-7.51995701366179e+001°)
1.99526231496889e+003	(-3.40677373394163e-001dB,-7.58643608906557e+001°)
2.01063544025850e+003	(-3.51650555464298e-001dB,-7.65362196606620e+001°)
2.02612701262116e+003	(-3.63054784291764e-001dB,-7.72152257806973e+001°)
2.04173794466954e+003	(-3.74907651063878e-001dB,-7.79014579713994e+001°)
2.05746915604785e+003	(-3.87227394672938e-001dB,-7.85949941918661e+001°)
2.07332157348597e+003	(-4.00032917489594e-001dB,-7.92959114818108e+001°)
2.08929613085405e+003	(-4.13343800740181e-001dB,-8.00042857936680e+001°)
2.10539376921757e+003	(-4.27180319395340e-001dB,-8.07201918143396e+001°)
2.12161543689270e+003	(-4.41563456468739e-001dB,-8.14437027762967e+001°)
2.13796208950225e+003	(-4.56514916617490e-001dB,-8.21748902577747e+001°)
2.15443469003190e+003	(-4.72057138928144e-001dB,-8.29138239718297e+001°)
2.17103420888697e+003	(-4.88213308763787e-001dB,-8.36605715440627e+001°)
2.18776162394957e+003	(-5.05007368540028e-001dB,-8.44151982788553e+001°)
2.20461792063620e+003	(-5.22464027289562e-001dB,-8.51777669140137e+001°)
2.22160409195583e+003	(-5.40608768866775e-001dB,-8.59483373637665e+001°)
2.23872113856835e+003	(-5.59467858636756e-001dB,-8.67269664501273e+001°)
2.25597006884359e+003	(-5.79068348484357e-001dB,-8.75137076226997e+001°)
2.27335189892065e+003	(-5.99438079973386e-001dB,-8.83086106670784e+001°)
2.29086765276779e+003	(-6.20605685477695e-001dB,-8.91117214020861e+001°)
2.30851836224278e+003	(-6.42600587101336e-001dB,-8.99230813661741e+001°)
2.32630506715364e+003	(-6.65452993198895e-001dB,-9.07427274934188e+001°)
2.34422881531994e+003	(-6.89193892303029e-001dB,-9.15706917796529e+001°)
2.36229066263448e+003	(-7.13855044263415e-001dB,-9.24070009393846e+001°)
2.38049167312553e+003	(-7.39468968398950e-001dB,-9.32516760542873e+001°)
2.39883291901951e+003	(-7.66068928465122e-001dB,-9.41047322141682e+001°)
2.41731548080412e+003	(-7.93688914239632e-001dB,-9.49661781514679e+001°)
2.43594044729204e+003	(-8.22363619532337e-001dB,-9.58360158704860e+001°)
2.45470891568505e+003	(-8.52128416431513e-001dB,-9.67142402726784e+001°)
2.47362199163864e+003	(-8.83019325605090e-001dB,-9.76008387795271e+001°)
2.49268078932720e+003	(-9.15072982486678e-001dB,-9.84957909546431e+001°)
2.51188643150960e+003	(-9.48326599187960e-001dB,-9.93990681269212e+001°)
2.53124004959538e+003	(-9.82817921995176e-001dB,-1.00310633016723e+002°)
2.55074278371138e+003	(-1.01858518432553e+000dB,-1.01230439367230e+002°)
2.57039578276888e+003	(-1.05566705504192e+000dB,-1.02158431583251e+002°)
2.59020020453134e+003	(-1.09410258204776e+000dB,-1.03094544379926e+002°)
2.61015721568256e+003	(-1.13393113111301e+000dB,-1.04038702443897e+002°)
2.63026799189540e+003	(-1.17519231991332e+000dB,-1.04990820109644e+002°)
2.65053371790110e+003	(-1.21792594729897e+000dB,-1.05950801053810e+002°)
2.67095558755901e+003	(-1.26217191784721e+000dB,-1.06918538010393e+002°)
2.69153480392694e+003	(-1.30797016179326e+000dB,-1.07893912509809e+002°)
2.71227257933205e+003	(-1.35536055047751e+000dB,-1.08876794644821e+002°)
2.73317013544226e+003	(-1.40438280749258e+000dB,-1.09867042866395e+002°)
2.75422870333819e+003	(-1.45507641576123e+000dB,-1.10864503812495e+002°)
2.77544952358573e+003	(-1.50748052082573e+000dB,-1.11869012172830e+002°)
2.79683384630910e+003	(-1.56163383067848e+000dB,-1.12880390592421e+002°)
2.81838293126448e+003	(-1.61757451251567e+000dB,-1.13898449616827e+002°)
2.84009804791424e+003	(-1.67534008684463e+000dB,-1.14922987681612e+002°)
2.86198047550173e+003	(-1.73496731942569e+000dB,-1.15953791148537e+002°)
2.88403150312663e+003	(-1.79649211157646e+000dB,-1.16990634390636e+002°)
2.90625242982089e+003	(-1.85994938941178e+000dB,-1.18033279928124e+002°)
2.92864456462526e+003	(-1.92537299263299e+000dB,-1.19081478616721e+002°)
2.95120922666641e+003	(-1.99279556351859e+000dB,-1.20134969889636e+002°)
2.97394774523463e+003	(-2.06224843679916e+000dB,-1.21193482054071e+002°)
2.99686145986215e+003	(-2.13376153112609e+000dB,-1.22256732642651e+002°)
3.01995172040204e+003	(-2.20736324286248e+000dB,-1.23324428819771e+002°)
3.04321988710775e+003	(-2.28308034293657e+000dB,-1.24396267842330e+002°)
3.06666733071321e+003	(-2.36093787750172e+000dB,-1.25471937573872e+002°)
3.09029543251362e+003	(-2.44095907314242e+000dB,-1.26551117050617e+002°)
3.11410558444679e+003	(-2.52316524735203e+000dB,-1.27633477097368e+002°)
3.13809918917516e+003	(-2.60757572498532e+000dB,-1.28718680990774e+002°)
3.16227766016841e+003	(-2.69420776135751e+000dB,-1.29806385166951e+002°)
3.18664242178676e+003	(-2.78307647262038e+000dB,-1.30896239969947e+002°)
3.21119490936485e+003	(-2.87419477399717e+000dB,-1.31987890437152e+002°)
3.23593656929631e+003	(-2.96757332639997e+000dB,-1.33080977117281e+002°)
3.26086885911896e+003	(-3.06322049188886e+000dB,-1.34175136916236e+002°)
3.28599324760069e+003	(-3.16114229836037e+000dB,-1.35270003965812e+002°)
3.31131121482594e+003	(-3.26134241377472e+000dB,-1.36365210509941e+002°)
3.33682425228297e+003	(-3.36382213015009e+000dB,-1.37460387802981e+002°)
3.36253386295166e+003	(-3.46858035746636e+000dB,-1.38555167014400e+002°)
3.38844156139206e+003	(-3.57561362753333e+000dB,-1.39649180134145e+002°)
3.41454887383364e+003	(-3.68491610778908e+000dB,-1.40742060872940e+002°)
3.44085733826517e+003	(-3.79647962490778e+000dB,-1.41833445551884e+002°)
3.46736850452535e+003	(-3.91029369800872e+000dB,-1.42922973975768e+002°)
3.49408393439410e+003	(-4.02634558117562e+000dB,-1.44010290284786e+002°)
3.52100520168456e+003	(-4.14462031491772e+000dB,-1.45095043779521e+002°)
3.54813389233579e+003	(-4.26510078612932e+000dB,-1.46176889714422e+002°)
3.57547160450625e+003	(-4.38776779603908e+000dB,-1.47255490055337e+002°)
3.60301994866789e+003	(-4.51260013558064e+000dB,-1.48330514197055e+002°)
3.63078054770105e+003	(-4.63957466756429e+000dB,-1.49401639637279e+002°)
3.65875503699007e+003	(-4.76866641498766e+000dB,-1.50468552603885e+002°)
3.68694506451962e+003	(-4.89984865478863e+000dB,-1.51530948632838e+002°)
3.71535229097177e+003	(-5.03309301631897e+000dB,-1.52588533094627e+002°)
3.74397838982385e+003	(-5.16836958380196e+000dB,-1.53641021667584e+002°)
3.77282504744704e+003	(-5.30564700203021e+000dB,-1.54688140756978e+002°)
3.80189396320565e+003	(-5.44489258456102e+000dB,-1.55729627859243e+002°)
3.83118684955733e+003	(-5.58607242367767e+000dB,-1.56765231871220e+002°)
3.86070543215386e+003	(-5.72915150140162e+000dB,-1.57794713344701e+002°)
3.89045144994285e+003	(-5.87409380086529e+000dB,-1.58817844687053e+002°)
3.92042665527020e+003	(-6.02086241738584e+000dB,-1.59834410309056e+002°)
3.95063281398328e+003	(-6.16941966861595e+000dB,-1.60844206721475e+002°)
3.98107170553502e+003	(-6.31972720318844e+000dB,-1.61847042582223e+002°)
4.01174512308867e+003	(-6.47174610731522e+000dB,-1.62842738696235e+002°)
4.04265487362349e+003	(-6.62543700884829e+000dB,-1.63831127970448e+002°)
4.07380277804117e+003	(-6.78076017835976e+000dB,-1.64812055326473e+002°)
4.10519067127313e+003	(-6.93767562684688e+000dB,-1.65785377573719e+002°)
4.13682040238856e+003	(-7.09614319972009e+000dB,-1.66750963245842e+002°)
4.16869383470340e+003	(-7.25612266678113e+000dB,-1.67708692403510e+002°)
4.20081284589012e+003	(-7.41757380794875e+000dB,-1.68658456406486e+002°)
4.23317932808826e+003	(-7.58045649453628e+000dB,-1.69600157658090e+002°)
4.26579518801598e+003	(-7.74473076593338e+000dB,-1.70533709325056e+002°)
4.29866234708233e+003	(-7.91035690158611e+000dB,-1.71459035035782e+002°)
4.33178274150047e+003	(-8.07729548821199e+000dB,-1.72376068559891e+002°)
4.36515832240171e+003	(-8.24550748222473e+000dB,-1.73284753471942e+002°)
4.39879105595049e+003	(-8.41495426737834e+000dB,-1.74185042802017e+002°)
4.43268292346014e+003	(-8.58559770767270e+000dB,-1.75076898675796e+002°)
4.46683592150969e+003	(-8.75740019559173e+000dB,-1.75960291946585e+002°)
4.50125206206139e+003	(-8.93032469577042e+000dB,-1.76835201821631e+002°)
4.53593337257933e+003	(-9.10433478420964e+000dB,-1.77701615484893e+002°)
4.57088189614881e+003	(-9.27939468317721e+000dB,-1.78559527718297e+002°)
4.60609969159672e+003	(-9.45546929194945e+000dB,-1.79408940523318e+002°)
4.64158883361284e+003	(-9.63252421356146e+000dB,1.79750137255391e+002°)
4.67735141287204e+003	(-9.81052577774446e+000dB,1.78917690302807e+002°)
4.71338953615747e+003	(-9.98944106023698e+000dB,1.78093697201376e+002°)
4.74970532648462e+003	(-1.01692378986630e+001dB,1.77278130792663e+002°)
4.78630092322645e+003	(-1.03498849051727e+001dB,1.76470958531724e+002°)
4.82317848223937e+003	(-1.05313514760443e+001dB,1.75672142833257e+002°)
4.86034017599028e+003	(-1.07136077984455e+001dB,1.74881641408717e+002°)
4.89778819368453e+003	(-1.08966248545504e+001dB,1.74099407593710e+002°)
4.93552474139487e+003	(-1.10803744232062e+001dB,1.73325390665097e+002°)
4.97355204219146e+003	(-1.12648290793396e+001dB,1.72559536147364e+002°)
5.00000000000000e+003	(-1.13926854396918e+001dB,1.72035068273958e+002°)
Step Information: Run=2  (Run: 2/50)
1.00000000000000e+003	(2.53259002824804e-002dB,-3.47682752921194e+001°)
1.00770481413610e+003	(2.57431160682081e-002dB,-3.50454544304095e+001°)
1.01546899243308e+003	(2.61654680379245e-002dB,-3.53250170961359e+001°)
1.02329299228075e+003	(2.65929070851438e-002dB,-3.56069885583315e+001°)
1.03117727459306e+003	(2.70253751787505e-002dB,-3.58913944799992e+001°)
1.03912230383517e+003	(2.74628047726053e-002dB,-3.61782609269493e+001°)
1.04712854805090e+003	(2.79051181825660e-002dB,-3.64676143768631e+001°)
1.05519647889024e+003	(2.83522269291322e-002dB,-3.67594817285905e+001°)
1.06332657163716e+003	(2.88040310441594e-002dB,-3.70538903116836e+001°)
1.07151930523761e+003	(2.92604183395053e-002dB,-3.73508678961734e+001°)
1.07977516232771e+003	(2.97212636359636e-002dB,-3.76504427025948e+001°)
1.08809462926223e+003	(3.01864279502256e-002dB,-3.79526434122626e+001°)
1.09647819614319e+003	(3.06557576378974e-002dB,-3.82574991778067e+001°)
1.10492635684876e+003	(3.11290834902191e-002dB,-3.85650396339691e+001°)
1.11343960906236e+003	(3.16062197822435e-002dB,-3.88752949086677e+001°)
1.12201845430197e+003	(3.20869632699331e-002dB,-3.91882956343342e+001°)
1.13066339794964e+003	(3.25710921337025e-002dB,-3.95040729595262e+001°)
1.13937494928134e+003	(3.30583648655266e-002dB,-3.98226585608229e+001°)
1.14815362149688e+003	(3.35485190970935e-002dB,-4.01440846550054e+001°)
1.15699993175021e+003	(3.40412703656109e-002dB,-4.04683840115272e+001°)
1.16591440117983e+003	(3.45363108146880e-002dB,-4.07955899652786e+001°)
1.17489755493953e+003	(3.50333078265429e-002dB,-4.11257364296481e+001°)
1.18394992222930e+003	(3.55319025824458e-002dB,-4.14588579098858e+001°)
1.19307203632654e+003	(3.60317085477836e-002dB,-4.17949895167705e+001°)
1.20226443461742e+003	(3.65323098778916e-002dB,-4.21341669805830e+001°)
1.21152765862859e+003	(3.70332597408991e-002dB,-4.24764266653897e+001°)
1.22086225405907e+003	(3.75340785534751e-002dB,-4.28218055836362e+001°)
1.23026877081238e+003	(3.80342521251627e-002dB,-4.31703414110542e+001°)
1.23974776302895e+003	(3.85332297067985e-002dB,-4.35220725018813e+001°)
1.24929978911874e+003	(3.90304219385432e-002dB,-4.38770379043937e+001°)
1.25892541179417e+003	(3.95251986923508e-002dB,-4.42352773767528e+001°)
1.26862519810326e+003	(4.00168868041448e-002dB,-4.45968314031627e+001°)
1.27839971946303e+003	(4.05047676899756e-002dB,-4.49617412103367e+001°)
1.28824955169314e+003	(4.09880748409723e-002dB,-4.53300487842717e+001°)
1.29817527504985e+003	(4.14659911910602e-002dB,-4.57017968873232e+001°)
1.30817747426020e+003	(4.19376463514094e-002dB,-4.60770290755785e+001°)
1.31825673855641e+003	(4.24021137054980e-002dB,-4.64557897165200e+001°)
1.32841366171065e+003	(4.28584073578439e-002dB,-4.68381240069718e+001°)
1.33864884207000e+003	(4.33054789300392e-002dB,-4.72240779913197e+001°)
1.34896288259166e+003	(4.37422141963887e-002dB,-4.76136985799940e+001°)
1.35935639087853e+003	(4.41674295522357e-002dB,-4.80070335682031e+001°)
1.36982997921497e+003	(4.45798683069166e-002dB,-4.84041316549026e+001°)
1.38038426460289e+003	(4.49781967933074e-002dB,-4.88050424619842e+001°)
1.39101986879806e+003	(4.53610002858246e-002dB,-4.92098165536654e+001°)
1.40173741834677e+003	(4.57267787179824e-002dB,-4.96185054560586e+001°)
1.41253754462276e+003	(4.60739421905218e-002dB,-5.00311616768973e+001°)
1.42342088386435e+003	(4.64008062608804e-002dB,-5.04478387253913e+001°)
1.43438807721197e+003	(4.67055870042114e-002dB,-5.08685911321822e+001°)
1.44543977074593e+003	(4.69863958359614e-002dB,-5.12934744693670e+001°)
1.45657661552446e+003	(4.72412340854876e-002dB,-5.17225453705530e+001°)
1.46779926762207e+003	(4.74679873104234e-002dB,-5.21558615509027e+001°)
1.47910838816821e+003	(4.76644193400743e-002dB,-5.25934818271283e+001°)
1.49050464338620e+003	(4.78281660369504e-002dB,-5.30354661373823e+001°)
1.50198870463249e+003	(4.79567287645311e-002dB,-5.34818755609951e+001°)
1.51356124843621e+003	(4.80474675490220e-002dB,-5.39327723379994e+001°)
1.52522295653902e+003	(4.80975939228770e-002dB,-5.43882198883773e+001°)
1.53697451593528e+003	(4.81041634371648e-002dB,-5.48482828309624e+001°)
1.54881661891249e+003	(4.80640678300240e-002dB,-5.53130270019183e+001°)
1.56074996309212e+003	(4.79740268374586e-002dB,-5.57825194727141e+001°)
1.57277525147067e+003	(4.78305796333391e-002dB,-5.62568285675048e+001°)
1.58489319246112e+003	(4.76300758844578e-002dB,-5.67360238798202e+001°)
1.59710449993461e+003	(4.73686664067129e-002dB,-5.72201762884586e+001°)
