Freq.	V(vout)
Step Information: Run=1  (Run: 1/100)
1.00000000000000e+003	(5.54191608718762e-002dB,-3.50833925916717e+001°)
1.00770481413610e+003	(5.60379399303313e-002dB,-3.53667119931353e+001°)
1.01546899243308e+003	(5.66568414814210e-002dB,-3.56525358517484e+001°)
1.02329299228075e+003	(5.72754904585772e-002dB,-3.59408915544071e+001°)
1.03117727459306e+003	(5.78934903803447e-002dB,-3.62318069035958e+001°)
1.03912230383517e+003	(5.85104223536650e-002dB,-3.65253101255381e+001°)
1.04712854805090e+003	(5.91258440332244e-002dB,-3.68214298785049e+001°)
1.05519647889024e+003	(5.97392885344961e-002dB,-3.71201952612821e+001°)
1.06332657163716e+003	(6.03502632988758e-002dB,-3.74216358217972e+001°)
1.07151930523761e+003	(6.09582489085330e-002dB,-3.77257815659057e+001°)
1.07977516232771e+003	(6.15626978489655e-002dB,-3.80326629663379e+001°)
1.08809462926223e+003	(6.21630332169848e-002dB,-3.83423109718063e+001°)
1.09647819614319e+003	(6.27586473717827e-002dB,-3.86547570162717e+001°)
1.10492635684876e+003	(6.33489005265734e-002dB,-3.89700330283697e+001°)
1.11343960906236e+003	(6.39331192783554e-002dB,-3.92881714409944e+001°)
1.12201845430197e+003	(6.45105950731899e-002dB,-3.96092052010396e+001°)
1.13066339794964e+003	(6.50805826040358e-002dB,-3.99331677792947e+001°)
1.13937494928134e+003	(6.56422981385761e-002dB,-4.02600931804933e+001°)
1.14815362149688e+003	(6.61949177738369e-002dB,-4.05900159535118e+001°)
1.15699993175021e+003	(6.67375756146703e-002dB,-4.09229712017142e+001°)
1.16591440117983e+003	(6.72693618727558e-002dB,-4.12589945934407e+001°)
1.17489755493953e+003	(6.77893208829361e-002dB,-4.15981223726332e+001°)
1.18394992222930e+003	(6.82964490333764e-002dB,-4.19403913695948e+001°)
1.19307203632654e+003	(6.87896926059016e-002dB,-4.22858390118751e+001°)
1.20226443461742e+003	(6.92679455229665e-002dB,-4.26345033352775e+001°)
1.21152765862859e+003	(6.97300469971721e-002dB,-4.29864229949775e+001°)
1.22086225405907e+003	(7.01747790796482e-002dB,-4.33416372767458e+001°)
1.23026877081238e+003	(7.06008641028910e-002dB,-4.37001861082656e+001°)
1.23974776302895e+003	(7.10069620138910e-002dB,-4.40621100705344e+001°)
1.24929978911874e+003	(7.13916675931850e-002dB,-4.44274504093370e+001°)
1.25892541179417e+003	(7.17535075552336e-002dB,-4.47962490467784e+001°)
1.26862519810326e+003	(7.20909375253026e-002dB,-4.51685485928606e+001°)
1.27839971946303e+003	(7.24023388881662e-002dB,-4.55443923570895e+001°)
1.28824955169314e+003	(7.26860155033657e-002dB,-4.59238243600919e+001°)
1.29817527504985e+003	(7.29401902820529e-002dB,-4.63068893452264e+001°)
1.30817747426020e+003	(7.31630016199815e-002dB,-4.66936327901662e+001°)
1.31825673855641e+003	(7.33524996811642e-002dB,-4.70841009184306e+001°)
1.32841366171065e+003	(7.35066425264363e-002dB,-4.74783407108417e+001°)
1.33864884207000e+003	(7.36232920814170e-002dB,-4.78763999168801e+001°)
1.34896288259166e+003	(7.37002099374862e-002dB,-4.82783270659079e+001°)
1.35935639087853e+003	(7.37350529801484e-002dB,-4.86841714782319e+001°)
1.36982997921497e+003	(7.37253688380415e-002dB,-4.90939832759684e+001°)
1.38038426460289e+003	(7.36685911467198e-002dB,-4.95078133936767e+001°)
1.39101986879806e+003	(7.35620346201449e-002dB,-4.99257135887191e+001°)
1.40173741834677e+003	(7.34028899238059e-002dB,-5.03477364513062e+001°)
1.41253754462276e+003	(7.31882183422456e-002dB,-5.07739354141799e+001°)
1.42342088386435e+003	(7.29149462344141e-002dB,-5.12043647618870e+001°)
1.43438807721197e+003	(7.25798592698280e-002dB,-5.16390796395873e+001°)
1.44543977074593e+003	(7.21795964384356e-002dB,-5.20781360613403e+001°)
1.45657661552446e+003	(7.17106438273417e-002dB,-5.25215909178107e+001°)
1.46779926762207e+003	(7.11693281569217e-002dB,-5.29695019833234e+001°)
1.47910838816821e+003	(7.05518100696412e-002dB,-5.34219279222011e+001°)
1.49050464338620e+003	(6.98540771640156e-002dB,-5.38789282943076e+001°)
1.50198870463249e+003	(6.90719367670592e-002dB,-5.43405635597161e+001°)
1.51356124843621e+003	(6.82010084378706e-002dB,-5.48068950824176e+001°)
1.52522295653902e+003	(6.72367161958400e-002dB,-5.52779851329772e+001°)
1.53697451593528e+003	(6.61742804662324e-002dB,-5.57538968900414e+001°)
1.54881661891249e+003	(6.50087097372398e-002dB,-5.62346944405919e+001°)
1.56074996309212e+003	(6.37347919216657e-002dB,-5.67204427788360e+001°)
1.57277525147067e+003	(6.23470854175778e-002dB,-5.72112078036163e+001°)
1.58489319246112e+003	(6.08399098620698e-002dB,-5.77070563142151e+001°)
1.59710449993461e+003	(5.92073365731633e-002dB,-5.82080560044224e+001°)
1.60940989326254e+003	(5.74431786749391e-002dB,-5.87142754547267e+001°)
1.62181009735894e+003	(5.55409809017985e-002dB,-5.92257841224825e+001°)
1.63430584272314e+003	(5.34940090785662e-002dB,-5.97426523298971e+001°)
1.64689786548288e+003	(5.12952392733794e-002dB,-6.02649512496731e+001°)
1.65958690743757e+003	(4.89373466219545e-002dB,-6.07927528881331e+001°)
1.67237371610209e+003	(4.64126938217888e-002dB,-6.13261300656439e+001°)
1.68525904475076e+003	(4.37133192972725e-002dB,-6.18651563941483e+001°)
1.69824365246175e+003	(4.08309250361670e-002dB,-6.24099062516041e+001°)
1.71132830416179e+003	(3.77568641012694e-002dB,-6.29604547531183e+001°)
1.72451377067121e+003	(3.44821278206660e-002dB,-6.35168777185563e+001°)
1.73780082874938e+003	(3.09973326630800e-002dB,-6.40792516363969e+001°)
1.75119026114047e+003	(2.72927068059533e-002dB,-6.46476536235895e+001°)
1.76468285661951e+003	(2.33580764058972e-002dB,-6.52221613811681e+001°)
1.77827941003893e+003	(1.91828515838873e-002dB,-6.58028531453582e+001°)
1.79198072237534e+003	(1.47560121391794e-002dB,-6.63898076339100e+001°)
1.80578760077673e+003	(1.00660930093694e-002dB,-6.69831039873791e+001°)
1.81970085860999e+003	(5.10116949638715e-003dB,-6.75828217050666e+001°)
1.83372131550889e+003	(-1.51157718742354e-004dB,-6.81890405753264e+001°)
1.84784979742230e+003	(-5.70377774597699e-003dB,-6.88018405999328e+001°)
1.86208713666288e+003	(-1.15700848109370e-002dB,-6.94213019122028e+001°)
1.87643417195610e+003	(-1.77639937010612e-002dB,-7.00475046885569e+001°)
1.89089174848965e+003	(-2.42999552947801e-002dB,-7.06805290531965e+001°)
1.90546071796326e+003	(-3.11929721317316e-002dB,-7.13204549755788e+001°)
1.92014193863881e+003	(-3.84586139768708e-002dB,-7.19673621603605e+001°)
1.93493627539096e+003	(-4.61130333266037e-002dB,-7.26213299294888e+001°)
1.94984459975806e+003	(-5.41729807997236e-002dB,-7.32824370961146e+001°)
1.96486778999348e+003	(-6.26558203504104e-002dB,-7.39507618300113e+001°)
1.98000673111740e+003	(-7.15795442345635e-002dB,-7.46263815141866e+001°)
1.99526231496889e+003	(-8.09627876551033e-002dB,-7.53093725923868e+001°)
2.01063544025850e+003	(-9.08248430049008e-002dB,-7.59998104072029e+001°)
2.02612701262116e+003	(-1.01185673620107e-001dB,-7.66977690285084e+001°)
2.04173794466954e+003	(-1.12065926949259e-001dB,-7.74033210719747e+001°)
2.05746915604785e+003	(-1.23486947037176e-001dB,-7.81165375074372e+001°)
2.07332157348597e+003	(-1.35470786215019e-001dB,-7.88374874569140e+001°)
2.08929613085405e+003	(-1.48040215881027e-001dB,-7.95662379821093e+001°)
2.10539376921757e+003	(-1.61218736249384e-001dB,-8.03028538612789e+001°)
2.12161543689270e+003	(-1.75030584936952e-001dB,-8.10473973553744e+001°)
2.13796208950225e+003	(-1.89500744250875e-001dB,-8.17999279634356e+001°)
2.15443469003190e+003	(-2.04654947033349e-001dB,-8.25605021672567e+001°)
2.17103420888697e+003	(-2.20519680912357e-001dB,-8.33291731654173e+001°)
2.18776162394957e+003	(-2.37122190801907e-001dB,-8.41059905968351e+001°)
2.20461792063620e+003	(-2.54490479488559e-001dB,-8.48910002540786e+001°)
2.22160409195583e+003	(-2.72653306136672e-001dB,-8.56842437867613e+001°)
2.23872113856835e+003	(-2.91640182539100e-001dB,-8.64857583954269e+001°)
2.25597006884359e+003	(-3.11481366938036e-001dB,-8.72955765164398e+001°)
2.27335189892065e+003	(-3.32207855236493e-001dB,-8.81137254984966e+001°)
2.29086765276779e+003	(-3.53851369420452e-001dB,-8.89402272714868e+001°)
2.30851836224278e+003	(-3.76444343011465e-001dB,-8.97750980085549e+001°)
2.32630506715364e+003	(-4.00019903370649e-001dB,-9.06183477823358e+001°)
2.34422881531994e+003	(-4.24611850678320e-001dB,-9.14699802164699e+001°)
2.36229066263448e+003	(-4.50254633418590e-001dB,-9.23299921336407e+001°)
2.38049167312553e+003	(-4.76983320205207e-001dB,-9.31983732015136e+001°)
2.39883291901951e+003	(-5.04833567793838e-001dB,-9.40751055781005e+001°)
2.41731548080412e+003	(-5.33841585138609e-001dB,-9.49601635582163e+001°)
2.43594044729204e+003	(-5.64044093363456e-001dB,-9.58535132228375e+001°)
2.45470891568505e+003	(-5.95478281536824e-001dB,-9.67551120933146e+001°)
2.47362199163864e+003	(-6.28181758157271e-001dB,-9.76649087925263e+001°)
2.49268078932720e+003	(-6.62192498279786e-001dB,-9.85828427151979e+001°)
2.51188643150960e+003	(-6.97548786238335e-001dB,-9.95088437097248e+001°)
2.53124004959538e+003	(-7.34289153947706e-001dB,-1.00442831773962e+002°)
2.55074278371138e+003	(-7.72452314799140e-001dB,-1.01384716767531e+002°)
2.57039578276888e+003	(-8.12077093197618e-001dB,-1.02334398143289e+002°)
2.59020020453134e+003	(-8.53202349825001e-001dB,-1.03291764700663e+002°)
2.61015721568256e+003	(-8.95866902752360e-001dB,-1.04256694363587e+002°)
2.63026799189540e+003	(-9.40109444564619e-001dB,-1.05229053985838e+002°)
2.65053371790110e+003	(-9.85968455704483e-001dB,-1.06208699186493e+002°)
2.67095558755901e+003	(-1.03348211428558e+000dB,-1.07195474218264e+002°)
2.69153480392694e+003	(-1.08268820267053e+000dB,-1.08189211871348e+002°)
2.71227257933205e+003	(-1.13362401115427e+000dB,-1.09189733415360e+002°)
2.73317013544226e+003	(-1.18632623913880e+000dB,-1.10196848581761e+002°)
2.75422870333819e+003	(-1.24083089422974e+000dB,-1.11210355589027e+002°)
2.77544952358573e+003	(-1.29717318972767e+000dB,-1.12230041212618e+002°)
2.79683384630910e+003	(-1.35538744102868e+000dB,-1.13255680901521e+002°)
2.81838293126448e+003	(-1.41550696148573e+000dB,-1.14287038942898e+002°)
2.84009804791424e+003	(-1.47756395831690e+000dB,-1.15323868676045e+002°)
2.86198047550173e+003	(-1.54158942917658e+000dB,-1.16365912756504e+002°)
2.88403150312663e+003	(-1.60761306002952e+000dB,-1.17412903470827e+002°)
2.90625242982089e+003	(-1.67566312498719e+000dB,-1.18464563102063e+002°)
2.92864456462526e+003	(-1.74576638877832e+000dB,-1.19520604345620e+002°)
2.95120922666641e+003	(-1.81794801252987e+000dB,-1.20580730774733e+002°)
2.97394774523463e+003	(-1.89223146353413e+000dB,-1.21644637354289e+002°)
2.99686145986215e+003	(-1.96863842966675e+000dB,-1.22712011001333e+002°)
3.01995172040204e+003	(-2.04718873910313e+000dB,-1.23782531190091e+002°)
3.04321988710775e+003	(-2.12790028595505e+000dB,-1.24855870598940e+002°)
3.06666733071321e+003	(-2.21078896241524e+000dB,-1.25931695796287e+002°)
3.09029543251362e+003	(-2.29586859795599e+000dB,-1.27009667961917e+002°)
3.11410558444679e+003	(-2.38315090607960e+000dB,-1.28089443640018e+002°)
3.13809918917516e+003	(-2.47264543906186e+000dB,-1.29170675519695e+002°)
3.16227766016841e+003	(-2.56435955106784e+000dB,-1.30253013238521e+002°)
3.18664242178676e+003	(-2.65829836995230e+000dB,-1.31336104204400e+002°)
3.21119490936485e+003	(-2.75446477798444e+000dB,-1.32419594430792e+002°)
3.23593656929631e+003	(-2.85285940166123e+000dB,-1.33503129380245e+002°)
3.26086885911896e+003	(-2.95348061069613e+000dB,-1.34586354811018e+002°)
3.28599324760069e+003	(-3.05632452619020e+000dB,-1.35668917621606e+002°)
3.31131121482594e+003	(-3.16138503791340e+000dB,-1.36750466687961e+002°)
3.33682425228297e+003	(-3.26865383054620e+000dB,-1.37830653688310e+002°)
3.36253386295166e+003	(-3.37812041865476e+000dB,-1.38909133910599e+002°)
3.38844156139206e+003	(-3.48977219010054e+000dB,-1.39985567037796e+002°)
3.41454887383364e+003	(-3.60359445751734e+000dB,-1.41059617906548e+002°)
3.44085733826517e+003	(-3.71957051742475e+000dB,-1.42130957234957e+002°)
3.46736850452535e+003	(-3.83768171649073e+000dB,-1.43199262315598e+002°)
3.49408393439410e+003	(-3.95790752440554e+000dB,-1.44264217670286e+002°)
3.52100520168456e+003	(-4.08022561278622e+000dB,-1.45325515663478e+002°)
3.54813389233579e+003	(-4.20461193949578e+000dB,-1.46382857071641e+002°)
3.57547160450625e+003	(-4.33104083773426e+000dB,-1.47435951606374e+002°)
3.60301994866789e+003	(-4.45948510923879e+000dB,-1.48484518389492e+002°)
3.63078054770105e+003	(-4.58991612091982e+000dB,-1.49528286378766e+002°)
3.65875503699007e+003	(-4.72230390425624e+000dB,-1.50566994743457e+002°)
3.68694506451962e+003	(-4.85661725677681e+000dB,-1.51600393189218e+002°)
3.71535229097177e+003	(-4.99282384496636e+000dB,-1.52628242232369e+002°)
3.74397838982385e+003	(-5.13089030795280e+000dB,-1.53650313423963e+002°)
3.77282504744704e+003	(-5.27078236135464e+000dB,-1.54666389524416e+002°)
3.80189396320565e+003	(-5.41246490069787e+000dB,-1.55676264629872e+002°)
3.83118684955733e+003	(-5.55590210384405e+000dB,-1.56679744251731e+002°)
3.86070543215386e+003	(-5.70105753190888e+000dB,-1.57676645351123e+002°)
3.89045144994285e+003	(-5.84789422819093e+000dB,-1.58666796330300e+002°)
3.92042665527020e+003	(-5.99637481467245e+000dB,-1.59650036983169e+002°)
3.95063281398328e+003	(-6.14646158569885e+000dB,-1.60626218407359e+002°)
3.98107170553502e+003	(-6.29811659848821e+000dB,-1.61595202880356e+002°)
4.01174512308867e+003	(-6.45130176016759e+000dB,-1.62556863702329e+002°)
4.04265487362349e+003	(-6.60597891107790e+000dB,-1.63511085008382e+002°)
4.07380277804117e+003	(-6.76210990413406e+000dB,-1.64457761552975e+002°)
4.10519067127313e+003	(-6.91965668006827e+000dB,-1.65396798469272e+002°)
4.13682040238856e+003	(-7.07858133842777e+000dB,-1.66328111006189e+002°)
4.16869383470340e+003	(-7.23884620423535e+000dB,-1.67251624245831e+002°)
4.20081284589012e+003	(-7.40041389025876e+000dB,-1.68167272803986e+002°)
4.23317932808826e+003	(-7.56324735486937e+000dB,-1.69075000516235e+002°)
4.26579518801598e+003	(-7.72730995550091e+000dB,-1.69974760112155e+002°)
4.29866234708233e+003	(-7.89256549774902e+000dB,-1.70866512879983e+002°)
4.33178274150047e+003	(-8.05897828017709e+000dB,-1.71750228323968e+002°)
4.36515832240171e+003	(-8.22651313491685e+000dB,-1.72625883816542e+002°)
4.39879105595049e+003	(-8.39513546417292e+000dB,-1.73493464247259e+002°)
4.43268292346014e+003	(-8.56481127275699e+000dB,-1.74352961670359e+002°)
4.46683592150969e+003	(-8.73550719679191e+000dB,-1.75204374952632e+002°)
4.50125206206139e+003	(-8.90719052873891e+000dB,-1.76047709423135e+002°)
4.53593337257933e+003	(-9.07982923890977e+000dB,-1.76882976526160e+002°)
4.57088189614881e+003	(-9.25339199363342e+000dB,-1.77710193478724e+002°)
4.60609969159672e+003	(-9.42784817025262e+000dB,-1.78529382933704e+002°)
4.64158883361284e+003	(-9.60316786912846e+000dB,-1.79340572649611e+002°)
4.67735141287204e+003	(-9.77932192283322e+000dB,1.79856204832122e+002°)
4.71338953615747e+003	(-9.95628190271167e+000dB,1.79060912501599e+002°)
4.74970532648462e+003	(-1.01340201229901e+001dB,1.78273509186020e+002°)
4.78630092322645e+003	(-1.03125096426095e+001dB,1.77493949845827e+002°)
4.82317848223937e+003	(-1.04917242649560e+001dB,1.76722185860999e+002°)
4.86034017599028e+003	(-1.06716385356581e+001dB,1.75958165307161e+002°)
4.89778819368453e+003	(-1.08522277386126e+001dB,1.75201833221269e+002°)
4.93552474139487e+003	(-1.10334678903999e+001dB,1.74453131856687e+002°)
4.97355204219146e+003	(-1.12153357332373e+001dB,1.73712000927562e+002°)
5.01187233627279e+003	(-1.13978087266179e+001dB,1.72978377842465e+002°)
5.05048788109766e+003	(-1.15808650377713e+001dB,1.72252197927315e+002°)
5.08940095151816e+003	(-1.17644835310792e+001dB,1.71533394637667e+002°)
5.12861383991372e+003	(-1.19486437565676e+001dB,1.70821899760475e+002°)
5.16812885632611e+003	(-1.21333259375939e+001dB,1.70117643605500e+002°)
5.20794832859554e+003	(-1.23185109578378e+001dB,1.69420555186550e+002°)
5.24807460249780e+003	(-1.25041803476978e+001dB,1.68730562392784e+002°)
5.28851004188245e+003	(-1.26903162701901e+001dB,1.68047592150317e+002°)
5.32925702881208e+003	(-1.28769015064369e+001dB,1.67371570574413e+002°)
5.37031796370260e+003	(-1.30639194408266e+001dB,1.66702423112539e+002°)
5.41169526546471e+003	(-1.32513540459222e+001dB,1.66040074678589e+002°)
5.45339137164635e+003	(-1.34391898671860e+001dB,1.65384449778585e+002°)
5.49540873857633e+003	(-1.36274120075852e+001dB,1.64735472628176e+002°)
5.53774984150898e+003	(-1.38160061121365e+001dB,1.64093067262257e+002°)
5.58041717477005e+003	(-1.40049583524406e+001dB,1.63457157637030e+002°)
5.62341325190357e+003	(-1.41942554112569e+001dB,1.62827667724839e+002°)
5.66674060582000e+003	(-1.43838844671591e+001dB,1.62204521602104e+002°)
5.71040178894535e+003	(-1.45738331793110e+001dB,1.61587643530658e+002°)
5.75439937337165e+003	(-1.47640896723971e+001dB,1.60976958032834e+002°)
5.79873595100840e+003	(-1.49546425217373e+001dB,1.60372389960582e+002°)
5.84341413373526e+003	(-1.51454807386140e+001dB,1.59773864558943e+002°)
5.88843655355598e+003	(-1.53365937558328e+001dB,1.59181307524165e+002°)
5.93380586275337e+003	(-1.55279714135392e+001dB,1.58594645056753e+002°)
5.97952473404561e+003	(-1.57196039453071e+001dB,1.58013803909734e+002°)
6.02559586074367e+003	(-1.59114819645145e+001dB,1.57438711432410e+002°)
6.07202195690998e+003	(-1.61035964510183e+001dB,1.56869295609853e+002°)
6.11880575751831e+003	(-1.62959387381385e+001dB,1.56305485098406e+002°)
6.16595001861492e+003	(-1.64885004999587e+001dB,1.55747209257418e+002°)
6.21345751748085e+003	(-1.66812737389508e+001dB,1.55194398177457e+002°)
6.26133105279562e+003	(-1.68742507739263e+001dB,1.54646982705219e+002°)
6.30957344480203e+003	(-1.70674242283187e+001dB,1.54104894465344e+002°)
6.35818753547233e+003	(-1.72607870187968e+001dB,1.53568065879346e+002°)
6.40717618867564e+003	(-1.74543323442108e+001dB,1.53036430181844e+002°)
6.45654229034666e+003	(-1.76480536748688e+001dB,1.52509921434284e+002°)
6.50628874865568e+003	(-1.78419447421433e+001dB,1.51988474536330e+002°)
6.55641849417989e+003	(-1.80359995284033e+001dB,1.51472025235072e+002°)
6.60693448007607e+003	(-1.82302122572702e+001dB,1.50960510132235e+002°)
6.65783968225447e+003	(-1.84245773841913e+001dB,1.50453866689511e+002°)
6.70913709955422e+003	(-1.86190895873286e+001dB,1.49952033232178e+002°)
6.76082975391993e+003	(-1.88137437587549e+001dB,1.49454948951122e+002°)
6.81292069057972e+003	(-1.90085349959538e+001dB,1.48962553903392e+002°)
6.86541297822466e+003	(-1.92034585936160e+001dB,1.48474789011413e+002°)
6.91830970918948e+003	(-1.93985100357256e+001dB,1.47991596060960e+002°)
6.97161399963479e+003	(-1.95936849879313e+001dB,1.47512917697994e+002°)
7.02532898973064e+003	(-1.97889792901929e+001dB,1.47038697424476e+002°)
7.07945784384150e+003	(-1.99843889496992e+001dB,1.46568879593229e+002°)
7.13400375071268e+003	(-2.01799101340473e+001dB,1.46103409401949e+002°)
7.18896992365819e+003	(-2.03755391646782e+001dB,1.45642232886440e+002°)
7.24435960075002e+003	(-2.05712725105605e+001dB,1.45185296913151e+002°)
7.30017604500890e+003	(-2.07671067821152e+001dB,1.44732549171080e+002°)
7.35642254459654e+003	(-2.09630387253736e+001dB,1.44283938163123e+002°)
7.41310241300930e+003	(-2.11590652163632e+001dB,1.43839413196913e+002°)
7.47021898927344e+003	(-2.13551832557115e+001dB,1.43398924375221e+002°)
7.52777563814179e+003	(-2.15513899634631e+001dB,1.42962422585967e+002°)
7.58577575029197e+003	(-2.17476825741019e+001dB,1.42529859491879e+002°)
7.64422274252613e+003	(-2.19440584317717e+001dB,1.42101187519876e+002°)
7.70312005797228e+003	(-2.21405149856888e+001dB,1.41676359850176e+002°)
7.76247116628705e+003	(-2.23370497857397e+001dB,1.41255330405209e+002°)
7.82227956386016e+003	(-2.25336604782566e+001dB,1.40838053838341e+002°)
7.88254877402035e+003	(-2.27303448019668e+001dB,1.40424485522466e+002°)
7.94328234724295e+003	(-2.29271005841063e+001dB,1.40014581538472e+002°)
8.00448386135906e+003	(-2.31239257366949e+001dB,1.39608298663638e+002°)
8.06615692176628e+003	(-2.33208182529641e+001dB,1.39205594359963e+002°)
8.12830516164114e+003	(-2.35177762039346e+001dB,1.38806426762469e+002°)
8.19093224215312e+003	(-2.37147977351354e+001dB,1.38410754667493e+002°)
