Freq.	V(vout)
1.00000000000000e+003	(-2.39016633288729e-003dB,-3.50183770930149e+001°)
1.00770481413610e+003	(-2.51373367438702e-003dB,-3.52978228158522e+001°)
1.01546899243308e+003	(-2.64379822909235e-003dB,-3.55796684707877e+001°)
1.02329299228075e+003	(-2.78067951318609e-003dB,-3.58639390712002e+001°)
1.03117727459306e+003	(-2.92471237095609e-003dB,-3.61506599992443e+001°)
1.03912230383517e+003	(-3.07624770088901e-003dB,-3.64398570133759e+001°)
1.04712854805090e+003	(-3.23565321552053e-003dB,-3.67315562560459e+001°)
1.05519647889024e+003	(-3.40331423700210e-003dB,-3.70257842615644e+001°)
1.06332657163716e+003	(-3.57963452977756e-003dB,-3.73225679641388e+001°)
1.07151930523761e+003	(-3.76503717218914e-003dB,-3.76219347060866e+001°)
1.07977516232771e+003	(-3.95996546878834e-003dB,-3.79239122462276e+001°)
1.08809462926223e+003	(-4.16488390513328e-003dB,-3.82285287684541e+001°)
1.09647819614319e+003	(-4.38027914712827e-003dB,-3.85358128904851e+001°)
1.10492635684876e+003	(-4.60666108686613e-003dB,-3.88457936728036e+001°)
1.11343960906236e+003	(-4.84456393711306e-003dB,-3.91585006277789e+001°)
1.12201845430197e+003	(-5.09454737656908e-003dB,-3.94739637289773e+001°)
1.13066339794964e+003	(-5.35719774841533e-003dB,-3.97922134206597e+001°)
1.13937494928134e+003	(-5.63312931425028e-003dB,-4.01132806274694e+001°)
1.14815362149688e+003	(-5.92298556622344e-003dB,-4.04371967643087e+001°)
1.15699993175021e+003	(-6.22744059972718e-003dB,-4.07639937464076e+001°)
1.16591440117983e+003	(-6.54720054957657e-003dB,-4.10937039995807e+001°)
1.17489755493953e+003	(-6.88300509239833e-003dB,-4.14263604706755e+001°)
1.18394992222930e+003	(-7.23562901810441e-003dB,-4.17619966382092e+001°)
1.19307203632654e+003	(-7.60588387382893e-003dB,-4.21006465231943e+001°)
1.20226443461742e+003	(-7.99461968320368e-003dB,-4.24423447001493e+001°)
1.21152765862859e+003	(-8.40272674446363e-003dB,-4.27871263082951e+001°)
1.22086225405907e+003	(-8.83113751093641e-003dB,-4.31350270629306e+001°)
1.23026877081238e+003	(-9.28082855729564e-003dB,-4.34860832669883e+001°)
1.23974776302895e+003	(-9.75282263559313e-003dB,-4.38403318227618e+001°)
1.24929978911874e+003	(-1.02481908248815e-002dB,-4.41978102438033e+001°)
1.25892541179417e+003	(-1.07680547783057e-002dB,-4.45585566669829e+001°)
1.26862519810326e+003	(-1.13135890722263e-002dB,-4.49226098647057e+001°)
1.27839971946303e+003	(-1.18860236614554e-002dB,-4.52900092572764e+001°)
1.28824955169314e+003	(-1.24866464453624e-002dB,-4.56607949254051e+001°)
1.29817527504985e+003	(-1.31168059493079e-002dB,-4.60350076228438e+001°)
1.30817747426020e+003	(-1.37779141266649e-002dB,-4.64126887891415e+001°)
1.31825673855641e+003	(-1.44714492859774e-002dB,-4.67938805625077e+001°)
1.32841366171065e+003	(-1.51989591491282e-002dB,-4.71786257927697e+001°)
1.33864884207000e+003	(-1.59620640453515e-002dB,-4.75669680544086e+001°)
1.34896288259166e+003	(-1.67624602470128e-002dB,-4.79589516596568e+001°)
1.35935639087853e+003	(-1.76019234529521e-002dB,-4.83546216716403e+001°)
1.36982997921497e+003	(-1.84823124252351e-002dB,-4.87540239175432e+001°)
1.38038426460289e+003	(-1.94055727855951e-002dB,-4.91572050017742e+001°)
1.39101986879806e+003	(-2.03737409779353e-002dB,-4.95642123191094e+001°)
1.40173741834677e+003	(-2.13889484033684e-002dB,-4.99750940677844e+001°)
1.41253754462276e+003	(-2.24534257345249e-002dB,-5.03898992625085e+001°)
1.42342088386435e+003	(-2.35695074162995e-002dB,-5.08086777473667e+001°)
1.43438807721197e+003	(-2.47396363597614e-002dB,-5.12314802085772e+001°)
1.44543977074593e+003	(-2.59663688368840e-002dB,-5.16583581870648e+001°)
1.45657661552446e+003	(-2.72523795833360e-002dB,-5.20893640908111e+001°)
1.46779926762207e+003	(-2.86004671170496e-002dB,-5.25245512069367e+001°)
1.47910838816821e+003	(-3.00135592803849e-002dB,-5.29639737134677e+001°)
1.49050464338620e+003	(-3.14947190137280e-002dB,-5.34076866907350e+001°)
1.50198870463249e+003	(-3.30471503687655e-002dB,-5.38557461323504e+001°)
1.51356124843621e+003	(-3.46742047694688e-002dB,-5.43082089557005e+001°)
1.52522295653902e+003	(-3.63793875290330e-002dB,-5.47651330118926e+001°)
1.53697451593528e+003	(-3.81663646315630e-002dB,-5.52265770950842e+001°)
1.54881661891249e+003	(-4.00389697862820e-002dB,-5.56926009511204e+001°)
1.56074996309212e+003	(-4.20012117632973e-002dB,-5.61632652854004e+001°)
1.57277525147067e+003	(-4.40572820190947e-002dB,-5.66386317698860e+001°)
1.58489319246112e+003	(-4.62115626203518e-002dB,-5.71187630491611e+001°)
1.59710449993461e+003	(-4.84686344742995e-002dB,-5.76037227454438e+001°)
1.60940989326254e+003	(-5.08332858739349e-002dB,-5.80935754624446e+001°)
1.62181009735894e+003	(-5.33105213663430e-002dB,-5.85883867879605e+001°)
1.63430584272314e+003	(-5.59055709516168e-002dB,-5.90882232950844e+001°)
1.64689786548288e+003	(-5.86238996205034e-002dB,-5.95931525419011e+001°)
1.65958690743757e+003	(-6.14712172375473e-002dB,-6.01032430695373e+001°)
1.67237371610209e+003	(-6.44534887768933e-002dB,-6.06185643984171e+001°)
1.68525904475076e+003	(-6.75769449169967e-002dB,-6.11391870225737e+001°)
1.69824365246175e+003	(-7.08480930001292e-002dB,-6.16651824018528e+001°)
1.71132830416179e+003	(-7.42737283615483e-002dB,-6.21966229518356e+001°)
1.72451377067121e+003	(-7.78609460329921e-002dB,-6.27335820313001e+001°)
1.73780082874938e+003	(-8.16171528236277e-002dB,-6.32761339270273e+001°)
1.75119026114047e+003	(-8.55500797810994e-002dB,-6.38243538357497e+001°)
1.76468285661951e+003	(-8.96677950337786e-002dB,-6.43783178430284e+001°)
1.77827941003893e+003	(-9.39787170142374e-002dB,-6.49381028988324e+001°)
1.79198072237534e+003	(-9.84916280625136e-002dB,-6.55037867895834e+001°)
1.80578760077673e+003	(-1.03215688405820e-001dB,-6.60754481064196e+001°)
1.81970085860999e+003	(-1.08160450509975e-001dB,-6.66531662094150e+001°)
1.83372131550889e+003	(-1.13335873795596e-001dB,-6.72370211874852e+001°)
1.84784979742230e+003	(-1.18752339709567e-001dB,-6.78270938136932e+001°)
1.86208713666288e+003	(-1.24420667140659e-001dB,-6.84234654956619e+001°)
1.87643417195610e+003	(-1.30352128164474e-001dB,-6.90262182207833e+001°)
1.89089174848965e+003	(-1.36558464100838e-001dB,-6.96354344959068e+001°)
1.90546071796326e+003	(-1.43051901863085e-001dB,-7.02511972811778e+001°)
1.92014193863881e+003	(-1.49845170575228e-001dB,-7.08735899176840e+001°)
1.93493627539096e+003	(-1.56951518429300e-001dB,-7.15026960485616e+001°)
1.94984459975806e+003	(-1.64384729751294e-001dB,-7.21385995332006e+001°)
1.96486778999348e+003	(-1.72159142239247e-001dB,-7.27813843541839e+001°)
1.98000673111740e+003	(-1.80289664332569e-001dB,-7.34311345165852e+001°)
1.99526231496889e+003	(-1.88791792666713e-001dB,-7.40879339392484e+001°)
2.01063544025850e+003	(-1.97681629561811e-001dB,-7.47518663376654e+001°)
2.02612701262116e+003	(-2.06975900487750e-001dB,-7.54230150980683e+001°)
2.04173794466954e+003	(-2.16691971442740e-001dB,-7.61014631423540e+001°)
2.05746915604785e+003	(-2.26847866175475e-001dB,-7.67872927834630e+001°)
2.07332157348597e+003	(-2.37462283174059e-001dB,-7.74805855708352e+001°)
2.08929613085405e+003	(-2.48554612338081e-001dB,-7.81814221255844e+001°)
2.10539376921757e+003	(-2.60144951242754e-001dB,-7.88898819650379e+001°)
2.12161543689270e+003	(-2.72254120895676e-001dB,-7.96060433163103e+001°)
2.13796208950225e+003	(-2.84903680879396e-001dB,-8.03299829186004e+001°)
2.15443469003190e+003	(-2.98115943764347e-001dB,-8.10617758139280e+001°)
2.17103420888697e+003	(-3.11913988668272e-001dB,-8.18014951260577e+001°)
2.18776162394957e+003	(-3.26321673829458e-001dB,-8.25492118273985e+001°)
2.20461792063620e+003	(-3.41363648052960e-001dB,-8.33049944937090e+001°)
2.22160409195583e+003	(-3.57065360879458e-001dB,-8.40689090464903e+001°)
2.23872113856835e+003	(-3.73453071318523e-001dB,-8.48410184830082e+001°)
2.25597006884359e+003	(-3.90553854979118e-001dB,-8.56213825939502e+001°)
2.27335189892065e+003	(-4.08395609422162e-001dB,-8.64100576687980e+001°)
2.29086765276779e+003	(-4.27007057552292e-001dB,-8.72070961890783e+001°)
2.30851836224278e+003	(-4.46417748858675e-001dB,-8.80125465097447e+001°)
2.32630506715364e+003	(-4.66658058308170e-001dB,-8.88264525290434e+001°)
2.34422881531994e+003	(-4.87759182688343e-001dB,-8.96488533473248e+001°)
2.36229066263448e+003	(-5.09753134193787e-001dB,-9.04797829153783e+001°)
2.38049167312553e+003	(-5.32672731045116e-001dB,-9.13192696729965e+001°)
2.39883291901951e+003	(-5.56551584928191e-001dB,-9.21673361786069e+001°)
2.41731548080412e+003	(-5.81424085041346e-001dB,-9.30239987309556e+001°)
2.43594044729204e+003	(-6.07325378539103e-001dB,-9.38892669839753e+001°)
2.45470891568505e+003	(-6.34291347165071e-001dB,-9.47631435561278e+001°)
2.47362199163864e+003	(-6.62358579872109e-001dB,-9.56456236356784e+001°)
2.49268078932720e+003	(-6.91564341236798e-001dB,-9.65366945835218e+001°)
2.51188643150960e+003	(-7.21946535485837e-001dB,-9.74363355353558e+001°)
2.53124004959538e+003	(-7.53543665966369e-001dB,-9.83445170051703e+001°)
2.55074278371138e+003	(-7.86394789909488e-001dB,-9.92612004921914e+001°)
2.57039578276888e+003	(-8.20539468356058e-001dB,-1.00186338093592e+002°)
2.59020020453134e+003	(-8.56017711138823e-001dB,-1.01119872125449e+002°)
2.61015721568256e+003	(-8.92869916841155e-001dB,-1.02061734754572e+002°)
2.63026799189540e+003	(-9.31136807684218e-001dB,-1.03011847643996e+002°)
2.65053371790110e+003	(-9.70859359328798e-001dB,-1.03970121615053e+002°)
2.67095558755901e+003	(-1.01207872561569e+000dB,-1.04936456329042e+002°)
2.69153480392694e+003	(-1.05483615831032e+000dB,-1.05910739991648e+002°)
2.71227257933205e+003	(-1.09917292196116e+000dB,-1.06892849083290e+002°)
2.73317013544226e+003	(-1.14513020402916e+000dB,-1.07882648118662e+002°)
2.75422870333819e+003	(-1.19274902049555e+000dB,-1.08879989438722e+002°)
2.77544952358573e+003	(-1.24207011720672e+000dB,-1.09884713038378e+002°)
2.79683384630910e+003	(-1.29313386726911e+000dB,-1.10896646433046e+002°)
2.81838293126448e+003	(-1.34598016486098e+000dB,-1.11915604567194e+002°)
2.84009804791424e+003	(-1.40064831588297e+000dB,-1.12941389767813e+002°)
2.86198047550173e+003	(-1.45717692592366e+000dB,-1.13973791745591e+002°)
2.88403150312663e+003	(-1.51560378606927e+000dB,-1.15012587646349e+002°)
2.90625242982089e+003	(-1.57596575713718e+000dB,-1.16057542155012e+002°)
2.92864456462526e+003	(-1.63829865296128e+000dB,-1.17108407654087e+002°)
2.95120922666641e+003	(-1.70263712339959e+000dB,-1.18164924438249e+002°)
2.97394774523463e+003	(-1.76901453777467e+000dB,-1.19226820986252e+002°)
2.99686145986215e+003	(-1.83746286948855e+000dB,-1.20293814290927e+002°)
3.01995172040204e+003	(-1.90801258258110e+000dB,-1.21365610247577e+002°)
3.04321988710775e+003	(-1.98069252101802e+000dB,-1.22441904100565e+002°)
3.06666733071321e+003	(-2.05552980150503e+000dB,-1.23522380947362e+002°)
3.09029543251362e+003	(-2.13254971062570e+000dB,-1.24606716298812e+002°)
3.11410558444679e+003	(-2.21177560709178e+000dB,-1.25694576693777e+002°)
3.13809918917516e+003	(-2.29322882987662e+000dB,-1.26785620365811e+002°)
3.16227766016841e+003	(-2.37692861297394e+000dB,-1.27879497958961e+002°)
3.18664242178676e+003	(-2.46289200748617e+000dB,-1.28975853289249e+002°)
3.21119490936485e+003	(-2.55113381169884e+000dB,-1.30074324147904e+002°)
3.23593656929631e+003	(-2.64166650973994e+000dB,-1.31174543141940e+002°)
3.26086885911896e+003	(-2.73450021935810e+000dB,-1.32276138567253e+002°)
3.28599324760069e+003	(-2.82964264927906e+000dB,-1.33378735309017e+002°)
3.31131121482594e+003	(-2.92709906651995e+000dB,-1.34481955763851e+002°)
3.33682425228297e+003	(-3.02687227395463e+000dB,-1.35585420777979e+002°)
3.36253386295166e+003	(-3.12896259833186e+000dB,-1.36688750595379e+002°)
3.38844156139206e+003	(-3.23336788885547e+000dB,-1.37791565809849e+002°)
3.41454887383364e+003	(-3.34008352633878e+000dB,-1.38893488314805e+002°)
3.44085733826517e+003	(-3.44910244285098e+000dB,-1.39994142244731e+002°)
3.46736850452535e+003	(-3.56041515167763e+000dB,-1.41093154902218e+002°)
3.49408393439410e+003	(-3.67400978732669e+000dB,-1.42190157664780e+002°)
3.52100520168456e+003	(-3.78987215522333e+000dB,-1.43284786865818e+002°)
3.54813389233579e+003	(-3.90798579065438e+000dB,-1.44376684644432e+002°)
3.57547160450625e+003	(-4.02833202644856e+000dB,-1.45465499759159e+002°)
3.60301994866789e+003	(-4.15089006880986e+000dB,-1.46550888361086e+002°)
3.63078054770105e+003	(-4.27563708066206e+000dB,-1.47632514722302e+002°)
3.65875503699007e+003	(-4.40254827181242e+000dB,-1.48710051916085e+002°)
3.68694506451962e+003	(-4.53159699520147e+000dB,-1.49783182445807e+002°)
3.71535229097177e+003	(-4.66275484847466e+000dB,-1.50851598820017e+002°)
3.74397838982385e+003	(-4.79599178009138e+000dB,-1.51915004071761e+002°)
3.77282504744704e+003	(-4.93127619917474e+000dB,-1.52973112220710e+002°)
3.80189396320565e+003	(-5.06857508830508e+000dB,-1.54025648677251e+002°)
3.83118684955733e+003	(-5.20785411846670e+000dB,-1.55072350588173e+002°)
3.86070543215386e+003	(-5.34907776537379e+000dB,-1.56112967124143e+002°)
3.89045144994285e+003	(-5.49220942642580e+000dB,-1.57147259709603e+002°)
3.92042665527020e+003	(-5.63721153757274e+000dB,-1.58175002196187e+002°)
3.95063281398328e+003	(-5.78404568940821e+000dB,-1.59195980981169e+002°)
3.98107170553502e+003	(-5.93267274185119e+000dB,-1.60209995072801e+002°)
4.01174512308867e+003	(-6.08305293682239e+000dB,-1.61216856104760e+002°)
4.04265487362349e+003	(-6.23514600837316e+000dB,-1.62216388302174e+002°)
4.07380277804117e+003	(-6.38891128977570e+000dB,-1.63208428401942e+002°)
4.10519067127313e+003	(-6.54430781713843e+000dB,-1.64192825530284e+002°)
4.13682040238856e+003	(-6.70129442916426e+000dB,-1.65169441040545e+002°)
4.16869383470340e+003	(-6.85982986272493e+000dB,-1.66138148314459e+002°)
4.20081284589012e+003	(-7.01987284397786e+000dB,-1.67098832530068e+002°)
4.23317932808826e+003	(-7.18138217480475e+000dB,-1.68051390399593e+002°)
4.26579518801598e+003	(-7.34431681440121e+000dB,-1.68995729880478e+002°)
4.29866234708233e+003	(-7.50863595589563e+000dB,-1.69931769862854e+002°)
4.33178274150047e+003	(-7.67429909791970e+000dB,-1.70859439836551e+002°)
4.36515832240171e+003	(-7.84126611109606e+000dB,-1.71778679540736e+002°)
4.39879105595049e+003	(-8.00949729944688e+000dB,-1.72689438599110e+002°)
4.43268292346014e+003	(-8.17895345676278e+000dB,-1.73591676143505e+002°)
4.46683592150969e+003	(-8.34959591800346e+000dB,-1.74485360428528e+002°)
4.50125206206139e+003	(-8.52138660582950e+000dB,-1.75370468439803e+002°)
4.53593337257933e+003	(-8.69428807238980e+000dB,-1.76246985498137e+002°)
4.57088189614881e+003	(-8.86826353651012e+000dB,-1.77114904861825e+002°)
4.60609969159672e+003	(-9.04327691644679e+000dB,-1.77974227329088e+002°)
4.64158883361284e+003	(-9.21929285838430e+000dB,-1.78824960842492e+002°)
4.67735141287204e+003	(-9.39627676086678e+000dB,-1.79667120097022e+002°)
4.71338953615747e+003	(-9.57419479536368e+000dB,1.79499273846701e+002°)
4.74970532648462e+003	(-9.75301392317541e+000dB,1.78674193942713e+002°)
4.78630092322645e+003	(-9.93270190888958e+000dB,1.77857607532343e+002°)
4.82317848223937e+003	(-1.01132273306000e+001dB,1.77049476708170e+002°)
4.86034017599028e+003	(-1.02945595871016e+001dB,1.76249758668413e+002°)
4.89778819368453e+003	(-1.04766689022711e+001dB,1.75458406061028e+002°)
4.93552474139487e+003	(-1.06595263268431e+001dB,1.74675367316891e+002°)
4.97355204219146e+003	(-1.08431037377838e+001dB,1.73900586971579e+002°)
5.01187233627279e+003	(-1.10273738354613e+001dB,1.73134005975360e+002°)
5.05048788109766e+003	(-1.12123101388048e+001dB,1.72375561991131e+002°)
5.08940095151816e+003	(-1.13978869786363e+001dB,1.71625189680089e+002°)
5.12861383991372e+003	(-1.15840794893540e+001dB,1.70882820975071e+002°)
5.16812885632611e+003	(-1.17708635991352e+001dB,1.70148385341496e+002°)
5.20794832859554e+003	(-1.19582160188200e+001dB,1.69421810025986e+002°)
5.24807460249780e+003	(-1.21461142296283e+001dB,1.68703020292749e+002°)
5.28851004188245e+003	(-1.23345364698530e+001dB,1.67991939647890e+002°)
5.32925702881208e+003	(-1.25234617206654e+001dB,1.67288490051837e+002°)
5.37031796370260e+003	(-1.27128696911578e+001dB,1.66592592120147e+002°)
5.41169526546471e+003	(-1.29027408027411e+001dB,1.65904165312947e+002°)
5.45339137164635e+003	(-1.30930561730082e+001dB,1.65223128113323e+002°)
5.49540873857633e+003	(-1.32837975991618e+001dB,1.64549398194982e+002°)
5.53774984150898e+003	(-1.34749475411027e+001dB,1.63882892579536e+002°)
5.58041717477005e+003	(-1.36664891042620e+001dB,1.63223527783760e+002°)
5.62341325190357e+003	(-1.38584060222576e+001dB,1.62571219957207e+002°)
5.66674060582000e+003	(-1.40506826394449e+001dB,1.61925885010545e+002°)
5.71040178894535e+003	(-1.42433038934289e+001dB,1.61287438735005e+002°)
5.75439937337165e+003	(-1.44362552975935e+001dB,1.60655796913327e+002°)
5.79873595100840e+003	(-1.46295229237044e+001dB,1.60030875422578e+002°)
5.84341413373526e+003	(-1.48230933846301e+001dB,1.59412590329227e+002°)
5.88843655355598e+003	(-1.50169538172251e+001dB,1.58800857976854e+002°)
5.93380586275337e+003	(-1.52110918654119e+001dB,1.58195595066854e+002°)
5.97952473404561e+003	(-1.54054956634954e+001dB,1.57596718732511e+002°)
6.02559586074367e+003	(-1.56001538197373e+001dB,1.57004146606773e+002°)
6.07202195690998e+003	(-1.57950554002169e+001dB,1.56417796884096e+002°)
6.11880575751831e+003	(-1.59901899129989e+001dB,1.55837588376672e+002°)
6.16595001861492e+003	(-1.61855472926258e+001dB,1.55263440565366e+002°)
6.21345751748085e+003	(-1.63811178849513e+001dB,1.54695273645679e+002°)
6.26133105279562e+003	(-1.65768924323258e+001dB,1.54133008569028e+002°)
6.30957344480203e+003	(-1.67728620591444e+001dB,1.53576567079640e+002°)
6.35818753547233e+003	(-1.69690182577646e+001dB,1.53025871747319e+002°)
6.40717618867564e+003	(-1.71653528747999e+001dB,1.52480845996367e+002°)
6.45654229034666e+003	(-1.73618580977918e+001dB,1.51941414130904e+002°)
6.50628874865568e+003	(-1.75585264422635e+001dB,1.51407501356819e+002°)
6.55641849417989e+003	(-1.77553507391539e+001dB,1.50879033800594e+002°)
6.60693448007607e+003	(-1.79523241226331e+001dB,1.50355938525208e+002°)
6.65783968225447e+003	(-1.81494400182955e+001dB,1.49838143543332e+002°)
6.70913709955422e+003	(-1.83466921317286e+001dB,1.49325577828005e+002°)
6.76082975391993e+003	(-1.85440744374521e+001dB,1.48818171320987e+002°)
6.81292069057972e+003	(-1.87415811682241e+001dB,1.48315854938947e+002°)
6.86541297822466e+003	(-1.89392068047072e+001dB,1.47818560577672e+002°)
6.91830970918948e+003	(-1.91369460654890e+001dB,1.47326221114427e+002°)
6.97161399963479e+003	(-1.93347938974507e+001dB,1.46838770408637e+002°)
7.02532898973064e+003	(-1.95327454664753e+001dB,1.46356143301017e+002°)
7.07945784384150e+003	(-1.97307961484896e+001dB,1.45878275611278e+002°)
7.13400375071268e+003	(-1.99289415208309e+001dB,1.45405104134536e+002°)
7.18896992365819e+003	(-2.01271773539307e+001dB,1.44936566636535e+002°)
7.24435960075002e+003	(-2.03254996033075e+001dB,1.44472601847794e+002°)
7.30017604500890e+003	(-2.05239044018600e+001dB,1.44013149456775e+002°)
7.35642254459654e+003	(-2.07223880524529e+001dB,1.43558150102165e+002°)
7.41310241300930e+003	(-2.09209470207852e+001dB,1.43107545364365e+002°)
7.47021898927344e+003	(-2.11195779285351e+001dB,1.42661277756262e+002°)
7.52777563814179e+003	(-2.13182775467709e+001dB,1.42219290713359e+002°)
7.58577575029197e+003	(-2.15170427896201e+001dB,1.41781528583343e+002°)
7.64422274252613e+003	(-2.17158707081889e+001dB,1.41347936615145e+002°)
7.70312005797228e+003	(-2.19147584847237e+001dB,1.40918460947558e+002°)
7.76247116628705e+003	(-2.21137034270057e+001dB,1.40493048597476e+002°)
7.82227956386016e+003	(-2.23127029629719e+001dB,1.40071647447797e+002°)
7.88254877402035e+003	(-2.25117546355535e+001dB,1.39654206235043e+002°)
7.94328234724295e+003	(-2.27108560977249e+001dB,1.39240674536738e+002°)
8.00448386135906e+003	(-2.29100051077553e+001dB,1.38831002758601e+002°)
8.06615692176628e+003	(-2.31091995246556e+001dB,1.38425142121565e+002°)
8.12830516164114e+003	(-2.33084373038136e+001dB,1.38023044648686e+002°)
