Freq.	V(vout)
Step Information: Run=1  (Run: 1/50)
1.00000000000000e+002	(3.63095956317214e-003dB,-1.74106785910919e+000°)
1.00770481413610e+002	(3.69137389845248e-003dB,-1.75449882580769e+000°)
1.01546899243308e+002	(3.75272187869410e-003dB,-1.76803365687685e+000°)
1.02329299228075e+002	(3.81501791819598e-003dB,-1.78167316145860e+000°)
1.03117727459306e+002	(3.87827665336773e-003dB,-1.79541815513641e+000°)
1.03912230383517e+002	(3.94251294611580e-003dB,-1.80926945998967e+000°)
1.04712854805090e+002	(4.00774188730597e-003dB,-1.82322790464874e+000°)
1.05519647889024e+002	(4.07397880027125e-003dB,-1.83729432435044e+000°)
1.06332657163716e+002	(4.14123924439235e-003dB,-1.85146956099421e+000°)
1.07151930523761e+002	(4.20953901869841e-003dB,-1.86575446319864e+000°)
1.07977516232771e+002	(4.27889416554587e-003dB,-1.88014988635877e+000°)
1.08809462926223e+002	(4.34932097438136e-003dB,-1.89465669270376e+000°)
1.09647819614319e+002	(4.42083598547656e-003dB,-1.90927575135532e+000°)
1.10492635684876e+002	(4.49345599379904e-003dB,-1.92400793838657e+000°)
1.11343960906236e+002	(4.56719805293992e-003dB,-1.93885413688156e+000°)
1.12201845430196e+002	(4.64207947904625e-003dB,-1.95381523699540e+000°)
1.13066339794964e+002	(4.71811785481412e-003dB,-1.96889213601494e+000°)
1.13937494928134e+002	(4.79533103365600e-003dB,-1.98408573842015e+000°)
1.14815362149688e+002	(4.87373714378220e-003dB,-1.99939695594600e+000°)
1.15699993175021e+002	(4.95335459241416e-003dB,-2.01482670764512e+000°)
1.16591440117983e+002	(5.03420207008718e-003dB,-2.03037591995092e+000°)
1.17489755493953e+002	(5.11629855495377e-003dB,-2.04604552674156e+000°)
1.18394992222930e+002	(5.19966331720539e-003dB,-2.06183646940437e+000°)
1.19307203632654e+002	(5.28431592355441e-003dB,-2.07774969690112e+000°)
1.20226443461742e+002	(5.37027624173024e-003dB,-2.09378616583381e+000°)
1.21152765862859e+002	(5.45756444511669e-003dB,-2.10994684051127e+000°)
1.22086225405907e+002	(5.54620101741873e-003dB,-2.12623269301633e+000°)
1.23026877081238e+002	(5.63620675742031e-003dB,-2.14264470327381e+000°)
1.23974776302895e+002	(5.72760278378308e-003dB,-2.15918385911914e+000°)
1.24929978911874e+002	(5.82041053993791e-003dB,-2.17585115636771e+000°)
1.25892541179417e+002	(5.91465179905202e-003dB,-2.19264759888501e+000°)
1.26862519810326e+002	(6.01034866909072e-003dB,-2.20957419865745e+000°)
1.27839971946303e+002	(6.10752359790057e-003dB,-2.22663197586391e+000°)
1.28824955169314e+002	(6.20619937840840e-003dB,-2.24382195894820e+000°)
1.29817527504985e+002	(6.30639915389747e-003dB,-2.26114518469207e+000°)
1.30817747426020e+002	(6.40814642337812e-003dB,-2.27860269828917e+000°)
1.31825673855641e+002	(6.51146504696040e-003dB,-2.29619555341982e+000°)
1.32841366171065e+002	(6.61637925142888e-003dB,-2.31392481232640e+000°)
1.33864884207000e+002	(6.72291363580589e-003dB,-2.33179154588982e+000°)
1.34896288259166e+002	(6.83109317702432e-003dB,-2.34979683370655e+000°)
1.35935639087853e+002	(6.94094323572354e-003dB,-2.36794176416673e+000°)
1.36982997921497e+002	(7.05248956205078e-003dB,-2.38622743453302e+000°)
1.38038426460289e+002	(7.16575830166443e-003dB,-2.40465495102026e+000°)
1.39101986879806e+002	(7.28077600169646e-003dB,-2.42322542887616e+000°)
1.40173741834677e+002	(7.39756961692038e-003dB,-2.44193999246278e+000°)
1.41253754462276e+002	(7.51616651593800e-003dB,-2.46079977533892e+000°)
1.42342088386435e+002	(7.63659448747135e-003dB,-2.47980592034346e+000°)
1.43438807721197e+002	(7.75888174680035e-003dB,-2.49895957967964e+000°)
1.44543977074593e+002	(7.88305694221307e-003dB,-2.51826191500029e+000°)
1.45657661552446e+002	(8.00914916163232e-003dB,-2.53771409749396e+000°)
1.46779926762207e+002	(8.13718793926627e-003dB,-2.55731730797210e+000°)
1.47910838816821e+002	(8.26720326243711e-003dB,-2.57707273695720e+000°)
1.49050464338620e+002	(8.39922557844900e-003dB,-2.59698158477193e+000°)
1.50198870463249e+002	(8.53328580156447e-003dB,-2.61704506162938e+000°)
1.51356124843621e+002	(8.66941532015090e-003dB,-2.63726438772417e+000°)
1.52522295653902e+002	(8.80764600385058e-003dB,-2.65764079332479e+000°)
1.53697451593528e+002	(8.94801021087235e-003dB,-2.67817551886696e+000°)
1.54881661891249e+002	(9.09054079546459e-003dB,-2.69886981504793e+000°)
1.56074996309212e+002	(9.23527111540374e-003dB,-2.71972494292221e+000°)
1.57277525147067e+002	(9.38223503963872e-003dB,-2.74074217399800e+000°)
1.58489319246112e+002	(9.53146695608943e-003dB,-2.76192279033518e+000°)
1.59710449993461e+002	(9.68300177942370e-003dB,-2.78326808464417e+000°)
1.60940989326254e+002	(9.83687495916518e-003dB,-2.80477936038600e+000°)
1.62181009735894e+002	(9.99312248771986e-003dB,-2.82645793187378e+000°)
1.63430584272314e+002	(1.01517809085848e-002dB,-2.84830512437511e+000°)
1.64689786548288e+002	(1.03128873248007e-002dB,-2.87032227421588e+000°)
1.65958690743757e+002	(1.04764794072940e-002dB,-2.89251072888536e+000°)
1.67237371610209e+002	(1.06425954035581e-002dB,-2.91487184714241e+000°)
1.68525904475076e+002	(1.08112741463653e-002dB,-2.93740699912314e+000°)
1.69824365246175e+002	(1.09825550625702e-002dB,-2.96011756644977e+000°)
1.71132830416179e+002	(1.11564781821732e-002dB,-2.98300494234091e+000°)
1.72451377067121e+002	(1.13330841473537e-002dB,-3.00607053172316e+000°)
1.73780082874938e+002	(1.15124142217686e-002dB,-3.02931575134411e+000°)
1.75119026114047e+002	(1.16945102999320e-002dB,-3.05274202988672e+000°)
1.76468285661951e+002	(1.18794149167329e-002dB,-3.07635080808512e+000°)
1.77827941003893e+002	(1.20671712570935e-002dB,-3.10014353884195e+000°)
1.79198072237534e+002	(1.22578231657797e-002dB,-3.12412168734710e+000°)
1.80578760077673e+002	(1.24514151573467e-002dB,-3.14828673119790e+000°)
1.81970085860999e+002	(1.26479924262386e-002dB,-3.17264016052097e+000°)
1.83372131550889e+002	(1.28476008570127e-002dB,-3.19718347809554e+000°)
1.84784979742230e+002	(1.30502870347784e-002dB,-3.22191819947840e+000°)
1.86208713666288e+002	(1.32560982556843e-002dB,-3.24684585313033e+000°)
1.87643417195610e+002	(1.34650825376439e-002dB,-3.27196798054437e+000°)
1.89089174848965e+002	(1.36772886311861e-002dB,-3.29728613637557e+000°)
1.90546071796326e+002	(1.38927660304516e-002dB,-3.32280188857251e+000°)
1.92014193863881e+002	(1.41115649844077e-002dB,-3.34851681851061e+000°)
1.93493627539096e+002	(1.43337365081222e-002dB,-3.37443252112700e+000°)
1.94984459975806e+002	(1.45593323943064e-002dB,-3.40055060505736e+000°)
1.96486778999348e+002	(1.47884052249578e-002dB,-3.42687269277449e+000°)
1.98000673111740e+002	(1.50210083831865e-002dB,-3.45340042072874e+000°)
1.99526231496889e+002	(1.52571960652710e-002dB,-3.48013543949027e+000°)
2.01063544025850e+002	(1.54970232927596e-002dB,-3.50707941389333e+000°)
2.02612701262116e+002	(1.57405459248671e-002dB,-3.53423402318236e+000°)
2.04173794466954e+002	(1.59878206710162e-002dB,-3.56160096116016e+000°)
2.05746915604785e+002	(1.62389051035189e-002dB,-3.58918193633802e+000°)
2.07332157348597e+002	(1.64938576704936e-002dB,-3.61697867208798e+000°)
2.08929613085405e+002	(1.67527377089283e-002dB,-3.64499290679701e+000°)
2.10539376921756e+002	(1.70156054579421e-002dB,-3.67322639402356e+000°)
2.12161543689270e+002	(1.72825220722910e-002dB,-3.70168090265604e+000°)
2.13796208950225e+002	(1.75535496359228e-002dB,-3.73035821707366e+000°)
2.15443469003190e+002	(1.78287511759378e-002dB,-3.75926013730943e+000°)
2.17103420888697e+002	(1.81081906765112e-002dB,-3.78838847921552e+000°)
2.18776162394957e+002	(1.83919330932103e-002dB,-3.81774507463084e+000°)
2.20461792063620e+002	(1.86800443674172e-002dB,-3.84733177155114e+000°)
2.22160409195583e+002	(1.89725914409646e-002dB,-3.87715043430132e+000°)
2.23872113856836e+002	(1.92696422709950e-002dB,-3.90720294371044e+000°)
2.25597006884359e+002	(1.95712658450290e-002dB,-3.93749119728904e+000°)
2.27335189892065e+002	(1.98775321962421e-002dB,-3.96801710940908e+000°)
2.29086765276779e+002	(2.01885124189336e-002dB,-3.99878261148657e+000°)
2.30851836224278e+002	(2.05042786842675e-002dB,-4.02978965216662e+000°)
2.32630506715364e+002	(2.08249042561887e-002dB,-4.06104019751147e+000°)
2.34422881531994e+002	(2.11504635075655e-002dB,-4.09253623119106e+000°)
2.36229066263448e+002	(2.14810319365815e-002dB,-4.12427975467643e+000°)
2.38049167312553e+002	(2.18166861833102e-002dB,-4.15627278743616e+000°)
2.39883291901951e+002	(2.21575040466116e-002dB,-4.18851736713543e+000°)
2.41731548080412e+002	(2.25035645011457e-002dB,-4.22101554983826e+000°)
2.43594044729205e+002	(2.28549477146995e-002dB,-4.25376941021271e+000°)
2.45470891568505e+002	(2.32117350657433e-002dB,-4.28678104173914e+000°)
2.47362199163864e+002	(2.35740091612279e-002dB,-4.32005255692160e+000°)
2.49268078932720e+002	(2.39418538545688e-002dB,-4.35358608750251e+000°)
2.51188643150960e+002	(2.43153542639782e-002dB,-4.38738378468050e+000°)
2.53124004959538e+002	(2.46945967909787e-002dB,-4.42144781933157e+000°)
2.55074278371138e+002	(2.50796691392047e-002dB,-4.45578038223379e+000°)
2.57039578276889e+002	(2.54706603334059e-002dB,-4.49038368429526e+000°)
2.59020020453135e+002	(2.58676607387833e-002dB,-4.52525995678577e+000°)
2.61015721568256e+002	(2.62707620805266e-002dB,-4.56041145157189e+000°)
2.63026799189541e+002	(2.66800574636694e-002dB,-4.59584044135588e+000°)
2.65053371790110e+002	(2.70956413931425e-002dB,-4.63154921991827e+000°)
2.67095558755901e+002	(2.75176097942096e-002dB,-4.66754010236419e+000°)
2.69153480392694e+002	(2.79460600329926e-002dB,-4.70381542537373e+000°)
2.71227257933205e+002	(2.83810909374862e-002dB,-4.74037754745618e+000°)
2.73317013544226e+002	(2.88228028187409e-002dB,-4.77722884920823e+000°)
2.75422870333819e+002	(2.92712974922588e-002dB,-4.81437173357653e+000°)
2.77544952358574e+002	(2.97266782998400e-002dB,-4.85180862612424e+000°)
2.79683384630910e+002	(3.01890501315722e-002dB,-4.88954197530201e+000°)
2.81838293126448e+002	(3.06585194482090e-002dB,-4.92757425272321e+000°)
2.84009804791424e+002	(3.11351943037609e-002dB,-4.96590795344385e+000°)
2.86198047550173e+002	(3.16191843684452e-002dB,-5.00454559624674e+000°)
2.88403150312663e+002	(3.21106009519187e-002dB,-5.04348972393066e+000°)
2.90625242982089e+002	(3.26095570267430e-002dB,-5.08274290360400e+000°)
2.92864456462527e+002	(3.31161672523027e-002dB,-5.12230772698347e+000°)
2.95120922666642e+002	(3.36305479988682e-002dB,-5.16218681069748e+000°)
2.97394774523464e+002	(3.41528173720689e-002dB,-5.20238279659486e+000°)
2.99686145986216e+002	(3.46830952376603e-002dB,-5.24289835205857e+000°)
3.01995172040205e+002	(3.52215032465795e-002dB,-5.28373617032471e+000°)
3.04321988710775e+002	(3.57681648603289e-002dB,-5.32489897080686e+000°)
3.06666733071322e+002	(3.63232053767100e-002dB,-5.36638949942592e+000°)
3.09029543251362e+002	(3.68867519558224e-002dB,-5.40821052894568e+000°)
3.11410558444679e+002	(3.74589336464515e-002dB,-5.45036485931378e+000°)
3.13809918917516e+002	(3.80398814127183e-002dB,-5.49285531800884e+000°)
3.16227766016841e+002	(3.86297281611376e-002dB,-5.53568476039338e+000°)
3.18664242178677e+002	(3.92286087679292e-002dB,-5.57885607007270e+000°)
3.21119490936486e+002	(3.98366601066666e-002dB,-5.62237215926037e+000°)
3.23593656929632e+002	(4.04540210763723e-002dB,-5.66623596914946e+000°)
3.26086885911897e+002	(4.10808326298069e-002dB,-5.71045047029079e+000°)
3.28599324760069e+002	(4.17172378021804e-002dB,-5.75501866297749e+000°)
3.31131121482595e+002	(4.23633817402003e-002dB,-5.79994357763640e+000°)
3.33682425228298e+002	(4.30194117314323e-002dB,-5.84522827522625e+000°)
3.36253386295166e+002	(4.36854772340453e-002dB,-5.89087584764311e+000°)
3.38844156139206e+002	(4.43617299068617e-002dB,-5.93688941813278e+000°)
3.41454887383364e+002	(4.50483236398129e-002dB,-5.98327214171068e+000°)
3.44085733826517e+002	(4.57454145846885e-002dB,-6.03002720558911e+000°)
3.46736850452536e+002	(4.64531611862578e-002dB,-6.07715782961237e+000°)
3.49408393439411e+002	(4.71717242137694e-002dB,-6.12466726669952e+000°)
3.52100520168456e+002	(4.79012667927758e-002dB,-6.17255880329517e+000°)
3.54813389233580e+002	(4.86419544373180e-002dB,-6.22083575982848e+000°)
3.57547160450626e+002	(4.93939550824914e-002dB,-6.26950149118055e+000°)
3.60301994866790e+002	(5.01574391172887e-002dB,-6.31855938716026e+000°)
3.63078054770106e+002	(5.09325794179553e-002dB,-6.36801287298882e+000°)
3.65875503699008e+002	(5.17195513815179e-002dB,-6.41786540979320e+000°)
3.68694506451962e+002	(5.25185329597851e-002dB,-6.46812049510884e+000°)
3.71535229097177e+002	(5.33297046937152e-002dB,-6.51878166339136e+000°)
3.74397838982386e+002	(5.41532497480644e-002dB,-6.56985248653806e+000°)
3.77282504744704e+002	(5.49893539464585e-002dB,-6.62133657441888e+000°)
3.80189396320566e+002	(5.58382058067682e-002dB,-6.67323757541752e+000°)
3.83118684955734e+002	(5.66999965769033e-002dB,-6.72555917698250e+000°)
3.86070543215386e+002	(5.75749202709026e-002dB,-6.77830510618863e+000°)
3.89045144994286e+002	(5.84631737054009e-002dB,-6.83147913030926e+000°)
3.92042665527020e+002	(5.93649565364664e-002dB,-6.88508505739903e+000°)
3.95063281398329e+002	(6.02804712967547e-002dB,-6.93912673688803e+000°)
3.98107170553502e+002	(6.12099234330026e-002dB,-6.99360806018698e+000°)
4.01174512308867e+002	(6.21535213439253e-002dB,-7.04853296130424e+000°)
4.04265487362350e+002	(6.31114764183963e-002dB,-7.10390541747439e+000°)
4.07380277804118e+002	(6.40840030739999e-002dB,-7.15972944979919e+000°)
4.10519067127313e+002	(6.50713187958573e-002dB,-7.21600912390065e+000°)
4.13682040238856e+002	(6.60736441759130e-002dB,-7.27274855058681e+000°)
4.16869383470341e+002	(6.70912029524137e-002dB,-7.32995188653058e+000°)
4.20081284589012e+002	(6.81242220497585e-002dB,-7.38762333496159e+000°)
4.23317932808826e+002	(6.91729316186900e-002dB,-7.44576714637172e+000°)
4.26579518801598e+002	(7.02375650767670e-002dB,-7.50438761923437e+000°)
4.29866234708233e+002	(7.13183591491606e-002dB,-7.56348910073780e+000°)
4.33178274150047e+002	(7.24155539097166e-002dB,-7.62307598753315e+000°)
4.36515832240172e+002	(7.35293928223680e-002dB,-7.68315272649690e+000°)
4.39879105595049e+002	(7.46601227827392e-002dB,-7.74372381550882e+000°)
4.43268292346015e+002	(7.58079941601558e-002dB,-7.80479380424501e+000°)
4.46683592150969e+002	(7.69732608397622e-002dB,-7.86636729498710e+000°)
4.50125206206140e+002	(7.81561802650683e-002dB,-7.92844894344739e+000°)
4.53593337257934e+002	(7.93570134805628e-002dB,-7.99104345961053e+000°)
4.57088189614881e+002	(8.05760251747411e-002dB,-8.05415560859232e+000°)
4.60609969159672e+002	(8.18134837231992e-002dB,-8.11779021151566e+000°)
4.64158883361284e+002	(8.30696612320797e-002dB,-8.18195214640425e+000°)
4.67735141287205e+002	(8.43448335815815e-002dB,-8.24664634909433e+000°)
4.71338953615747e+002	(8.56392804697685e-002dB,-8.31187781416512e+000°)
4.74970532648462e+002	(8.69532854565211e-002dB,-8.37765159588817e+000°)
4.78630092322645e+002	(8.82871360075611e-002dB,-8.44397280919590e+000°)
4.82317848223938e+002	(8.96411235387353e-002dB,-8.51084663067029e+000°)
4.86034017599029e+002	(9.10155434603538e-002dB,-8.57827829955174e+000°)
4.89778819368453e+002	(9.24106952216474e-002dB,-8.64627311876864e+000°)
4.93552474139488e+002	(9.38268823552696e-002dB,-8.71483645598835e+000°)
4.97355204219147e+002	(9.52644125219560e-002dB,-8.78397374468978e+000°)
5.01187233627280e+002	(9.67235975551337e-002dB,-8.85369048525841e+000°)
5.05048788109766e+002	(9.82047535055776e-002dB,-8.92399224610386e+000°)
5.08940095151816e+002	(9.97082006860728e-002dB,-8.99488466480105e+000°)
5.12861383991372e+002	(1.01234263716045e-001dB,-9.06637344925491e+000°)
5.16812885632611e+002	(1.02783271566109e-001dB,-9.13846437888978e+000°)
5.20794832859554e+002	(1.04355557602570e-001dB,-9.21116330586366e+000°)
5.24807460249781e+002	(1.05951459631770e-001dB,-9.28447615630797e+000°)
5.28851004188246e+002	(1.07571319944314e-001dB,-9.35840893159362e+000°)
5.32925702881209e+002	(1.09215485359089e-001dB,-9.43296770962375e+000°)
5.37031796370261e+002	(1.10884307267091e-001dB,-9.50815864615410e+000°)
5.41169526546472e+002	(1.12578141675014e-001dB,-9.58398797614094e+000°)
5.45339137164636e+002	(1.14297349248512e-001dB,-9.66046201511848e+000°)
5.49540873857633e+002	(1.16042295355124e-001dB,-9.73758716060487e+000°)
5.53774984150899e+002	(1.17813350106907e-001dB,-9.81536989353893e+000°)
5.58041717477005e+002	(1.19610888402539e-001dB,-9.89381677974725e+000°)
5.62341325190358e+002	(1.21435289969081e-001dB,-9.97293447144311e+000°)
5.66674060582000e+002	(1.23286939403096e-001dB,-1.00527297087575e+001°)
5.71040178894536e+002	(1.25166226211302e-001dB,-1.01332093213032e+001°)
5.75439937337166e+002	(1.27073544850633e-001dB,-1.02143802297729e+001°)
5.79873595100841e+002	(1.29009294767487e-001dB,-1.02962494475714e+001°)
5.84341413373527e+002	(1.30973880436394e-001dB,-1.03788240824840e+001°)
5.88843655355599e+002	(1.32967711397820e-001dB,-1.04621113383804e+001°)
5.93380586275338e+002	(1.34991202295091e-001dB,-1.05461185169564e+001°)
5.97952473404562e+002	(1.37044772910475e-001dB,-1.06308530195133e+001°)
6.02559586074368e+002	(1.39128848200191e-001dB,-1.07163223487761e+001°)
6.07202195690999e+002	(1.41243858328362e-001dB,-1.08025341107520e+001°)
6.11880575751832e+002	(1.43390238699871e-001dB,-1.08894960166291e+001°)
6.16595001861493e+002	(1.45568429991937e-001dB,-1.09772158847175e+001°)
6.21345751748086e+002	(1.47778878184376e-001dB,-1.10657016424327e+001°)
6.26133105279563e+002	(1.50022034588475e-001dB,-1.11549613283230e+001°)
6.30957344480204e+002	(1.52298355874410e-001dB,-1.12450030941417e+001°)
6.35818753547234e+002	(1.54608304096999e-001dB,-1.13358352069650e+001°)
6.40717618867565e+002	(1.56952346719774e-001dB,-1.14274660513571e+001°)
6.45654229034667e+002	(1.59330956637324e-001dB,-1.15199041315838e+001°)
6.50628874865568e+002	(1.61744612195578e-001dB,-1.16131580738739e+001°)
6.55641849417990e+002	(1.64193797210274e-001dB,-1.17072366287331e+001°)
6.60693448007607e+002	(1.66679000983022e-001dB,-1.18021486733075e+001°)
6.65783968225448e+002	(1.69200718315310e-001dB,-1.18979032138014e+001°)
6.70913709955423e+002	(1.71759449519930e-001dB,-1.19945093879484e+001°)
6.76082975391994e+002	(1.74355700429999e-001dB,-1.20919764675384e+001°)
6.81292069057973e+002	(1.76989982405150e-001dB,-1.21903138610005e+001°)
6.86541297822467e+002	(1.79662812334924e-001dB,-1.22895311160451e+001°)
6.91830970918949e+002	(1.82374712639205e-001dB,-1.23896379223641e+001°)
6.97161399963480e+002	(1.85126211265426e-001dB,-1.24906441143932e+001°)
7.02532898973064e+002	(1.87917841682380e-001dB,-1.25925596741353e+001°)
7.07945784384150e+002	(1.90750142870622e-001dB,-1.26953947340486e+001°)
7.13400375071269e+002	(1.93623659309007e-001dB,-1.27991595799993e+001°)
7.18896992365820e+002	(1.96538940957502e-001dB,-1.29038646542810e+001°)
7.24435960075003e+002	(1.99496543235608e-001dB,-1.30095205587034e+001°)
7.30017604500891e+002	(2.02497026996709e-001dB,-1.31161380577493e+001°)
7.35642254459654e+002	(2.05540958497700e-001dB,-1.32237280818051e+001°)
7.41310241300931e+002	(2.08628909363799e-001dB,-1.33323017304629e+001°)
7.47021898927345e+002	(2.11761456548433e-001dB,-1.34418702758984e+001°)
7.52777563814180e+002	(2.14939182287681e-001dB,-1.35524451663253e+001°)
7.58577575029198e+002	(2.18162674049238e-001dB,-1.36640380295287e+001°)
7.64422274252614e+002	(2.21432524475468e-001dB,-1.37766606764779e+001°)
7.70312005797229e+002	(2.24749331320366e-001dB,-1.38903251050219e+001°)
7.76247116628706e+002	(2.28113697379987e-001dB,-1.40050435036690e+001°)
7.82227956386017e+002	(2.31526230416144e-001dB,-1.41208282554525e+001°)
7.88254877402036e+002	(2.34987543073045e-001dB,-1.42376919418839e+001°)
7.94328234724297e+002	(2.38498252786388e-001dB,-1.43556473469966e+001°)
8.00448386135907e+002	(2.42058981684671e-001dB,-1.44747074614812e+001°)
8.06615692176629e+002	(2.45670356482348e-001dB,-1.45948854869154e+001°)
8.12830516164115e+002	(2.49333008364316e-001dB,-1.47161948400894e+001°)
8.19093224215313e+002	(2.53047572861433e-001dB,-1.48386491574306e+001°)
8.25404185268034e+002	(2.56814689716610e-001dB,-1.49622622995281e+001°)
8.31763771102687e+002	(2.60635002740991e-001dB,-1.50870483557604e+001°)
