Freq.	V(vout)
1.00000000000000e+003	(-6.88154339795144e+001dB,8.87607872416935e+001°)
1.00770481413610e+003	(-6.87487860883757e+001dB,8.87649822314579e+001°)
1.01546899243308e+003	(-6.86821379917590e+001dB,8.87691044916601e+001°)
1.02329299228075e+003	(-6.86154896940595e+001dB,8.87731542770274e+001°)
1.03117727459306e+003	(-6.85488411995810e+001dB,8.87771318223029e+001°)
1.03912230383517e+003	(-6.84821925126040e+001dB,8.87810373404980e+001°)
1.04712854805090e+003	(-6.84155436376021e+001dB,8.87848711448236e+001°)
1.05519647889024e+003	(-6.83488945782931e+001dB,8.87886333331970e+001°)
1.06332657163716e+003	(-6.82822453391438e+001dB,8.87923242090643e+001°)
1.07151930523761e+003	(-6.82155959241811e+001dB,8.87959439554123e+001°)
1.07977516232771e+003	(-6.81489463376069e+001dB,8.87994928439931e+001°)
1.08809462926223e+003	(-6.80822965832452e+001dB,8.88029710186158e+001°)
1.09647819614319e+003	(-6.80156466651859e+001dB,8.88063787052874e+001°)
1.10492635684876e+003	(-6.79489965872391e+001dB,8.88097160915327e+001°)
1.11343960906236e+003	(-6.78823463535550e+001dB,8.88129834103180e+001°)
1.12201845430197e+003	(-6.78156959677739e+001dB,8.88161808103327e+001°)
1.13066339794964e+003	(-6.77490454338476e+001dB,8.88193085065692e+001°)
1.13937494928134e+003	(-6.76823947555405e+001dB,8.88223666827707e+001°)
1.14815362149688e+003	(-6.76157439366974e+001dB,8.88253555102137e+001°)
1.15699993175021e+003	(-6.75490929808642e+001dB,8.88282751448332e+001°)
1.16591440117983e+003	(-6.74824418919325e+001dB,8.88311258123922e+001°)
1.17489755493953e+003	(-6.74157906734875e+001dB,8.88339076308024e+001°)
1.18394992222930e+003	(-6.73491393291987e+001dB,8.88366207861245e+001°)
1.19307203632654e+003	(-6.72824878626108e+001dB,8.88392654174340e+001°)
1.20226443461742e+003	(-6.72158362773149e+001dB,8.88418416772139e+001°)
1.21152765862859e+003	(-6.71491845769410e+001dB,8.88443497703095e+001°)
1.22086225405907e+003	(-6.70825327650313e+001dB,8.88467897891325e+001°)
1.23026877081238e+003	(-6.70158808449156e+001dB,8.88491618967589e+001°)
1.23974776302895e+003	(-6.69492288202746e+001dB,8.88514662427609e+001°)
1.24929978911874e+003	(-6.68825766943378e+001dB,8.88537029252903e+001°)
1.25892541179417e+003	(-6.68159244707392e+001dB,8.88558721227581e+001°)
1.26862519810326e+003	(-6.67492721527322e+001dB,8.88579739271572e+001°)
1.27839971946303e+003	(-6.66826197438820e+001dB,8.88600085021151e+001°)
1.28824955169314e+003	(-6.66159672473053e+001dB,8.88619759238034e+001°)
1.29817527504985e+003	(-6.65493146664201e+001dB,8.88638763122968e+001°)
1.30817747426020e+003	(-6.64826620046559e+001dB,8.88657098075924e+001°)
1.31825673855641e+003	(-6.64160092652325e+001dB,8.88674765013953e+001°)
1.32841366171065e+003	(-6.63493564513303e+001dB,8.88691764757477e+001°)
1.33864884207000e+003	(-6.62827035663360e+001dB,8.88708098519094e+001°)
1.34896288259166e+003	(-6.62160506135838e+001dB,8.88723767652415e+001°)
1.35935639087853e+003	(-6.61493975961724e+001dB,8.88738772507876e+001°)
1.36982997921497e+003	(-6.60827445172917e+001dB,8.88753114101109e+001°)
1.38038426460289e+003	(-6.60160913802508e+001dB,8.88766793490173e+001°)
1.39101986879806e+003	(-6.59494381881109e+001dB,8.88779811185217e+001°)
1.40173741834677e+003	(-6.58827849441963e+001dB,8.88792168248173e+001°)
1.41253754462276e+003	(-6.58161316514327e+001dB,8.88803864903513e+001°)
1.42342088386435e+003	(-6.57494783132286e+001dB,8.88814902368935e+001°)
1.43438807721197e+003	(-6.56828249326775e+001dB,8.88825281220163e+001°)
1.44543977074593e+003	(-6.56161715126800e+001dB,8.88835001664416e+001°)
1.45657661552446e+003	(-6.55495180566719e+001dB,8.88844064909747e+001°)
1.46779926762207e+003	(-6.54828645675567e+001dB,8.88852470845813e+001°)
1.47910838816821e+003	(-6.54162110485520e+001dB,8.88860220544470e+001°)
1.49050464338620e+003	(-6.53495575027139e+001dB,8.88867314068965e+001°)
1.50198870463249e+003	(-6.52829039330341e+001dB,8.88873751798028e+001°)
1.51356124843621e+003	(-6.52162503427409e+001dB,8.88879534347215e+001°)
1.52522295653902e+003	(-6.51495967348089e+001dB,8.88884661872367e+001°)
1.53697451593528e+003	(-6.50829431124552e+001dB,8.88889134981972e+001°)
1.54881661891249e+003	(-6.50162894785846e+001dB,8.88892953535624e+001°)
1.56074996309212e+003	(-6.49496358364369e+001dB,8.88896118076462e+001°)
1.57277525147067e+003	(-6.48829821889142e+001dB,8.88898628725251e+001°)
1.58489319246112e+003	(-6.48163285391852e+001dB,8.88900485428402e+001°)
1.59710449993461e+003	(-6.47496748903250e+001dB,8.88901688438580e+001°)
1.60940989326254e+003	(-6.46830212452573e+001dB,8.88902237632955e+001°)
1.62181009735894e+003	(-6.46163676072451e+001dB,8.88902133546088e+001°)
1.63430584272314e+003	(-6.45497139793146e+001dB,8.88901375925221e+001°)
1.64689786548288e+003	(-6.44830603644321e+001dB,8.88899964434702e+001°)
1.65958690743757e+003	(-6.44164067657265e+001dB,8.88897899269440e+001°)
1.67237371610209e+003	(-6.43497531862893e+001dB,8.88895180231442e+001°)
1.68525904475076e+003	(-6.42830996292087e+001dB,8.88891807306546e+001°)
1.69824365246175e+003	(-6.42164460976406e+001dB,8.88887780194433e+001°)
1.71132830416179e+003	(-6.41497925944783e+001dB,8.88883098465045e+001°)
1.72451377067121e+003	(-6.40831391229353e+001dB,8.88877762024913e+001°)
1.73780082874938e+003	(-6.40164856862170e+001dB,8.88871770695660e+001°)
1.75119026114047e+003	(-6.39498322873835e+001dB,8.88865123970299e+001°)
1.76468285661951e+003	(-6.38831789293601e+001dB,8.88857821153679e+001°)
1.77827941003893e+003	(-6.38165256155814e+001dB,8.88849862483263e+001°)
1.79198072237534e+003	(-6.37498723490206e+001dB,8.88841247044314e+001°)
1.80578760077673e+003	(-6.36832191329308e+001dB,8.88831974634794e+001°)
1.81970085860999e+003	(-6.36165659703862e+001dB,8.88822044330525e+001°)
1.83372131550889e+003	(-6.35499128645978e+001dB,8.88811455707707e+001°)
1.84784979742230e+003	(-6.34832598188124e+001dB,8.88800208325007e+001°)
1.86208713666288e+003	(-6.34166068360840e+001dB,8.88788300999237e+001°)
1.87643417195610e+003	(-6.33499539198805e+001dB,8.88775733718791e+001°)
1.89089174848965e+003	(-6.32833010732627e+001dB,8.88762505315987e+001°)
1.90546071796326e+003	(-6.32166482994989e+001dB,8.88748615051414e+001°)
1.92014193863881e+003	(-6.31499956019585e+001dB,8.88734062342718e+001°)
1.93493627539096e+003	(-6.30833429837957e+001dB,8.88718845879315e+001°)
1.94984459975806e+003	(-6.30166904484522e+001dB,8.88702965430850e+001°)
1.96486778999348e+003	(-6.29500379991767e+001dB,8.88686419408905e+001°)
1.98000673111740e+003	(-6.28833856393208e+001dB,8.88669207205785e+001°)
1.99526231496889e+003	(-6.28167333722187e+001dB,8.88651327582004e+001°)
2.01063544025850e+003	(-6.27500812014368e+001dB,8.88632780016852e+001°)
2.02612701262116e+003	(-6.26834291302016e+001dB,8.88613562694504e+001°)
2.04173794466954e+003	(-6.26167771620333e+001dB,8.88593675017443e+001°)
2.05746915604785e+003	(-6.25501253003828e+001dB,8.88573115457141e+001°)
2.07332157348597e+003	(-6.24834735487301e+001dB,8.88551883196824e+001°)
2.08929613085405e+003	(-6.24168219105622e+001dB,8.88529976626784e+001°)
2.10539376921757e+003	(-6.23501703894634e+001dB,8.88507394581656e+001°)
2.12161543689270e+003	(-6.22835189889657e+001dB,8.88484135744128e+001°)
2.13796208950225e+003	(-6.22168677126876e+001dB,8.88460198798966e+001°)
2.15443469003190e+003	(-6.21502165643065e+001dB,8.88435582363848e+001°)
2.17103420888697e+003	(-6.20835655473916e+001dB,8.88410284960317e+001°)
2.18776162394957e+003	(-6.20169146656656e+001dB,8.88384304982403e+001°)
2.20461792063620e+003	(-6.19502639227546e+001dB,8.88357640876737e+001°)
2.22160409195583e+003	(-6.18836133226140e+001dB,8.88330291394347e+001°)
2.23872113856835e+003	(-6.18169628688680e+001dB,8.88302254765150e+001°)
2.25597006884359e+003	(-6.17503125652991e+001dB,8.88273529050406e+001°)
2.27335189892065e+003	(-6.16836624159274e+001dB,8.88244113096680e+001°)
2.29086765276779e+003	(-6.16170124245265e+001dB,8.88214004764397e+001°)
2.30851836224278e+003	(-6.15503625950771e+001dB,8.88183202465416e+001°)
2.32630506715364e+003	(-6.14837129314637e+001dB,8.88151704301439e+001°)
2.34422881531994e+003	(-6.14170634377510e+001dB,8.88119508423521e+001°)
2.36229066263448e+003	(-6.13504141179754e+001dB,8.88086613031596e+001°)
2.38049167312553e+003	(-6.12837649762258e+001dB,8.88053016247190e+001°)
2.39883291901951e+003	(-6.12171160166517e+001dB,8.88018715839119e+001°)
2.41731548080412e+003	(-6.11504672433951e+001dB,8.87983710019058e+001°)
2.43594044729204e+003	(-6.10838186606257e+001dB,8.87947996731065e+001°)
2.45470891568505e+003	(-6.10171702726714e+001dB,8.87911573805010e+001°)
2.47362199163864e+003	(-6.09505220838389e+001dB,8.87874439128391e+001°)
2.49268078932720e+003	(-6.08838740984396e+001dB,8.87836590374695e+001°)
2.51188643150960e+003	(-6.08172263208659e+001dB,8.87798025615216e+001°)
2.53124004959538e+003	(-6.07505787556095e+001dB,8.87758742220536e+001°)
2.55074278371138e+003	(-6.06839314071240e+001dB,8.87718738313733e+001°)
2.57039578276888e+003	(-6.06172842800093e+001dB,8.87678011135131e+001°)
2.59020020453134e+003	(-6.05506373788246e+001dB,8.87636558606296e+001°)
2.61015721568256e+003	(-6.04839907082309e+001dB,8.87594378185154e+001°)
2.63026799189540e+003	(-6.04173442729464e+001dB,8.87551467262919e+001°)
2.65053371790110e+003	(-6.03506980777027e+001dB,8.87507823499538e+001°)
2.67095558755901e+003	(-6.02840521273754e+001dB,8.87463444214332e+001°)
2.69153480392694e+003	(-6.02174064268298e+001dB,8.87418326930111e+001°)
2.71227257933205e+003	(-6.01507609809697e+001dB,8.87372468910528e+001°)
2.73317013544226e+003	(-6.00841157947703e+001dB,8.87325867463901e+001°)
2.75422870333819e+003	(-6.00174708733842e+001dB,8.87278519781169e+001°)
2.77544952358573e+003	(-5.99508262218921e+001dB,8.87230423329232e+001°)
2.79683384630910e+003	(-5.98841818453495e+001dB,8.87181574944132e+001°)
2.81838293126448e+003	(-5.98175377492097e+001dB,8.87131972059112e+001°)
2.84009804791424e+003	(-5.97508939386687e+001dB,8.87081611714363e+001°)
2.86198047550173e+003	(-5.96842504191028e+001dB,8.87030490815738e+001°)
2.88403150312663e+003	(-5.96176071960343e+001dB,8.86978606403773e+001°)
2.90625242982089e+003	(-5.95509642749147e+001dB,8.86925955555853e+001°)
2.92864456462526e+003	(-5.94843216613286e+001dB,8.86872535014319e+001°)
2.95120922666641e+003	(-5.94176793610365e+001dB,8.86818341788934e+001°)
2.97394774523463e+003	(-5.93510373795809e+001dB,8.86763372565175e+001°)
2.99686145986215e+003	(-5.92843957229688e+001dB,8.86707624170802e+001°)
3.01995172040204e+003	(-5.92177543970206e+001dB,8.86651093423241e+001°)
3.04321988710775e+003	(-5.91511134076689e+001dB,8.86593776965487e+001°)
3.06666733071321e+003	(-5.90844727609750e+001dB,8.86535671337897e+001°)
3.09029543251362e+003	(-5.90178324631053e+001dB,8.86476773243946e+001°)
3.11410558444679e+003	(-5.89511925202150e+001dB,8.86417079211792e+001°)
3.13809918917516e+003	(-5.88845529386015e+001dB,8.86356585608380e+001°)
3.16227766016841e+003	(-5.88179137246589e+001dB,8.86295289076763e+001°)
3.18664242178676e+003	(-5.87512748848492e+001dB,8.86233185920176e+001°)
3.21119490936485e+003	(-5.86846364256362e+001dB,8.86170272517547e+001°)
3.23593656929631e+003	(-5.86179983538441e+001dB,8.86106545213307e+001°)
3.26086885911896e+003	(-5.85513606760321e+001dB,8.86042000190766e+001°)
3.28599324760069e+003	(-5.84847233991033e+001dB,8.85976633723195e+001°)
3.31131121482594e+003	(-5.84180865299337e+001dB,8.85910441947588e+001°)
3.33682425228297e+003	(-5.83514500755532e+001dB,8.85843421089543e+001°)
3.36253386295166e+003	(-5.82848140431094e+001dB,8.85775567063026e+001°)
3.38844156139206e+003	(-5.82181784397413e+001dB,8.85706875934901e+001°)
3.41454887383364e+003	(-5.81515432727277e+001dB,8.85637343685566e+001°)
3.44085733826517e+003	(-5.80849085496836e+001dB,8.85566966379494e+001°)
3.46736850452535e+003	(-5.80182742779244e+001dB,8.85495739670658e+001°)
3.49408393439410e+003	(-5.79516404651038e+001dB,8.85423659434684e+001°)
3.52100520168456e+003	(-5.78850071190315e+001dB,8.85350721596313e+001°)
3.54813389233579e+003	(-5.78183742474563e+001dB,8.85276921822001e+001°)
3.57547160450625e+003	(-5.77517418584117e+001dB,8.85202255687007e+001°)
3.60301994866789e+003	(-5.76851099599293e+001dB,8.85126718869540e+001°)
3.63078054770105e+003	(-5.76184785601594e+001dB,8.85050306992775e+001°)
3.65875503699007e+003	(-5.75518476674184e+001dB,8.84973015471143e+001°)
3.68694506451962e+003	(-5.74852172901354e+001dB,8.84894839841408e+001°)
3.71535229097177e+003	(-5.74185874368207e+001dB,8.84815775569302e+001°)
3.74397838982385e+003	(-5.73519581161821e+001dB,8.84735817982068e+001°)
3.77282504744704e+003	(-5.72853293369907e+001dB,8.84654962445239e+001°)
3.80189396320565e+003	(-5.72187011081129e+001dB,8.84573204070557e+001°)
3.83118684955733e+003	(-5.71520734386556e+001dB,8.84490538323872e+001°)
3.86070543215386e+003	(-5.70854463377069e+001dB,8.84406960154187e+001°)
3.89045144994285e+003	(-5.70188198146704e+001dB,8.84322464714379e+001°)
3.92042665527020e+003	(-5.69521938788929e+001dB,8.84237047020271e+001°)
3.95063281398328e+003	(-5.68855685399941e+001dB,8.84150702077080e+001°)
3.98107170553502e+003	(-5.68189438077677e+001dB,8.84063425053478e+001°)
4.01174512308867e+003	(-5.67523196919521e+001dB,8.83975210589341e+001°)
4.04265487362349e+003	(-5.66856962026539e+001dB,8.83886053596949e+001°)
4.07380277804117e+003	(-5.66190733499734e+001dB,8.83795948875199e+001°)
4.10519067127313e+003	(-5.65524511442279e+001dB,8.83704891088631e+001°)
4.13682040238856e+003	(-5.64858295958802e+001dB,8.83612875080532e+001°)
4.16869383470340e+003	(-5.64192087154781e+001dB,8.83519895177487e+001°)
4.20081284589012e+003	(-5.63525885138539e+001dB,8.83425946197352e+001°)
4.23317932808826e+003	(-5.62859690019601e+001dB,8.83331022572572e+001°)
4.26579518801598e+003	(-5.62193501908059e+001dB,8.83235118704180e+001°)
4.29866234708233e+003	(-5.61527320917285e+001dB,8.83138229002279e+001°)
4.33178274150047e+003	(-5.60861147160373e+001dB,8.83040347850187e+001°)
4.36515832240171e+003	(-5.60194980753647e+001dB,8.82941469397225e+001°)
4.39879105595049e+003	(-5.59528821815397e+001dB,8.82841588048979e+001°)
4.43268292346014e+003	(-5.58862670464117e+001dB,8.82740697781375e+001°)
4.46683592150969e+003	(-5.58196526821532e+001dB,8.82638792844625e+001°)
4.50125206206139e+003	(-5.57530391010086e+001dB,8.82535867204429e+001°)
4.53593337257933e+003	(-5.56864263154817e+001dB,8.82431914860469e+001°)
4.57088189614881e+003	(-5.56198143382521e+001dB,8.82326929706903e+001°)
4.60609969159672e+003	(-5.55532031821335e+001dB,8.82220905669386e+001°)
4.64158883361284e+003	(-5.54865928601856e+001dB,8.82113836547551e+001°)
4.67735141287204e+003	(-5.54199833856851e+001dB,8.82005716051031e+001°)
4.71338953615747e+003	(-5.53533747720222e+001dB,8.81896537828317e+001°)
4.74970532648462e+003	(-5.52867670328580e+001dB,8.81786295562998e+001°)
4.78630092322645e+003	(-5.52201601820457e+001dB,8.81674982828369e+001°)
4.82317848223937e+003	(-5.51535542336279e+001dB,8.81562593090956e+001°)
4.86034017599028e+003	(-5.50869492018713e+001dB,8.81449119755582e+001°)
4.89778819368453e+003	(-5.50203451012913e+001dB,8.81334556344393e+001°)
4.93552474139487e+003	(-5.49537419465647e+001dB,8.81218895990292e+001°)
4.97355204219146e+003	(-5.48871397525752e+001dB,8.81102132041462e+001°)
5.01187233627279e+003	(-5.48205385345437e+001dB,8.80984257588495e+001°)
5.05048788109766e+003	(-5.47539383077397e+001dB,8.80865265891898e+001°)
5.08940095151816e+003	(-5.46873390878700e+001dB,8.80745149998054e+001°)
5.12861383991372e+003	(-5.46207408907750e+001dB,8.80623902810446e+001°)
5.16812885632611e+003	(-5.45541437324146e+001dB,8.80501517203489e+001°)
5.20794832859554e+003	(-5.44875476292576e+001dB,8.80377986221412e+001°)
5.24807460249780e+003	(-5.44209525977601e+001dB,8.80253302528128e+001°)
5.28851004188245e+003	(-5.43543586548216e+001dB,8.80127458890670e+001°)
5.32925702881208e+003	(-5.42877658174813e+001dB,8.80000448036456e+001°)
5.37031796370260e+003	(-5.42211741031388e+001dB,8.79872262475768e+001°)
5.41169526546471e+003	(-5.41545835293186e+001dB,8.79742894756525e+001°)
5.45339137164635e+003	(-5.40879941138647e+001dB,8.79612337268317e+001°)
5.49540873857633e+003	(-5.40214058750014e+001dB,8.79480582574130e+001°)
5.53774984150898e+003	(-5.39548188310565e+001dB,8.79347622915880e+001°)
5.58041717477005e+003	(-5.38882330007675e+001dB,8.79213450520586e+001°)
5.62341325190357e+003	(-5.38216484031060e+001dB,8.79078057607928e+001°)
5.66674060582000e+003	(-5.37550650573082e+001dB,8.78941436283127e+001°)
5.71040178894535e+003	(-5.36884829829942e+001dB,8.78803578629209e+001°)
5.75439937337165e+003	(-5.36219021999895e+001dB,8.78664476603153e+001°)
5.79873595100840e+003	(-5.35553227283338e+001dB,8.78524122020727e+001°)
5.84341413373526e+003	(-5.34887445885988e+001dB,8.78382506817319e+001°)
5.88843655355598e+003	(-5.34221678015844e+001dB,8.78239622762791e+001°)
5.93380586275337e+003	(-5.33555923883360e+001dB,8.78095461516286e+001°)
5.97952473404561e+003	(-5.32890183702377e+001dB,8.77950014748597e+001°)
6.02559586074367e+003	(-5.32224457689812e+001dB,8.77803273821534e+001°)
6.07202195690998e+003	(-5.31558746067487e+001dB,8.77655230418103e+001°)
6.11880575751831e+003	(-5.30893049058472e+001dB,8.77505875805159e+001°)
6.16595001861492e+003	(-5.30227366890651e+001dB,8.77355201383280e+001°)
6.21345751748085e+003	(-5.29561699795632e+001dB,8.77203198413168e+001°)
6.26133105279562e+003	(-5.28896048005564e+001dB,8.77049857885261e+001°)
6.30957344480203e+003	(-5.28230411760568e+001dB,8.76895171118998e+001°)
6.35818753547233e+003	(-5.27564791301790e+001dB,8.76739129030656e+001°)
6.40717618867564e+003	(-5.26899186873375e+001dB,8.76581722556598e+001°)
6.45654229034666e+003	(-5.26233598725301e+001dB,8.76422942581910e+001°)
6.50628874865568e+003	(-5.25568027110430e+001dB,8.76262779883667e+001°)
6.55641849417989e+003	(-5.24902472285603e+001dB,8.76101225197344e+001°)
6.60693448007607e+003	(-5.24236934510580e+001dB,8.75938269133391e+001°)
6.65783968225447e+003	(-5.23571414050212e+001dB,8.75773902221442e+001°)
6.70913709955422e+003	(-5.22905911173753e+001dB,8.75608114992366e+001°)
6.76082975391993e+003	(-5.22240426153041e+001dB,8.75440897766673e+001°)
6.81292069057972e+003	(-5.21574959265588e+001dB,8.75272240934286e+001°)
6.86541297822466e+003	(-5.20909510791527e+001dB,8.75102134617061e+001°)
6.91830970918948e+003	(-5.20244081017116e+001dB,8.74930569125387e+001°)
6.97161399963479e+003	(-5.19578670231300e+001dB,8.74757534315011e+001°)
7.02532898973064e+003	(-5.18913278729118e+001dB,8.74583020360508e+001°)
7.07945784384150e+003	(-5.18247906808963e+001dB,8.74407017081678e+001°)
7.13400375071268e+003	(-5.17582554773416e+001dB,8.74229514299660e+001°)
7.18896992365819e+003	(-5.16917222930011e+001dB,8.74050501697007e+001°)
7.24435960075002e+003	(-5.16251911592863e+001dB,8.73869969010402e+001°)
7.30017604500890e+003	(-5.15586621077573e+001dB,8.73687905785693e+001°)
7.35642254459654e+003	(-5.14921351706671e+001dB,8.73504301463013e+001°)
7.41310241300930e+003	(-5.14256103808199e+001dB,8.73319145465072e+001°)
7.47021898927344e+003	(-5.13590877712603e+001dB,8.73132427069574e+001°)
7.52777563814179e+003	(-5.12925673757698e+001dB,8.72944135501437e+001°)
7.58577575029197e+003	(-5.12260492285255e+001dB,8.72754259918261e+001°)
7.64422274252613e+003	(-5.11595333643893e+001dB,8.72562789343929e+001°)
7.70312005797228e+003	(-5.10930198184938e+001dB,8.72369712735318e+001°)
7.76247116628705e+003	(-5.10265086268068e+001dB,8.72175018985593e+001°)
7.82227956386016e+003	(-5.09599998254618e+001dB,8.71978696798011e+001°)
7.88254877402035e+003	(-5.08934934515849e+001dB,8.71780734941516e+001°)
7.94328234724295e+003	(-5.08269895426089e+001dB,8.71581121951033e+001°)
8.00448386135906e+003	(-5.07604881364638e+001dB,8.71379846366161e+001°)
8.06615692176628e+003	(-5.06939892718585e+001dB,8.71176896537511e+001°)
8.12830516164114e+003	(-5.06274929880631e+001dB,8.70972260840019e+001°)
8.19093224215312e+003	(-5.05609993247785e+001dB,8.70765927512571e+001°)
8.25404185268033e+003	(-5.04945083224890e+001dB,8.70557884633205e+001°)
8.31763771102686e+003	(-5.04280200221894e+001dB,8.70348120251247e+001°)
