Freq.	V(vout)
1.00000000000000e+003	(-6.69386418839708e+001dB,8.87625107429185e+001°)
1.00770481413610e+003	(-6.68719937468573e+001dB,8.87666156668684e+001°)
1.01546899243308e+003	(-6.68053454076255e+001dB,8.87706478929486e+001°)
1.02329299228075e+003	(-6.67386968712316e+001dB,8.87746078189450e+001°)
1.03117727459306e+003	(-6.66720481416345e+001dB,8.87784955988768e+001°)
1.03912230383517e+003	(-6.66053992226550e+001dB,8.87823113737964e+001°)
1.04712854805090e+003	(-6.65387501188280e+001dB,8.87860554141573e+001°)
1.05519647889024e+003	(-6.64721008346524e+001dB,8.87897280674801e+001°)
1.06332657163716e+003	(-6.64054513736848e+001dB,8.87933294175662e+001°)
1.07151930523761e+003	(-6.63388017401749e+001dB,8.87968597297490e+001°)
1.07977516232771e+003	(-6.62721519381030e+001dB,8.88003191705577e+001°)
1.08809462926223e+003	(-6.62055019714891e+001dB,8.88037079973648e+001°)
1.09647819614319e+003	(-6.61388518440815e+001dB,8.88070262878942e+001°)
1.10492635684876e+003	(-6.60722015601143e+001dB,8.88102744348524e+001°)
1.11343960906236e+003	(-6.60055511233049e+001dB,8.88134524930179e+001°)
1.12201845430197e+003	(-6.59389005373491e+001dB,8.88165606862813e+001°)
1.13066339794964e+003	(-6.58722498060448e+001dB,8.88195991680676e+001°)
1.13937494928134e+003	(-6.58055989333021e+001dB,8.88225681295381e+001°)
1.14815362149688e+003	(-6.57389479227495e+001dB,8.88254677817286e+001°)
1.15699993175021e+003	(-6.56722967779786e+001dB,8.88282982516281e+001°)
1.16591440117983e+003	(-6.56056455030505e+001dB,8.88310597636408e+001°)
1.17489755493953e+003	(-6.55389941010039e+001dB,8.88337523891816e+001°)
1.18394992222930e+003	(-6.54723425758145e+001dB,8.88363763264196e+001°)
1.19307203632654e+003	(-6.54056909310297e+001dB,8.88389317834074e+001°)
1.20226443461742e+003	(-6.53390391700253e+001dB,8.88414188440926e+001°)
1.21152765862859e+003	(-6.52723872963902e+001dB,8.88438376489282e+001°)
1.22086225405907e+003	(-6.52057353135638e+001dB,8.88461883810458e+001°)
1.23026877081238e+003	(-6.51390832251391e+001dB,8.88484711984903e+001°)
1.23974776302895e+003	(-6.50724310344762e+001dB,8.88506861690173e+001°)
1.24929978911874e+003	(-6.50057787450289e+001dB,8.88528334782246e+001°)
1.25892541179417e+003	(-6.49391263600412e+001dB,8.88549132044902e+001°)
1.26862519810326e+003	(-6.48724738830940e+001dB,8.88569255244712e+001°)
1.27839971946303e+003	(-6.48058213172993e+001dB,8.88588704775630e+001°)
1.28824955169314e+003	(-6.47391686660343e+001dB,8.88607482753504e+001°)
1.29817527504985e+003	(-6.46725159327842e+001dB,8.88625589559375e+001°)
1.30817747426020e+003	(-6.46058631206782e+001dB,8.88643026803793e+001°)
1.31825673855641e+003	(-6.45392102329170e+001dB,8.88659794744002e+001°)
1.32841366171065e+003	(-6.44725572729555e+001dB,8.88675895456581e+001°)
1.33864884207000e+003	(-6.44059042437271e+001dB,8.88691328440990e+001°)
1.34896288259166e+003	(-6.43392511487647e+001dB,8.88706096028130e+001°)
1.35935639087853e+003	(-6.42725979909981e+001dB,8.88720198028901e+001°)
1.36982997921497e+003	(-6.42059447737791e+001dB,8.88733636069998e+001°)
1.38038426460289e+003	(-6.41392915003638e+001dB,8.88746410991178e+001°)
1.39101986879806e+003	(-6.40726381734949e+001dB,8.88758522246881e+001°)
1.40173741834677e+003	(-6.40059847966175e+001dB,8.88769971720499e+001°)
1.41253754462276e+003	(-6.39393313731464e+001dB,8.88780760363480e+001°)
1.42342088386435e+003	(-6.38726779056498e+001dB,8.88790887774748e+001°)
1.43438807721197e+003	(-6.38060243974835e+001dB,8.88800355233139e+001°)
1.44543977074593e+003	(-6.37393708516836e+001dB,8.88809162837410e+001°)
1.45657661552446e+003	(-6.36727172716419e+001dB,8.88817311942690e+001°)
1.46779926762207e+003	(-6.36060636598192e+001dB,8.88824801642229e+001°)
1.47910838816821e+003	(-6.35394100198762e+001dB,8.88831633692074e+001°)
1.49050464338620e+003	(-6.34727563545673e+001dB,8.88837807818335e+001°)
1.50198870463249e+003	(-6.34061026672827e+001dB,8.88843324817938e+001°)
1.51356124843621e+003	(-6.33394489607336e+001dB,8.88848184646594e+001°)
1.52522295653902e+003	(-6.32727952379976e+001dB,8.88852387428941e+001°)
1.53697451593528e+003	(-6.32061415022816e+001dB,8.88855933803881e+001°)
1.54881661891249e+003	(-6.31394877566660e+001dB,8.88858823802861e+001°)
1.56074996309212e+003	(-6.30728340040137e+001dB,8.88861057641772e+001°)
1.57277525147067e+003	(-6.30061802474719e+001dB,8.88862635888607e+001°)
1.58489319246112e+003	(-6.29395264900459e+001dB,8.88863557650957e+001°)
1.59710449993461e+003	(-6.28728727346876e+001dB,8.88863823565061e+001°)
1.60940989326254e+003	(-6.28062189848244e+001dB,8.88863434200655e+001°)
1.62181009735894e+003	(-6.27395652429802e+001dB,8.88862388483487e+001°)
1.63430584272314e+003	(-6.26729115125178e+001dB,8.88860686894755e+001°)
1.64689786548288e+003	(-6.26062577964051e+001dB,8.88858329307290e+001°)
1.65958690743757e+003	(-6.25396040977268e+001dB,8.88855315677836e+001°)
1.67237371610209e+003	(-6.24729504194353e+001dB,8.88851645509210e+001°)
1.68525904475076e+003	(-6.24062967648052e+001dB,8.88847318889602e+001°)
1.69824365246175e+003	(-6.23396431366210e+001dB,8.88842335397065e+001°)
1.71132830416179e+003	(-6.22729895380975e+001dB,8.88836694747580e+001°)
1.72451377067121e+003	(-6.22063359723460e+001dB,8.88830396510238e+001°)
1.73780082874938e+003	(-6.21396824424020e+001dB,8.88823440722487e+001°)
1.75119026114047e+003	(-6.20730289513741e+001dB,8.88815826576342e+001°)
1.76468285661951e+003	(-6.20063755023582e+001dB,8.88807553734268e+001°)
1.77827941003893e+003	(-6.19397220983132e+001dB,8.88798621535193e+001°)
1.79198072237534e+003	(-6.18730687428452e+001dB,8.88789030109025e+001°)
1.80578760077673e+003	(-6.18064154385100e+001dB,8.88778777857397e+001°)
1.81970085860999e+003	(-6.17397621888352e+001dB,8.88767865422504e+001°)
1.83372131550889e+003	(-6.16731089968376e+001dB,8.88756291100697e+001°)
1.84784979742230e+003	(-6.16064558656045e+001dB,8.88744054503931e+001°)
1.86208713666288e+003	(-6.15398027986243e+001dB,8.88731155334669e+001°)
1.87643417195610e+003	(-6.14731497987444e+001dB,8.88717592353305e+001°)
1.89089174848965e+003	(-6.14064968694405e+001dB,8.88703364884991e+001°)
1.90546071796326e+003	(-6.13398440138517e+001dB,8.88688472315521e+001°)
1.92014193863881e+003	(-6.12731912351882e+001dB,8.88672913279078e+001°)
1.93493627539096e+003	(-6.12065385368384e+001dB,8.88656687399989e+001°)
1.94984459975806e+003	(-6.11398859219531e+001dB,8.88639793506995e+001°)
1.96486778999348e+003	(-6.10732333939135e+001dB,8.88622230461950e+001°)
1.98000673111740e+003	(-6.10065809560302e+001dB,8.88603997608258e+001°)
1.99526231496889e+003	(-6.09399286117625e+001dB,8.88585093257334e+001°)
2.01063544025850e+003	(-6.08732763643002e+001dB,8.88565516942018e+001°)
2.02612701262116e+003	(-6.08066242170384e+001dB,8.88545266935998e+001°)
2.04173794466954e+003	(-6.07399721738544e+001dB,8.88524343188137e+001°)
2.05746915604785e+003	(-6.06733202375549e+001dB,8.88502742745672e+001°)
2.07332157348597e+003	(-6.06066684119357e+001dB,8.88480465711284e+001°)
2.08929613085405e+003	(-6.05400167004364e+001dB,8.88457510229060e+001°)
2.10539376921757e+003	(-6.04733651066101e+001dB,8.88433874707886e+001°)
2.12161543689270e+003	(-6.04067136339829e+001dB,8.88409558406822e+001°)
2.13796208950225e+003	(-6.03400622860277e+001dB,8.88384559376446e+001°)
2.15443469003190e+003	(-6.02734110665708e+001dB,8.88358876544134e+001°)
2.17103420888697e+003	(-6.02067599791449e+001dB,8.88332508229325e+001°)
2.18776162394957e+003	(-6.01401090273022e+001dB,8.88305452392215e+001°)
2.20461792063620e+003	(-6.00734582148951e+001dB,8.88277708262339e+001°)
2.22160409195583e+003	(-6.00068075457118e+001dB,8.88249274025966e+001°)
2.23872113856835e+003	(-5.99401570233989e+001dB,8.88220147666838e+001°)
2.25597006884359e+003	(-5.98735066516916e+001dB,8.88190327598218e+001°)
2.27335189892065e+003	(-5.98068564345047e+001dB,8.88159811823358e+001°)
2.29086765276779e+003	(-5.97402063757953e+001dB,8.88128599172232e+001°)
2.30851836224278e+003	(-5.96735564795037e+001dB,8.88096687579061e+001°)
2.32630506715364e+003	(-5.96069067493386e+001dB,8.88064074786312e+001°)
2.34422881531994e+003	(-5.95402571893864e+001dB,8.88030759122661e+001°)
2.36229066263448e+003	(-5.94736078038631e+001dB,8.87996738886650e+001°)
2.38049167312553e+003	(-5.94069585966024e+001dB,8.87962011973556e+001°)
2.39883291901951e+003	(-5.93403095718685e+001dB,8.87926575935282e+001°)
2.41731548080412e+003	(-5.92736607337007e+001dB,8.87890429194393e+001°)
2.43594044729204e+003	(-5.92070120866133e+001dB,8.87853569557392e+001°)
2.45470891568505e+003	(-5.91403636341522e+001dB,8.87815994420217e+001°)
2.47362199163864e+003	(-5.90737153813642e+001dB,8.87777702048807e+001°)
2.49268078932720e+003	(-5.90070673322161e+001dB,8.87738689992821e+001°)
2.51188643150960e+003	(-5.89404194910774e+001dB,8.87698955972224e+001°)
2.53124004959538e+003	(-5.88737718624973e+001dB,8.87658497720701e+001°)
2.55074278371138e+003	(-5.88071244507859e+001dB,8.87617312803409e+001°)
2.57039578276888e+003	(-5.87404772608059e+001dB,8.87575398992216e+001°)
2.59020020453134e+003	(-5.86738302967565e+001dB,8.87532753427279e+001°)
2.61015721568256e+003	(-5.86071835634677e+001dB,8.87489373847792e+001°)
2.63026799189540e+003	(-5.85405370658592e+001dB,8.87445257987041e+001°)
2.65053371790110e+003	(-5.84738908081108e+001dB,8.87400402570015e+001°)
2.67095558755901e+003	(-5.84072447955349e+001dB,8.87354805512135e+001°)
2.69153480392694e+003	(-5.83405990327794e+001dB,8.87308463968920e+001°)
2.71227257933205e+003	(-5.82739535249656e+001dB,8.87261375438519e+001°)
2.73317013544226e+003	(-5.82073082766376e+001dB,8.87213536515766e+001°)
2.75422870333819e+003	(-5.81406632932591e+001dB,8.87164945121928e+001°)
2.77544952358573e+003	(-5.80740185798300e+001dB,8.87115598064999e+001°)
2.79683384630910e+003	(-5.80073741414330e+001dB,8.87065492607974e+001°)
2.81838293126448e+003	(-5.79407299833742e+001dB,8.87014625566113e+001°)
2.84009804791424e+003	(-5.78740861110070e+001dB,8.86962993987878e+001°)
2.86198047550173e+003	(-5.78074425294755e+001dB,8.86910595084620e+001°)
2.88403150312663e+003	(-5.77407992443126e+001dB,8.86857425650292e+001°)
2.90625242982089e+003	(-5.76741562612349e+001dB,8.86803482620322e+001°)
2.92864456462526e+003	(-5.76075135855266e+001dB,8.86748762517434e+001°)
2.95120922666641e+003	(-5.75408712231030e+001dB,8.86693262385474e+001°)
2.97394774523463e+003	(-5.74742291793785e+001dB,8.86636979081896e+001°)
2.99686145986215e+003	(-5.74075874603349e+001dB,8.86579909251381e+001°)
3.01995172040204e+003	(-5.73409460719140e+001dB,8.86522049412991e+001°)
3.04321988710775e+003	(-5.72743050200735e+001dB,8.86463396333611e+001°)
3.06666733071321e+003	(-5.72076643105100e+001dB,8.86403946231644e+001°)
3.09029543251362e+003	(-5.71410239495778e+001dB,8.86343696037897e+001°)
3.11410558444679e+003	(-5.70743839436113e+001dB,8.86282642053337e+001°)
3.13809918917516e+003	(-5.70077442986814e+001dB,8.86220780566495e+001°)
3.16227766016841e+003	(-5.69411050212169e+001dB,8.86158108166718e+001°)
3.18664242178676e+003	(-5.68744661176340e+001dB,8.86094621081814e+001°)
3.21119490936485e+003	(-5.68078275944291e+001dB,8.86030315639307e+001°)
3.23593656929631e+003	(-5.67411894584098e+001dB,8.85965187883919e+001°)
3.26086885911896e+003	(-5.66745517159580e+001dB,8.85899234102009e+001°)
3.28599324760069e+003	(-5.66079143742036e+001dB,8.85832450594419e+001°)
3.31131121482594e+003	(-5.65412774399259e+001dB,8.85764833244001e+001°)
3.33682425228297e+003	(-5.64746409200990e+001dB,8.85696378125593e+001°)
3.36253386295166e+003	(-5.64080048217558e+001dB,8.85627081254673e+001°)
3.38844156139206e+003	(-5.63413691522184e+001dB,8.85556938360042e+001°)
3.41454887383364e+003	(-5.62747339188293e+001dB,8.85485945894916e+001°)
3.44085733826517e+003	(-5.62080991287784e+001dB,8.85414099211709e+001°)
3.46736850452535e+003	(-5.61414647897730e+001dB,8.85341394160243e+001°)
3.49408393439410e+003	(-5.60748309092644e+001dB,8.85267826411052e+001°)
3.52100520168456e+003	(-5.60081974950672e+001dB,8.85193392083739e+001°)
3.54813389233579e+003	(-5.59415645549058e+001dB,8.85118086247332e+001°)
3.57547160450625e+003	(-5.58749320968299e+001dB,8.85041904912036e+001°)
3.60301994866789e+003	(-5.58083001288187e+001dB,8.84964843358746e+001°)
3.63078054770105e+003	(-5.57416686590034e+001dB,8.84886897114442e+001°)
3.65875503699007e+003	(-5.56750376957323e+001dB,8.84808061831381e+001°)
3.68694506451962e+003	(-5.56084072474414e+001dB,8.84728332667917e+001°)
3.71535229097177e+003	(-5.55417773225384e+001dB,8.84647705025949e+001°)
3.74397838982385e+003	(-5.54751479297028e+001dB,8.84566174048208e+001°)
3.77282504744704e+003	(-5.54085190778539e+001dB,8.84483735203773e+001°)
3.80189396320565e+003	(-5.53418907756494e+001dB,8.84400383485672e+001°)
3.83118684955733e+003	(-5.52752630323184e+001dB,8.84316114296537e+001°)
3.86070543215386e+003	(-5.52086358567235e+001dB,8.84230922122296e+001°)
3.89045144994285e+003	(-5.51420092584074e+001dB,8.84144802466963e+001°)
3.92042665527020e+003	(-5.50753832467400e+001dB,8.84057750048563e+001°)
3.95063281398328e+003	(-5.50087578313465e+001dB,8.83969760054542e+001°)
3.98107170553502e+003	(-5.49421330218399e+001dB,8.83880827064703e+001°)
4.01174512308867e+003	(-5.48755088280769e+001dB,8.83790945959468e+001°)
4.04265487362349e+003	(-5.48088852601245e+001dB,8.83700111577576e+001°)
4.07380277804117e+003	(-5.47422623278677e+001dB,8.83608318211762e+001°)
4.10519067127313e+003	(-5.46756400419111e+001dB,8.83515561097622e+001°)
4.13682040238856e+003	(-5.46090184125413e+001dB,8.83421834235921e+001°)
4.16869383470340e+003	(-5.45423974503219e+001dB,8.83327132466010e+001°)
4.20081284589012e+003	(-5.44757771659792e+001dB,8.83231450226349e+001°)
4.23317932808826e+003	(-5.44091575705947e+001dB,8.83134781901489e+001°)
4.26579518801598e+003	(-5.43425386749847e+001dB,8.83037121686700e+001°)
4.29866234708233e+003	(-5.42759204905708e+001dB,8.82938464057844e+001°)
4.33178274150047e+003	(-5.42093030287272e+001dB,8.82838803025272e+001°)
4.36515832240171e+003	(-5.41426863009345e+001dB,8.82738133130224e+001°)
4.39879105595049e+003	(-5.40760703190661e+001dB,8.82636448180907e+001°)
4.43268292346014e+003	(-5.40094550948695e+001dB,8.82533742344320e+001°)
4.46683592150969e+003	(-5.39428406405408e+001dB,8.82430009516767e+001°)
4.50125206206139e+003	(-5.38762269683595e+001dB,8.82325243665117e+001°)
4.53593337257933e+003	(-5.38096140906342e+001dB,8.82219438630371e+001°)
4.57088189614881e+003	(-5.37430020203436e+001dB,8.82112588653499e+001°)
4.60609969159672e+003	(-5.36763907700248e+001dB,8.82004686762500e+001°)
4.64158883361284e+003	(-5.36097803526360e+001dB,8.81895727173370e+001°)
4.67735141287204e+003	(-5.35431707817334e+001dB,8.81785703417336e+001°)
4.71338953615747e+003	(-5.34765620703972e+001dB,8.81674608862701e+001°)
4.74970532648462e+003	(-5.34099542324895e+001dB,8.81562437326490e+001°)
4.78630092322645e+003	(-5.33433472816534e+001dB,8.81449182070233e+001°)
4.82317848223937e+003	(-5.32767412320957e+001dB,8.81334836436118e+001°)
4.86034017599028e+003	(-5.32101360979594e+001dB,8.81219393962441e+001°)
4.89778819368453e+003	(-5.31435318935944e+001dB,8.81102847696045e+001°)
4.93552474139487e+003	(-5.30769286339063e+001dB,8.80985190901777e+001°)
4.97355204219146e+003	(-5.30103263336528e+001dB,8.80866416798772e+001°)
5.01187233627279e+003	(-5.29437250079683e+001dB,8.80746518370030e+001°)
5.05048788109766e+003	(-5.28771246721912e+001dB,8.80625488482320e+001°)
5.08940095151816e+003	(-5.28105253419384e+001dB,8.80503320353151e+001°)
5.12861383991372e+003	(-5.27439270329131e+001dB,8.80380006703838e+001°)
5.16812885632611e+003	(-5.26773297613343e+001dB,8.80255540245797e+001°)
5.20794832859554e+003	(-5.26107335434391e+001dB,8.80129913974771e+001°)
5.24807460249780e+003	(-5.25441383957558e+001dB,8.80003120339551e+001°)
5.28851004188245e+003	(-5.24775443350523e+001dB,8.79875152111097e+001°)
5.32925702881208e+003	(-5.24109513784615e+001dB,8.79746001646389e+001°)
5.37031796370260e+003	(-5.23443595431818e+001dB,8.79615661483178e+001°)
5.41169526546471e+003	(-5.22777688468870e+001dB,8.79484124169293e+001°)
5.45339137164635e+003	(-5.22111793073903e+001dB,8.79351381955416e+001°)
5.49540873857633e+003	(-5.21445909426659e+001dB,8.79217426930447e+001°)
5.53774984150898e+003	(-5.20780037713424e+001dB,8.79082251446635e+001°)
5.58041717477005e+003	(-5.20114178118804e+001dB,8.78945847664478e+001°)
5.62341325190357e+003	(-5.19448330831347e+001dB,8.78808207523933e+001°)
5.66674060582000e+003	(-5.18782496046735e+001dB,8.78669323238091e+001°)
5.71040178894535e+003	(-5.18116673957609e+001dB,8.78529186436322e+001°)
5.75439937337165e+003	(-5.17450864762857e+001dB,8.78387789132745e+001°)
5.79873595100840e+003	(-5.16785068663782e+001dB,8.78245123077164e+001°)
5.84341413373526e+003	(-5.16119285865411e+001dB,8.78101179928027e+001°)
5.88843655355598e+003	(-5.15453516573216e+001dB,8.77955951230677e+001°)
5.93380586275337e+003	(-5.14787760998065e+001dB,8.77809428642533e+001°)
5.97952473404561e+003	(-5.14122019356569e+001dB,8.77661603749023e+001°)
6.02559586074367e+003	(-5.13456291862586e+001dB,8.77512467844878e+001°)
6.07202195690998e+003	(-5.12790578735737e+001dB,8.77362012030020e+001°)
6.11880575751831e+003	(-5.12124880203061e+001dB,8.77210227961400e+001°)
6.16595001861492e+003	(-5.11459196490203e+001dB,8.77057106585407e+001°)
6.21345751748085e+003	(-5.10793527826893e+001dB,8.76902639098290e+001°)
6.26133105279562e+003	(-5.10127874447988e+001dB,8.76746816426583e+001°)
6.30957344480203e+003	(-5.09462236590709e+001dB,8.76589629588019e+001°)
6.35818753547233e+003	(-5.08796614495594e+001dB,8.76431069393705e+001°)
6.40717618867564e+003	(-5.08131008408215e+001dB,8.76271126690001e+001°)
6.45654229034666e+003	(-5.07465418577779e+001dB,8.76109792232826e+001°)
6.50628874865568e+003	(-5.06799845255327e+001dB,8.75947056528815e+001°)
6.55641849417989e+003	(-5.06134288699006e+001dB,8.75782910324838e+001°)
6.60693448007607e+003	(-5.05468749167368e+001dB,8.75617343990267e+001°)
6.65783968225447e+003	(-5.04803226924067e+001dB,8.75450347798140e+001°)
6.70913709955422e+003	(-5.04137722239810e+001dB,8.75281912275459e+001°)
6.76082975391993e+003	(-5.03472235385500e+001dB,8.75112027630186e+001°)
6.81292069057972e+003	(-5.02806766637341e+001dB,8.74940683926180e+001°)
6.86541297822466e+003	(-5.02141316274871e+001dB,8.74767871180341e+001°)
6.91830970918948e+003	(-5.01475884584188e+001dB,8.74593579483187e+001°)
6.97161399963479e+003	(-5.00810471855932e+001dB,8.74417798851355e+001°)
7.02532898973064e+003	(-5.00145078380733e+001dB,8.74240518883751e+001°)
7.07945784384150e+003	(-4.99479704457962e+001dB,8.74061729363980e+001°)
7.13400375071268e+003	(-4.98814350392229e+001dB,8.73881420064984e+001°)
7.18896992365819e+003	(-4.98149016489289e+001dB,8.73699580595218e+001°)
7.24435960075002e+003	(-4.97483703059406e+001dB,8.73516200231830e+001°)
7.30017604500890e+003	(-4.96818410422659e+001dB,8.73331268460872e+001°)
7.35642254459654e+003	(-4.96153138899272e+001dB,8.73144774631917e+001°)
7.41310241300930e+003	(-4.95487888814631e+001dB,8.72956707993376e+001°)
7.47021898927344e+003	(-4.94822660501698e+001dB,8.72767057493011e+001°)
7.52777563814179e+003	(-4.94157454295814e+001dB,8.72575812338166e+001°)
7.58577575029197e+003	(-4.93492270538439e+001dB,8.72382961474298e+001°)
7.64422274252613e+003	(-4.92827109579626e+001dB,8.72188493726342e+001°)
7.70312005797228e+003	(-4.92161971768238e+001dB,8.71992397961389e+001°)
7.76247116628705e+003	(-4.91496857462105e+001dB,8.71794662765030e+001°)
7.82227956386016e+003	(-4.90831767026305e+001dB,8.71595276768484e+001°)
7.88254877402035e+003	(-4.90166700827625e+001dB,8.71394228411579e+001°)
7.94328234724295e+003	(-4.89501659240998e+001dB,8.71191506227350e+001°)
8.00448386135906e+003	(-4.88836642644228e+001dB,8.70987098441516e+001°)
8.06615692176628e+003	(-4.88171651427765e+001dB,8.70780993431323e+001°)
8.12830516164114e+003	(-4.87506685977531e+001dB,8.70573179103868e+001°)
8.19093224215312e+003	(-4.86841746695307e+001dB,8.70363643620001e+001°)
8.25404185268033e+003	(-4.86176833982937e+001dB,8.70152374881066e+001°)
8.31763771102686e+003	(-4.85511948250027e+001dB,8.69939360821063e+001°)
