Freq.	V(vout)
1.00000000000000e+003	(-4.57011753528550e+001dB,8.85164087849945e+001°)
1.00770481413610e+003	(-4.56345276386136e+001dB,8.85182261436454e+001°)
1.01546899243308e+003	(-4.55678797567138e+001dB,8.85199562317705e+001°)
1.02329299228075e+003	(-4.55012317115659e+001dB,8.85215991654154e+001°)
1.03117727459306e+003	(-4.54345835075807e+001dB,8.85231550387448e+001°)
1.03912230383517e+003	(-4.53679351491064e+001dB,8.85246239404454e+001°)
1.04712854805090e+003	(-4.53012866404582e+001dB,8.85260059691974e+001°)
1.05519647889024e+003	(-4.52346379859082e+001dB,8.85273011872947e+001°)
1.06332657163716e+003	(-4.51679891896891e+001dB,8.85285096773233e+001°)
1.07151930523761e+003	(-4.51013402559657e+001dB,8.85296315068077e+001°)
1.07977516232771e+003	(-4.50346911890199e+001dB,8.85306667465663e+001°)
1.08809462926223e+003	(-4.49680419929250e+001dB,8.85316154615688e+001°)
1.09647819614319e+003	(-4.49013926718194e+001dB,8.85324777026417e+001°)
1.10492635684876e+003	(-4.48347432297440e+001dB,8.85332535021877e+001°)
1.11343960906236e+003	(-4.47680936708162e+001dB,8.85339429334238e+001°)
1.12201845430197e+003	(-4.47014439991179e+001dB,8.85345460421346e+001°)
1.13066339794964e+003	(-4.46347942184907e+001dB,8.85350628290825e+001°)
1.13937494928134e+003	(-4.45681443329705e+001dB,8.85354933370336e+001°)
1.14815362149688e+003	(-4.45014943465878e+001dB,8.85358376004614e+001°)
1.15699993175021e+003	(-4.44348442632348e+001dB,8.85360956399044e+001°)
1.16591440117983e+003	(-4.43681940868227e+001dB,8.85362674680110e+001°)
1.17489755493953e+003	(-4.43015438211553e+001dB,8.85363530832971e+001°)
1.18394992222930e+003	(-4.42348934701882e+001dB,8.85363525029059e+001°)
1.19307203632654e+003	(-4.41682430377399e+001dB,8.85362657190891e+001°)
1.20226443461742e+003	(-4.41015925276023e+001dB,8.85360927285509e+001°)
1.21152765862859e+003	(-4.40349419436345e+001dB,8.85358335208268e+001°)
1.22086225405907e+003	(-4.39682912895721e+001dB,8.85354880822831e+001°)
1.23026877081238e+003	(-4.39016405692646e+001dB,8.85350564051773e+001°)
1.23974776302895e+003	(-4.38349897863850e+001dB,8.85345384320177e+001°)
1.24929978911874e+003	(-4.37683389447042e+001dB,8.85339341605529e+001°)
1.25892541179417e+003	(-4.37016880479654e+001dB,8.85332435422148e+001°)
1.26862519810326e+003	(-4.36350370998571e+001dB,8.85324665347784e+001°)
1.27839971946303e+003	(-4.35683861040978e+001dB,8.85316031047936e+001°)
1.28824955169314e+003	(-4.35017350643746e+001dB,8.85306531807864e+001°)
1.29817527504985e+003	(-4.34350839843631e+001dB,8.85296167142034e+001°)
1.30817747426020e+003	(-4.33684328677639e+001dB,8.85284936599268e+001°)
1.31825673855641e+003	(-4.33017817182238e+001dB,8.85272839414542e+001°)
1.32841366171065e+003	(-4.32351305394111e+001dB,8.85259874841255e+001°)
1.33864884207000e+003	(-4.31684793349161e+001dB,8.85246042049707e+001°)
1.34896288259166e+003	(-4.31018281084522e+001dB,8.85231340328074e+001°)
1.35935639087853e+003	(-4.30351768635988e+001dB,8.85215768764336e+001°)
1.36982997921497e+003	(-4.29685256040458e+001dB,8.85199326574263e+001°)
1.38038426460289e+003	(-4.29018743333867e+001dB,8.85182012593243e+001°)
1.39101986879806e+003	(-4.28352230552332e+001dB,8.85163825773883e+001°)
1.40173741834677e+003	(-4.27685717732759e+001dB,8.85144765298567e+001°)
1.41253754462276e+003	(-4.27019204910723e+001dB,8.85124829831181e+001°)
1.42342088386435e+003	(-4.26352692122655e+001dB,8.85104018270921e+001°)
1.43438807721197e+003	(-4.25686179404983e+001dB,8.85082329400300e+001°)
1.44543977074593e+003	(-4.25019666793933e+001dB,8.85059761915437e+001°)
1.45657661552446e+003	(-4.24353154325418e+001dB,8.85036314402170e+001°)
1.46779926762207e+003	(-4.23686642036256e+001dB,8.85011985633593e+001°)
1.47910838816821e+003	(-4.23020129962676e+001dB,8.84986774131762e+001°)
1.49050464338620e+003	(-4.22353618141062e+001dB,8.84960678436635e+001°)
1.50198870463249e+003	(-4.21687106607708e+001dB,8.84933696891023e+001°)
1.51356124843621e+003	(-4.21020595399382e+001dB,8.84905828003966e+001°)
1.52522295653902e+003	(-4.20354084552675e+001dB,8.84877070067730e+001°)
1.53697451593528e+003	(-4.19687574104135e+001dB,8.84847421465780e+001°)
1.54881661891249e+003	(-4.19021064091075e+001dB,8.84816880430720e+001°)
1.56074996309212e+003	(-4.18354554549604e+001dB,8.84785445106436e+001°)
1.57277525147067e+003	(-4.17688045517408e+001dB,8.84753113723073e+001°)
1.58489319246112e+003	(-4.17021537031396e+001dB,8.84719884364072e+001°)
1.59710449993461e+003	(-4.16355029128774e+001dB,8.84685755041187e+001°)
1.60940989326254e+003	(-4.15688521846851e+001dB,8.84650723677079e+001°)
1.62181009735894e+003	(-4.15022015223466e+001dB,8.84614788376715e+001°)
1.63430584272314e+003	(-4.14355509296230e+001dB,8.84577946891099e+001°)
1.64689786548288e+003	(-4.13689004102657e+001dB,8.84540197077924e+001°)
1.65958690743757e+003	(-4.13022499681786e+001dB,8.84501536816211e+001°)
1.67237371610209e+003	(-4.12355996070251e+001dB,8.84461963643475e+001°)
1.68525904475076e+003	(-4.11689493307608e+001dB,8.84421475346502e+001°)
1.69824365246175e+003	(-4.11022991432176e+001dB,8.84380069551919e+001°)
1.71132830416179e+003	(-4.10356490483081e+001dB,8.84337743798570e+001°)
1.72451377067121e+003	(-4.09689990499085e+001dB,8.84294495619163e+001°)
1.73780082874938e+003	(-4.09023491519110e+001dB,8.84250322354924e+001°)
1.75119026114047e+003	(-4.08356993583270e+001dB,8.84205221573770e+001°)
1.76468285661951e+003	(-4.07690496730660e+001dB,8.84159190504437e+001°)
1.77827941003893e+003	(-4.07024001002319e+001dB,8.84112226453773e+001°)
1.79198072237534e+003	(-4.06357506437494e+001dB,8.84064326761373e+001°)
1.80578760077673e+003	(-4.05691013076959e+001dB,8.84015488416358e+001°)
1.81970085860999e+003	(-4.05024520962007e+001dB,8.83965708740027e+001°)
1.83372131550889e+003	(-4.04358030132962e+001dB,8.83914984677467e+001°)
1.84784979742230e+003	(-4.03691540632208e+001dB,8.83863313267241e+001°)
1.86208713666288e+003	(-4.03025052500593e+001dB,8.83810691469435e+001°)
1.87643417195610e+003	(-4.02358565780831e+001dB,8.83757116234665e+001°)
1.89089174848965e+003	(-4.01692080515322e+001dB,8.83702584415813e+001°)
1.90546071796326e+003	(-4.01025596746035e+001dB,8.83647092732054e+001°)
1.92014193863881e+003	(-4.00359114516903e+001dB,8.83590637959711e+001°)
1.93493627539096e+003	(-3.99692633870665e+001dB,8.83533216718015e+001°)
1.94984459975806e+003	(-3.99026154851600e+001dB,8.83474825728079e+001°)
1.96486778999348e+003	(-3.98359677504167e+001dB,8.83415461526340e+001°)
1.98000673111740e+003	(-3.97693201872515e+001dB,8.83355120583178e+001°)
1.99526231496889e+003	(-3.97026728001233e+001dB,8.83293799270110e+001°)
2.01063544025850e+003	(-3.96360255936661e+001dB,8.83231494176206e+001°)
2.02612701262116e+003	(-3.95693785724061e+001dB,8.83168201521596e+001°)
2.04173794466954e+003	(-3.95027317409767e+001dB,8.83103917581471e+001°)
2.05746915604785e+003	(-3.94360851040581e+001dB,8.83038638562801e+001°)
2.07332157348597e+003	(-3.93694386664117e+001dB,8.82972360729265e+001°)
2.08929613085405e+003	(-3.93027924327140e+001dB,8.82905079979740e+001°)
2.10539376921757e+003	(-3.92361464078642e+001dB,8.82836792605435e+001°)
2.12161543689270e+003	(-3.91695005966489e+001dB,8.82767494333454e+001°)
2.13796208950225e+003	(-3.91028550040340e+001dB,8.82697181313348e+001°)
2.15443469003190e+003	(-3.90362096349415e+001dB,8.82625849204137e+001°)
2.17103420888697e+003	(-3.89695644944345e+001dB,8.82553494028104e+001°)
2.18776162394957e+003	(-3.89029195875696e+001dB,8.82480111424222e+001°)
2.20461792063620e+003	(-3.88362749194264e+001dB,8.82405697039127e+001°)
2.22160409195583e+003	(-3.87696304952719e+001dB,8.82330246542639e+001°)
2.23872113856835e+003	(-3.87029863202537e+001dB,8.82253755399928e+001°)
2.25597006884359e+003	(-3.86363423997180e+001dB,8.82176219230190e+001°)
2.27335189892065e+003	(-3.85696987390343e+001dB,8.82097633465824e+001°)
2.29086765276779e+003	(-3.85030553436141e+001dB,8.82017993457837e+001°)
2.30851836224278e+003	(-3.84364122188983e+001dB,8.81937294500217e+001°)
2.32630506715364e+003	(-3.83697693704716e+001dB,8.81855531861137e+001°)
2.34422881531994e+003	(-3.83031268039658e+001dB,8.81772700798563e+001°)
2.36229066263448e+003	(-3.82364845249855e+001dB,8.81688796342877e+001°)
2.38049167312553e+003	(-3.81698425393038e+001dB,8.81603813563236e+001°)
2.39883291901951e+003	(-3.81032008527814e+001dB,8.81517747528771e+001°)
2.41731548080412e+003	(-3.80365594712624e+001dB,8.81430593159149e+001°)
2.43594044729204e+003	(-3.79699184006626e+001dB,8.81342345278853e+001°)
2.45470891568505e+003	(-3.79032776470775e+001dB,8.81252998756150e+001°)
2.47362199163864e+003	(-3.78366372165903e+001dB,8.81162548331870e+001°)
2.49268078932720e+003	(-3.77699971153495e+001dB,8.81070988668818e+001°)
2.51188643150960e+003	(-3.77033573496490e+001dB,8.80978314399301e+001°)
2.53124004959538e+003	(-3.76367179257982e+001dB,8.80884520026668e+001°)
2.55074278371138e+003	(-3.75700788502324e+001dB,8.80789600107497e+001°)
2.57039578276888e+003	(-3.75034401294355e+001dB,8.80693548997710e+001°)
2.59020020453134e+003	(-3.74368017700110e+001dB,8.80596361105410e+001°)
2.61015721568256e+003	(-3.73701637785841e+001dB,8.80498030672928e+001°)
2.63026799189540e+003	(-3.73035261619340e+001dB,8.80398551964961e+001°)
2.65053371790110e+003	(-3.72368889269121e+001dB,8.80297919077329e+001°)
2.67095558755901e+003	(-3.71702520804456e+001dB,8.80196126168418e+001°)
2.69153480392694e+003	(-3.71036156295288e+001dB,8.80093167176549e+001°)
2.71227257933205e+003	(-3.70369795812915e+001dB,8.79989036066873e+001°)
2.73317013544226e+003	(-3.69703439429538e+001dB,8.79883726760297e+001°)
2.75422870333819e+003	(-3.69037087218313e+001dB,8.79777233056707e+001°)
2.77544952358573e+003	(-3.68370739252834e+001dB,8.79669548658501e+001°)
2.79683384630910e+003	(-3.67704395608674e+001dB,8.79560667290161e+001°)
2.81838293126448e+003	(-3.67038056361512e+001dB,8.79450582484147e+001°)
2.84009804791424e+003	(-3.66371721588612e+001dB,8.79339287788193e+001°)
2.86198047550173e+003	(-3.65705391368105e+001dB,8.79226776727985e+001°)
2.88403150312663e+003	(-3.65039065779172e+001dB,8.79113042638371e+001°)
2.90625242982089e+003	(-3.64372744902184e+001dB,8.78998078841090e+001°)
2.92864456462526e+003	(-3.63706428818663e+001dB,8.78881878574737e+001°)
2.95120922666641e+003	(-3.63040117610975e+001dB,8.78764435054774e+001°)
2.97394774523463e+003	(-3.62373811362586e+001dB,8.78645741310259e+001°)
2.99686145986215e+003	(-3.61707510158723e+001dB,8.78525790394786e+001°)
3.01995172040204e+003	(-3.61041214085251e+001dB,8.78404575275534e+001°)
3.04321988710775e+003	(-3.60374923229921e+001dB,8.78282088834834e+001°)
3.06666733071321e+003	(-3.59708637680257e+001dB,8.78158323853597e+001°)
3.09029543251362e+003	(-3.59042357526645e+001dB,8.78033273060931e+001°)
3.11410558444679e+003	(-3.58376082860021e+001dB,8.77906929121953e+001°)
3.13809918917516e+003	(-3.57709813772626e+001dB,8.77779284641137e+001°)
3.16227766016841e+003	(-3.57043550357955e+001dB,8.77650332078144e+001°)
3.18664242178676e+003	(-3.56377292711073e+001dB,8.77520063864722e+001°)
3.21119490936485e+003	(-3.55711040927962e+001dB,8.77388472352481e+001°)
3.23593656929631e+003	(-3.55044795106889e+001dB,8.77255549851493e+001°)
3.26086885911896e+003	(-3.54378555346330e+001dB,8.77121288460128e+001°)
3.28599324760069e+003	(-3.53712321746712e+001dB,8.76985680380085e+001°)
3.31131121482594e+003	(-3.53046094410716e+001dB,8.76848717619530e+001°)
3.33682425228297e+003	(-3.52379873441113e+001dB,8.76710392147524e+001°)
3.36253386295166e+003	(-3.51713658943087e+001dB,8.76570695842922e+001°)
3.38844156139206e+003	(-3.51047451022886e+001dB,8.76429620479041e+001°)
3.41454887383364e+003	(-3.50381249788291e+001dB,8.76287157745956e+001°)
3.44085733826517e+003	(-3.49715055349710e+001dB,8.76143299370370e+001°)
3.46736850452535e+003	(-3.49048867817067e+001dB,8.75998036778467e+001°)
3.49408393439410e+003	(-3.48382687304222e+001dB,8.75851361587402e+001°)
3.52100520168456e+003	(-3.47716513925114e+001dB,8.75703265083553e+001°)
3.54813389233579e+003	(-3.47050347795707e+001dB,8.75553738576678e+001°)
3.57547160450625e+003	(-3.46384189034094e+001dB,8.75402773357438e+001°)
3.60301994866789e+003	(-3.45718037759685e+001dB,8.75250360494651e+001°)
3.63078054770105e+003	(-3.45051894093659e+001dB,8.75096491094082e+001°)
3.65875503699007e+003	(-3.44385758159580e+001dB,8.74941156094568e+001°)
3.68694506451962e+003	(-3.43719630081475e+001dB,8.74784346334725e+001°)
3.71535229097177e+003	(-3.43053509986755e+001dB,8.74626052720420e+001°)
3.74397838982385e+003	(-3.42387398004014e+001dB,8.74466265894683e+001°)
3.77282504744704e+003	(-3.41721294263267e+001dB,8.74304976453518e+001°)
3.80189396320565e+003	(-3.41055198897530e+001dB,8.74142174984573e+001°)
3.83118684955733e+003	(-3.40389112040872e+001dB,8.73977851940875e+001°)
3.86070543215386e+003	(-3.39723033829804e+001dB,8.73811997642072e+001°)
3.89045144994285e+003	(-3.39056964403160e+001dB,8.73644602371767e+001°)
3.92042665527020e+003	(-3.38390903901008e+001dB,8.73475656327223e+001°)
3.95063281398328e+003	(-3.37724852466045e+001dB,8.73305149564688e+001°)
3.98107170553502e+003	(-3.37058810243242e+001dB,8.73133072094911e+001°)
4.01174512308867e+003	(-3.36392777379028e+001dB,8.72959413852781e+001°)
4.04265487362349e+003	(-3.35726754023408e+001dB,8.72784164652817e+001°)
4.07380277804117e+003	(-3.35060740326727e+001dB,8.72607314192509e+001°)
4.10519067127313e+003	(-3.34394736442865e+001dB,8.72428852062744e+001°)
4.13682040238856e+003	(-3.33728742528198e+001dB,8.72248767844427e+001°)
4.16869383470340e+003	(-3.33062758740626e+001dB,8.72067051027391e+001°)
4.20081284589012e+003	(-3.32396785240749e+001dB,8.71883690868973e+001°)
4.23317932808826e+003	(-3.31730822191733e+001dB,8.71698676646472e+001°)
4.26579518801598e+003	(-3.31064869758840e+001dB,8.71511997534921e+001°)
4.29866234708233e+003	(-3.30398928110853e+001dB,8.71323642594507e+001°)
4.33178274150047e+003	(-3.29732997417048e+001dB,8.71133600722141e+001°)
4.36515832240171e+003	(-3.29067077851369e+001dB,8.70941860855937e+001°)
4.39879105595049e+003	(-3.28401169589341e+001dB,8.70748411715594e+001°)
4.43268292346014e+003	(-3.27735272809400e+001dB,8.70553241997454e+001°)
4.46683592150969e+003	(-3.27069387692255e+001dB,8.70356340210016e+001°)
4.50125206206139e+003	(-3.26403514422139e+001dB,8.70157694872178e+001°)
4.53593337257933e+003	(-3.25737653185324e+001dB,8.69957294309796e+001°)
4.57088189614881e+003	(-3.25071804171606e+001dB,8.69755126807405e+001°)
4.60609969159672e+003	(-3.24405967572789e+001dB,8.69551180495098e+001°)
4.64158883361284e+003	(-3.23740143584180e+001dB,8.69345443446480e+001°)
4.67735141287204e+003	(-3.23074332404155e+001dB,8.69137903629583e+001°)
4.71338953615747e+003	(-3.22408534233356e+001dB,8.68928548839076e+001°)
4.74970532648462e+003	(-3.21742749276501e+001dB,8.68717366855896e+001°)
4.78630092322645e+003	(-3.21076977740724e+001dB,8.68504345296493e+001°)
4.82317848223937e+003	(-3.20411219836314e+001dB,8.68289471680851e+001°)
4.86034017599028e+003	(-3.19745475776869e+001dB,8.68072733430285e+001°)
4.89778819368453e+003	(-3.19079745779863e+001dB,8.67854117916780e+001°)
4.93552474139487e+003	(-3.18414030064559e+001dB,8.67633612248518e+001°)
4.97355204219146e+003	(-3.17748328855022e+001dB,8.67411203583892e+001°)
5.01187233627279e+003	(-3.17082642378165e+001dB,8.67186878890838e+001°)
5.05048788109766e+003	(-3.16416970864193e+001dB,8.66960625011910e+001°)
5.08940095151816e+003	(-3.15751314547267e+001dB,8.66732428750526e+001°)
5.12861383991372e+003	(-3.15085673664601e+001dB,8.66502276744000e+001°)
5.16812885632611e+003	(-3.14420048457405e+001dB,8.66270155533672e+001°)
5.20794832859554e+003	(-3.13754439170220e+001dB,8.66036051511763e+001°)
5.24807460249780e+003	(-3.13088846051762e+001dB,8.65799951022993e+001°)
5.28851004188245e+003	(-3.12423269354046e+001dB,8.65561840222222e+001°)
5.32925702881208e+003	(-3.11757709333433e+001dB,8.65321705219679e+001°)
5.37031796370260e+003	(-3.11092166249806e+001dB,8.65079531967631e+001°)
5.41169526546471e+003	(-3.10426640367157e+001dB,8.64835306274316e+001°)
5.45339137164635e+003	(-3.09761131953697e+001dB,8.64589013922330e+001°)
5.49540873857633e+003	(-3.09095641281224e+001dB,8.64340640466408e+001°)
5.53774984150898e+003	(-3.08430168626170e+001dB,8.64090171406022e+001°)
5.58041717477005e+003	(-3.07764714268772e+001dB,8.63837592114728e+001°)
5.62341325190357e+003	(-3.07099278494215e+001dB,8.63582887824475e+001°)
5.66674060582000e+003	(-3.06433861591368e+001dB,8.63326043661722e+001°)
5.71040178894535e+003	(-3.05768463853791e+001dB,8.63067044595797e+001°)
5.75439937337165e+003	(-3.05103085579272e+001dB,8.62805875528858e+001°)
5.79873595100840e+003	(-3.04437727070613e+001dB,8.62542521203997e+001°)
5.84341413373526e+003	(-3.03772388635153e+001dB,8.62276966239720e+001°)
5.88843655355598e+003	(-3.03107070584651e+001dB,8.62009195125655e+001°)
5.93380586275337e+003	(-3.02441773235689e+001dB,8.61739192240585e+001°)
5.97952473404561e+003	(-3.01776496909720e+001dB,8.61466941802620e+001°)
6.02559586074367e+003	(-3.01111241933562e+001dB,8.61192427950833e+001°)
6.07202195690998e+003	(-3.00446008638292e+001dB,8.60915634654849e+001°)
6.11880575751831e+003	(-2.99780797360193e+001dB,8.60636545749300e+001°)
6.16595001861492e+003	(-2.99115608441299e+001dB,8.60355144984702e+001°)
6.21345751748085e+003	(-2.98450442228416e+001dB,8.60071415909649e+001°)
6.26133105279562e+003	(-2.97785299073551e+001dB,8.59785341998762e+001°)
6.30957344480203e+003	(-2.97120179334500e+001dB,8.59496906585185e+001°)
6.35818753547233e+003	(-2.96455083374109e+001dB,8.59206092827058e+001°)
6.40717618867564e+003	(-2.95790011560909e+001dB,8.58912883789109e+001°)
6.45654229034666e+003	(-2.95124964269376e+001dB,8.58617262350429e+001°)
6.50628874865568e+003	(-2.94459941879194e+001dB,8.58319211323766e+001°)
6.55641849417989e+003	(-2.93794944776539e+001dB,8.58018713315925e+001°)
6.60693448007607e+003	(-2.93129973352758e+001dB,8.57715750838792e+001°)
6.65783968225447e+003	(-2.92465028005536e+001dB,8.57410306225152e+001°)
6.70913709955422e+003	(-2.91800109138821e+001dB,8.57102361704741e+001°)
6.76082975391993e+003	(-2.91135217162479e+001dB,8.56791899342625e+001°)
6.81292069057972e+003	(-2.90470352492833e+001dB,8.56478901055436e+001°)
6.86541297822466e+003	(-2.89805515552377e+001dB,8.56163348644273e+001°)
6.91830970918948e+003	(-2.89140706770320e+001dB,8.55845223732711e+001°)
6.97161399963479e+003	(-2.88475926582073e+001dB,8.55524507803061e+001°)
7.02532898973064e+003	(-2.87811175430177e+001dB,8.55201182205714e+001°)
7.07945784384150e+003	(-2.87146453763626e+001dB,8.54875228141338e+001°)
7.13400375071268e+003	(-2.86481762038641e+001dB,8.54546626653976e+001°)
7.18896992365819e+003	(-2.85817100717556e+001dB,8.54215358624397e+001°)
7.24435960075002e+003	(-2.85152470271252e+001dB,8.53881404820495e+001°)
7.30017604500890e+003	(-2.84487871176210e+001dB,8.53544745808596e+001°)
7.35642254459654e+003	(-2.83823303917414e+001dB,8.53205362041938e+001°)
7.41310241300930e+003	(-2.83158768986833e+001dB,8.52863233795240e+001°)
7.47021898927344e+003	(-2.82494266883625e+001dB,8.52518341207963e+001°)
7.52777563814179e+003	(-2.81829798115240e+001dB,8.52170664243364e+001°)
7.58577575029197e+003	(-2.81165363196649e+001dB,8.51820182725104e+001°)
7.64422274252613e+003	(-2.80500962650325e+001dB,8.51466876305852e+001°)
7.70312005797228e+003	(-2.79836597007340e+001dB,8.51110724485188e+001°)
7.76247116628705e+003	(-2.79172266806469e+001dB,8.50751706580424e+001°)
7.82227956386016e+003	(-2.78507972595086e+001dB,8.50389801796756e+001°)
7.88254877402035e+003	(-2.77843714928543e+001dB,8.50024989152540e+001°)
7.94328234724295e+003	(-2.77179494370970e+001dB,8.49657247463702e+001°)
8.00448386135906e+003	(-2.76515311495005e+001dB,8.49286555440160e+001°)
8.06615692176628e+003	(-2.75851166881898e+001dB,8.48912891577315e+001°)
8.12830516164114e+003	(-2.75187061122059e+001dB,8.48536234249010e+001°)
8.19093224215312e+003	(-2.74522994815474e+001dB,8.48156561638276e+001°)
8.25404185268033e+003	(-2.73858968570004e+001dB,8.47773851766108e+001°)
8.31763771102686e+003	(-2.73194983003522e+001dB,8.47388082445572e+001°)
