Freq.	V(vout)
1.00000000000000e+003	(-5.75793478363549e+001dB,8.87309620692536e+001°)
1.00770481413610e+003	(-5.75126990632170e+001dB,8.87345412218925e+001°)
1.01546899243308e+003	(-5.74460500984421e+001dB,8.87380458678060e+001°)
1.02329299228075e+003	(-5.73794009462078e+001dB,8.87414761919585e+001°)
1.03117727459306e+003	(-5.73127516106486e+001dB,8.87448324187378e+001°)
1.03912230383517e+003	(-5.72461020958172e+001dB,8.87481147285496e+001°)
1.04712854805090e+003	(-5.71794524057175e+001dB,8.87513233007431e+001°)
1.05519647889024e+003	(-5.71128025445245e+001dB,8.87544583784176e+001°)
1.06332657163716e+003	(-5.70461525159876e+001dB,8.87575200901933e+001°)
1.07151930523761e+003	(-5.69795023240647e+001dB,8.87605086222677e+001°)
1.07977516232771e+003	(-5.69128519728076e+001dB,8.87634241951153e+001°)
1.08809462926223e+003	(-5.68462014658878e+001dB,8.87662669393641e+001°)
1.09647819614319e+003	(-5.67795508071762e+001dB,8.87690370221700e+001°)
1.10492635684876e+003	(-5.67129000003436e+001dB,8.87717346099832e+001°)
1.11343960906236e+003	(-5.66462490492389e+001dB,8.87743598759162e+001°)
1.12201845430197e+003	(-5.65795979576057e+001dB,8.87769129826911e+001°)
1.13066339794964e+003	(-5.65129467289145e+001dB,8.87793940247434e+001°)
1.13937494928134e+003	(-5.64462953670079e+001dB,8.87818032023461e+001°)
1.14815362149688e+003	(-5.63796438754592e+001dB,8.87841406644468e+001°)
1.15699993175021e+003	(-5.63129922577358e+001dB,8.87864065037795e+001°)
1.16591440117983e+003	(-5.62463405174278e+001dB,8.87886008811287e+001°)
1.17489755493953e+003	(-5.61796886580069e+001dB,8.87907238962868e+001°)
1.18394992222930e+003	(-5.61130366830963e+001dB,8.87927757100269e+001°)
1.19307203632654e+003	(-5.60463845960866e+001dB,8.87947564424034e+001°)
1.20226443461742e+003	(-5.59797324003687e+001dB,8.87966661809852e+001°)
1.21152765862859e+003	(-5.59130800993732e+001dB,8.87985050543197e+001°)
1.22086225405907e+003	(-5.58464276964655e+001dB,8.88002731612400e+001°)
1.23026877081238e+003	(-5.57797751951030e+001dB,8.88019706316727e+001°)
1.23974776302895e+003	(-5.57131225985098e+001dB,8.88035975387608e+001°)
1.24929978911874e+003	(-5.56464699100744e+001dB,8.88051539855397e+001°)
1.25892541179417e+003	(-5.55798171330654e+001dB,8.88066400730759e+001°)
1.26862519810326e+003	(-5.55131642707521e+001dB,8.88080558841106e+001°)
1.27839971946303e+003	(-5.54465113263343e+001dB,8.88094014779165e+001°)
1.28824955169314e+003	(-5.53798583031021e+001dB,8.88106769566713e+001°)
1.29817527504985e+003	(-5.53132052042798e+001dB,8.88118823985187e+001°)
1.30817747426020e+003	(-5.52465520330287e+001dB,8.88130178552207e+001°)
1.31825673855641e+003	(-5.51798987924981e+001dB,8.88140834031280e+001°)
1.32841366171065e+003	(-5.51132454859989e+001dB,8.88150791354167e+001°)
1.33864884207000e+003	(-5.50465921165144e+001dB,8.88160050608146e+001°)
1.34896288259166e+003	(-5.49799386872352e+001dB,8.88168612590185e+001°)
1.35935639087853e+003	(-5.49132852013373e+001dB,8.88176477941895e+001°)
1.36982997921497e+003	(-5.48466316618089e+001dB,8.88183646681547e+001°)
1.38038426460289e+003	(-5.47799780718432e+001dB,8.88190119671291e+001°)
1.39101986879806e+003	(-5.47133244343921e+001dB,8.88195896925357e+001°)
1.40173741834677e+003	(-5.46466707527392e+001dB,8.88200979274034e+001°)
1.41253754462276e+003	(-5.45800170297354e+001dB,8.88205366503039e+001°)
1.42342088386435e+003	(-5.45133632685101e+001dB,8.88209059064585e+001°)
1.43438807721197e+003	(-5.44467094721856e+001dB,8.88212057397239e+001°)
1.44543977074593e+003	(-5.43800556436372e+001dB,8.88214361292581e+001°)
1.45657661552446e+003	(-5.43134017860044e+001dB,8.88215971170056e+001°)
1.46779926762207e+003	(-5.42467479022277e+001dB,8.88216886920883e+001°)
1.47910838816821e+003	(-5.41800939953517e+001dB,8.88217108613174e+001°)
1.49050464338620e+003	(-5.41134400684508e+001dB,8.88216636592607e+001°)
1.50198870463249e+003	(-5.40467861244005e+001dB,8.88215470366366e+001°)
1.51356124843621e+003	(-5.39801321662758e+001dB,8.88213610204979e+001°)
1.52522295653902e+003	(-5.39134781971037e+001dB,8.88211055967664e+001°)
1.53697451593528e+003	(-5.38468242197719e+001dB,8.88207807233559e+001°)
1.54881661891249e+003	(-5.37801702373395e+001dB,8.88203864044918e+001°)
1.56074996309212e+003	(-5.37135162527789e+001dB,8.88199226090732e+001°)
1.57277525147067e+003	(-5.36468622690765e+001dB,8.88193893137063e+001°)
1.58489319246112e+003	(-5.35802082892561e+001dB,8.88187864935684e+001°)
1.59710449993461e+003	(-5.35135543162138e+001dB,8.88181140832789e+001°)
1.60940989326254e+003	(-5.34469003529905e+001dB,8.88173720815329e+001°)
1.62181009735894e+003	(-5.33802464026617e+001dB,8.88165604339495e+001°)
1.63430584272314e+003	(-5.33135924681126e+001dB,8.88156790762475e+001°)
1.64689786548288e+003	(-5.32469385523735e+001dB,8.88147279717562e+001°)
1.65958690743757e+003	(-5.31802846585005e+001dB,8.88137070682884e+001°)
1.67237371610209e+003	(-5.31136307893523e+001dB,8.88126162755937e+001°)
1.68525904475076e+003	(-5.30469769481466e+001dB,8.88114555760320e+001°)
1.69824365246175e+003	(-5.29803231376957e+001dB,8.88102248490721e+001°)
1.71132830416179e+003	(-5.29136693612277e+001dB,8.88089240697465e+001°)
1.72451377067121e+003	(-5.28470156216801e+001dB,8.88075531388629e+001°)
1.73780082874938e+003	(-5.27803619220326e+001dB,8.88061119633941e+001°)
1.75119026114047e+003	(-5.27137082655420e+001dB,8.88046005065897e+001°)
1.76468285661951e+003	(-5.26470546550691e+001dB,8.88030186214944e+001°)
1.77827941003893e+003	(-5.25804010937545e+001dB,8.88013662513331e+001°)
1.79198072237534e+003	(-5.25137475846726e+001dB,8.87996432673469e+001°)
1.80578760077673e+003	(-5.24470941310058e+001dB,8.87978496054258e+001°)
1.81970085860999e+003	(-5.23804407357500e+001dB,8.87959851443792e+001°)
1.83372131550889e+003	(-5.23137874021518e+001dB,8.87940497716975e+001°)
1.84784979742230e+003	(-5.22471341332587e+001dB,8.87920433821152e+001°)
1.86208713666288e+003	(-5.21804809322220e+001dB,8.87899658369791e+001°)
1.87643417195610e+003	(-5.21138278023241e+001dB,8.87878170399457e+001°)
1.89089174848965e+003	(-5.20471747465814e+001dB,8.87855968416967e+001°)
1.90546071796326e+003	(-5.19805217683750e+001dB,8.87833051356466e+001°)
1.92014193863881e+003	(-5.19138688708060e+001dB,8.87809417623857e+001°)
1.93493627539096e+003	(-5.18472160572072e+001dB,8.87785066053144e+001°)
1.94984459975806e+003	(-5.17805633307264e+001dB,8.87759995022482e+001°)
1.96486778999348e+003	(-5.17139106948129e+001dB,8.87734203254946e+001°)
1.98000673111740e+003	(-5.16472581525946e+001dB,8.87707689003633e+001°)
1.99526231496889e+003	(-5.15806057074937e+001dB,8.87680450896320e+001°)
2.01063544025850e+003	(-5.15139533628366e+001dB,8.87652487189498e+001°)
2.02612701262116e+003	(-5.14473011220707e+001dB,8.87623796422882e+001°)
2.04173794466954e+003	(-5.13806489884712e+001dB,8.87594376705165e+001°)
2.05746915604785e+003	(-5.13139969655766e+001dB,8.87564226533849e+001°)
2.07332157348597e+003	(-5.12473450567355e+001dB,8.87533343899453e+001°)
2.08929613085405e+003	(-5.11806932654899e+001dB,8.87501727124570e+001°)
2.10539376921757e+003	(-5.11140415952563e+001dB,8.87469374216538e+001°)
2.12161543689270e+003	(-5.10473900497094e+001dB,8.87436283531702e+001°)
2.13796208950225e+003	(-5.09807386323142e+001dB,8.87402452836471e+001°)
2.15443469003190e+003	(-5.09140873466275e+001dB,8.87367880304391e+001°)
2.17103420888697e+003	(-5.08474361964227e+001dB,8.87332563967154e+001°)
2.18776162394957e+003	(-5.07807851852064e+001dB,8.87296501574184e+001°)
2.20461792063620e+003	(-5.07141343166960e+001dB,8.87259691108707e+001°)
2.22160409195583e+003	(-5.06474835946872e+001dB,8.87222130426490e+001°)
2.23872113856835e+003	(-5.05808330228212e+001dB,8.87183817138820e+001°)
2.25597006884359e+003	(-5.05141826049798e+001dB,8.87144749252766e+001°)
2.27335189892065e+003	(-5.04475323449677e+001dB,8.87104924311819e+001°)
2.29086765276779e+003	(-5.03808822466481e+001dB,8.87064340114835e+001°)
2.30851836224278e+003	(-5.03142323138537e+001dB,8.87022994055448e+001°)
2.32630506715364e+003	(-5.02475825506605e+001dB,8.86980883889756e+001°)
2.34422881531994e+003	(-5.01809329609484e+001dB,8.86938007022234e+001°)
2.36229066263448e+003	(-5.01142835487590e+001dB,8.86894361053350e+001°)
2.38049167312553e+003	(-5.00476343181701e+001dB,8.86849943313188e+001°)
2.39883291901951e+003	(-4.99809852732816e+001dB,8.86804751256283e+001°)
2.41731548080412e+003	(-4.99143364182636e+001dB,8.86758782284571e+001°)
2.43594044729204e+003	(-4.98476877572340e+001dB,8.86712033462864e+001°)
2.45470891568505e+003	(-4.97810392945360e+001dB,8.86664502286219e+001°)
2.47362199163864e+003	(-4.97143910344028e+001dB,8.86616185898260e+001°)
2.49268078932720e+003	(-4.96477429811327e+001dB,8.86567081356828e+001°)
2.51188643150960e+003	(-4.95810951392098e+001dB,8.86517185952116e+001°)
2.53124004959538e+003	(-4.95144475129706e+001dB,8.86466496541901e+001°)
2.55074278371138e+003	(-4.94478001069457e+001dB,8.86415010377966e+001°)
2.57039578276888e+003	(-4.93811529256747e+001dB,8.86362724239197e+001°)
2.59020020453134e+003	(-4.93145059737319e+001dB,8.86309635190623e+001°)
2.61015721568256e+003	(-4.92478592557550e+001dB,8.86255740024215e+001°)
2.63026799189540e+003	(-4.91812127764331e+001dB,8.86201035643470e+001°)
2.65053371790110e+003	(-4.91145665405378e+001dB,8.86145518758059e+001°)
2.67095558755901e+003	(-4.90479205528497e+001dB,8.86089186084426e+001°)
2.69153480392694e+003	(-4.89812748183033e+001dB,8.86032034528727e+001°)
2.71227257933205e+003	(-4.89146293417612e+001dB,8.85974060469178e+001°)
2.73317013544226e+003	(-4.88479841282709e+001dB,8.85915260728178e+001°)
2.75422870333819e+003	(-4.87813391828264e+001dB,8.85855631618807e+001°)
2.77544952358573e+003	(-4.87146945105600e+001dB,8.85795169826747e+001°)
2.79683384630910e+003	(-4.86480501166597e+001dB,8.85733871735298e+001°)
2.81838293126448e+003	(-4.85814060063888e+001dB,8.85671733769693e+001°)
2.84009804791424e+003	(-4.85147621849937e+001dB,8.85608752163401e+001°)
2.86198047550173e+003	(-4.84481186578958e+001dB,8.85544923357845e+001°)
2.88403150312663e+003	(-4.83814754305629e+001dB,8.85480243523587e+001°)
2.90625242982089e+003	(-4.83148325084936e+001dB,8.85414708979971e+001°)
2.92864456462526e+003	(-4.82481898972433e+001dB,8.85348315724591e+001°)
2.95120922666641e+003	(-4.81815476024847e+001dB,8.85281059849536e+001°)
2.97394774523463e+003	(-4.81149056300005e+001dB,8.85212937549541e+001°)
2.99686145986215e+003	(-4.80482639856217e+001dB,8.85143944877598e+001°)
3.01995172040204e+003	(-4.79816226751449e+001dB,8.85074077508433e+001°)
3.04321988710775e+003	(-4.79149817046208e+001dB,8.85003331592818e+001°)
3.06666733071321e+003	(-4.78483410800603e+001dB,8.84931702863462e+001°)
3.09029543251362e+003	(-4.77817008075736e+001dB,8.84859187090678e+001°)
3.11410558444679e+003	(-4.77150608934031e+001dB,8.84785780093348e+001°)
3.13809918917516e+003	(-4.76484213438605e+001dB,8.84711477544152e+001°)
3.16227766016841e+003	(-4.75817821652964e+001dB,8.84636275025940e+001°)
3.18664242178676e+003	(-4.75151433641744e+001dB,8.84560168219408e+001°)
3.21119490936485e+003	(-4.74485049471153e+001dB,8.84483152566520e+001°)
3.23593656929631e+003	(-4.73818669207098e+001dB,8.84405223594929e+001°)
3.26086885911896e+003	(-4.73152292916848e+001dB,8.84326376642576e+001°)
3.28599324760069e+003	(-4.72485920668959e+001dB,8.84246607272425e+001°)
3.31131121482594e+003	(-4.71819552533022e+001dB,8.84165910647819e+001°)
3.33682425228297e+003	(-4.71153188579348e+001dB,8.84084282147429e+001°)
3.36253386295166e+003	(-4.70486828878032e+001dB,8.84001716800545e+001°)
3.38844156139206e+003	(-4.69820473502845e+001dB,8.83918209965087e+001°)
3.41454887383364e+003	(-4.69154122526219e+001dB,8.83833756661254e+001°)
3.44085733826517e+003	(-4.68487776022334e+001dB,8.83748351834978e+001°)
3.46736850452535e+003	(-4.67821434066765e+001dB,8.83661990628852e+001°)
3.49408393439410e+003	(-4.67155096736293e+001dB,8.83574667944670e+001°)
3.52100520168456e+003	(-4.66488764107781e+001dB,8.83486378602303e+001°)
3.54813389233579e+003	(-4.65822436260298e+001dB,8.83397117474068e+001°)
3.57547160450625e+003	(-4.65156113273130e+001dB,8.83306879304611e+001°)
3.60301994866789e+003	(-4.64489795227255e+001dB,8.83215658779362e+001°)
3.63078054770105e+003	(-4.63823482204496e+001dB,8.83123450523615e+001°)
3.65875503699007e+003	(-4.63157174288809e+001dB,8.83030249239594e+001°)
3.68694506451962e+003	(-4.62490871564074e+001dB,8.82936049452139e+001°)
3.71535229097177e+003	(-4.61824574116255e+001dB,8.82840845514655e+001°)
3.74397838982385e+003	(-4.61158282031164e+001dB,8.82744631883094e+001°)
3.77282504744704e+003	(-4.60491995398055e+001dB,8.82647403005502e+001°)
3.80189396320565e+003	(-4.59825714306066e+001dB,8.82549153106869e+001°)
3.83118684955733e+003	(-4.59159438845403e+001dB,8.82449876475429e+001°)
3.86070543215386e+003	(-4.58493169108812e+001dB,8.82349567233646e+001°)
3.89045144994285e+003	(-4.57826905188966e+001dB,8.82248219556760e+001°)
3.92042665527020e+003	(-4.57160647180936e+001dB,8.82145827433982e+001°)
3.95063281398328e+003	(-4.56494395180868e+001dB,8.82042384990739e+001°)
3.98107170553502e+003	(-4.55828149285923e+001dB,8.81937886030823e+001°)
4.01174512308867e+003	(-4.55161909596095e+001dB,8.81832324522444e+001°)
4.04265487362349e+003	(-4.54495676210984e+001dB,8.81725694270121e+001°)
4.07380277804117e+003	(-4.53829449231977e+001dB,8.81617988947940e+001°)
4.10519067127313e+003	(-4.53163228763275e+001dB,8.81509202306507e+001°)
4.13682040238856e+003	(-4.52497014909792e+001dB,8.81399327968197e+001°)
4.16869383470340e+003	(-4.51830807778054e+001dB,8.81288359555449e+001°)
4.20081284589012e+003	(-4.51164607475406e+001dB,8.81176290471217e+001°)
4.23317932808826e+003	(-4.50498414112353e+001dB,8.81063114235637e+001°)
4.26579518801598e+003	(-4.49832227799068e+001dB,8.80948824100541e+001°)
4.29866234708233e+003	(-4.49166048649935e+001dB,8.80833413528161e+001°)
4.33178274150047e+003	(-4.48499876778437e+001dB,8.80716875605880e+001°)
4.36515832240171e+003	(-4.47833712301566e+001dB,8.80599203639355e+001°)
4.39879105595049e+003	(-4.47167555337262e+001dB,8.80480390682506e+001°)
4.43268292346014e+003	(-4.46501406004579e+001dB,8.80360429747353e+001°)
4.46683592150969e+003	(-4.45835264426134e+001dB,8.80239313892474e+001°)
4.50125206206139e+003	(-4.45169130725399e+001dB,8.80117036026025e+001°)
4.53593337257933e+003	(-4.44503005026537e+001dB,8.79993588919385e+001°)
4.57088189614881e+003	(-4.43836887457833e+001dB,8.79868965391043e+001°)
4.60609969159672e+003	(-4.43170778147940e+001dB,8.79743158173714e+001°)
4.64158883361284e+003	(-4.42504677227430e+001dB,8.79616159862035e+001°)
4.67735141287204e+003	(-4.41838584829792e+001dB,8.79487962994029e+001°)
4.71338953615747e+003	(-4.41172501089898e+001dB,8.79358560158487e+001°)
4.74970532648462e+003	(-4.40506426144434e+001dB,8.79227943765399e+001°)
4.78630092322645e+003	(-4.39840360132907e+001dB,8.79096106115690e+001°)
4.82317848223937e+003	(-4.39174303196145e+001dB,8.78963039621860e+001°)
4.86034017599028e+003	(-4.38508255477915e+001dB,8.78828736399001e+001°)
4.89778819368453e+003	(-4.37842217122736e+001dB,8.78693188605619e+001°)
4.93552474139487e+003	(-4.37176188278413e+001dB,8.78556388324759e+001°)
4.97355204219146e+003	(-4.36510169095237e+001dB,8.78418327574952e+001°)
5.01187233627279e+003	(-4.35844159725343e+001dB,8.78278998306627e+001°)
5.05048788109766e+003	(-4.35178160323042e+001dB,8.78138392371282e+001°)
5.08940095151816e+003	(-4.34512171044658e+001dB,8.77996501491458e+001°)
5.12861383991372e+003	(-4.33846192049511e+001dB,8.77853317422098e+001°)
5.16812885632611e+003	(-4.33180223499484e+001dB,8.77708831826713e+001°)
5.20794832859554e+003	(-4.32514265558280e+001dB,8.77563036230987e+001°)
5.24807460249780e+003	(-4.31848318391996e+001dB,8.77415922139182e+001°)
5.28851004188245e+003	(-4.31182382170343e+001dB,8.77267480976464e+001°)
5.32925702881208e+003	(-4.30516457063966e+001dB,8.77117703993170e+001°)
5.37031796370260e+003	(-4.29850543247743e+001dB,8.76966582530103e+001°)
5.41169526546471e+003	(-4.29184640897867e+001dB,8.76814107736286e+001°)
5.45339137164635e+003	(-4.28518750194361e+001dB,8.76660270721327e+001°)
5.49540873857633e+003	(-4.27852871318967e+001dB,8.76505062488444e+001°)
5.53774984150898e+003	(-4.27187004456675e+001dB,8.76348473996756e+001°)
5.58041717477005e+003	(-4.26521149795435e+001dB,8.76190496122852e+001°)
5.62341325190357e+003	(-4.25855307525191e+001dB,8.76031119603090e+001°)
5.66674060582000e+003	(-4.25189477840335e+001dB,8.75870335174941e+001°)
5.71040178894535e+003	(-4.24523660937226e+001dB,8.75708133479779e+001°)
5.75439937337165e+003	(-4.23857857014248e+001dB,8.75544505034533e+001°)
5.79873595100840e+003	(-4.23192066275177e+001dB,8.75379440290663e+001°)
5.84341413373526e+003	(-4.22526288924777e+001dB,8.75212929693967e+001°)
5.88843655355598e+003	(-4.21860525171703e+001dB,8.75044963429794e+001°)
5.93380586275337e+003	(-4.21194775228105e+001dB,8.74875531766333e+001°)
5.97952473404561e+003	(-4.20529039309092e+001dB,8.74704624844749e+001°)
6.02559586074367e+003	(-4.19863317632721e+001dB,8.74532232709390e+001°)
6.07202195690998e+003	(-4.19197610420561e+001dB,8.74358345293309e+001°)
6.11880575751831e+003	(-4.18531917898241e+001dB,8.74182952505186e+001°)
6.16595001861492e+003	(-4.17866240293805e+001dB,8.74006044097871e+001°)
6.21345751748085e+003	(-4.17200577839386e+001dB,8.73827609787894e+001°)
6.26133105279562e+003	(-4.16534930770137e+001dB,8.73647639179063e+001°)
6.30957344480203e+003	(-4.15869299325214e+001dB,8.73466121816320e+001°)
6.35818753547233e+003	(-4.15203683747534e+001dB,8.73283047098514e+001°)
6.40717618867564e+003	(-4.14538084283430e+001dB,8.73098404393120e+001°)
6.45654229034666e+003	(-4.13872501183501e+001dB,8.72912183020170e+001°)
6.50628874865568e+003	(-4.13206934700971e+001dB,8.72724372085797e+001°)
6.55641849417989e+003	(-4.12541385094813e+001dB,8.72534960683246e+001°)
6.60693448007607e+003	(-4.11875852625405e+001dB,8.72343937800675e+001°)
6.65783968225447e+003	(-4.11210337559551e+001dB,8.72151292353508e+001°)
6.70913709955422e+003	(-4.10544840166931e+001dB,8.71957013111739e+001°)
6.76082975391993e+003	(-4.09879360721373e+001dB,8.71761088805866e+001°)
6.81292069057972e+003	(-4.09213899500945e+001dB,8.71563508071617e+001°)
6.86541297822466e+003	(-4.08548456788580e+001dB,8.71364259425201e+001°)
6.91830970918948e+003	(-4.07883032870323e+001dB,8.71163331280446e+001°)
6.97161399963479e+003	(-4.07217628037484e+001dB,8.70960711988941e+001°)
7.02532898973064e+003	(-4.06552242586071e+001dB,8.70756389805497e+001°)
7.07945784384150e+003	(-4.05886876815289e+001dB,8.70550352850926e+001°)
7.13400375071268e+003	(-4.05221531030121e+001dB,8.70342589180271e+001°)
7.18896992365819e+003	(-4.04556205539957e+001dB,8.70133086774303e+001°)
7.24435960075002e+003	(-4.03890900658758e+001dB,8.69921833427264e+001°)
7.30017604500890e+003	(-4.03225616705631e+001dB,8.69708816946725e+001°)
7.35642254459654e+003	(-4.02560354003329e+001dB,8.69494024956201e+001°)
7.41310241300930e+003	(-4.01895112881545e+001dB,8.69277445004541e+001°)
7.47021898927344e+003	(-4.01229893672640e+001dB,8.69059064560143e+001°)
7.52777563814179e+003	(-4.00564696716318e+001dB,8.68838870987193e+001°)
7.58577575029197e+003	(-3.99899522355770e+001dB,8.68616851506763e+001°)
7.64422274252613e+003	(-3.99234370940723e+001dB,8.68392993297961e+001°)
7.70312005797228e+003	(-3.98569242825889e+001dB,8.68167283422636e+001°)
7.76247116628705e+003	(-3.97904138370053e+001dB,8.67939708756482e+001°)
7.82227956386016e+003	(-3.97239057938429e+001dB,8.67710256171581e+001°)
7.88254877402035e+003	(-3.96574001903265e+001dB,8.67478912420532e+001°)
7.94328234724295e+003	(-3.95908970640256e+001dB,8.67245664113767e+001°)
8.00448386135906e+003	(-3.95243964532028e+001dB,8.67010497796342e+001°)
8.06615692176628e+003	(-3.94578983966210e+001dB,8.66773399810254e+001°)
8.12830516164114e+003	(-3.93914029337674e+001dB,8.66534356533940e+001°)
8.19093224215312e+003	(-3.93249101045745e+001dB,8.66293354144312e+001°)
8.25404185268033e+003	(-3.92584199497691e+001dB,8.66050378750710e+001°)
8.31763771102686e+003	(-3.91919325104487e+001dB,8.65805416260322e+001°)
