Freq.	V(vout)
1.00000000000000e+003	(5.11244553026831e+001dB,1.79512167204388e+002°)
1.00770481413610e+003	(5.11244523271284e+001dB,1.79508408623517e+002°)
1.01546899243308e+003	(5.11244493055464e+001dB,1.79504621085347e+002°)
1.02329299228075e+003	(5.11244462372260e+001dB,1.79500804366809e+002°)
1.03117727459306e+003	(5.11244431214431e+001dB,1.79496958243118e+002°)
1.03912230383517e+003	(5.11244399574646e+001dB,1.79493082487761e+002°)
1.04712854805090e+003	(5.11244367445444e+001dB,1.79489176872475e+002°)
1.05519647889024e+003	(5.11244334819256e+001dB,1.79485241167244e+002°)
1.06332657163716e+003	(5.11244301688395e+001dB,1.79481275140279e+002°)
1.07151930523761e+003	(5.11244268045058e+001dB,1.79477278558007e+002°)
1.07977516232771e+003	(5.11244233881315e+001dB,1.79473251185056e+002°)
1.08809462926223e+003	(5.11244199189114e+001dB,1.79469192784242e+002°)
1.09647819614319e+003	(5.11244163960289e+001dB,1.79465103116553e+002°)
1.10492635684876e+003	(5.11244128186532e+001dB,1.79460981941140e+002°)
1.11343960906236e+003	(5.11244091859419e+001dB,1.79456829015298e+002°)
1.12201845430197e+003	(5.11244054970386e+001dB,1.79452644094452e+002°)
1.13066339794964e+003	(5.11244017510746e+001dB,1.79448426932146e+002°)
1.13937494928134e+003	(5.11243979471673e+001dB,1.79444177280025e+002°)
1.14815362149688e+003	(5.11243940844202e+001dB,1.79439894887822e+002°)
1.15699993175021e+003	(5.11243901619234e+001dB,1.79435579503345e+002°)
1.16591440117983e+003	(5.11243861787527e+001dB,1.79431230872458e+002°)
1.17489755493953e+003	(5.11243821339696e+001dB,1.79426848739070e+002°)
1.18394992222930e+003	(5.11243780266210e+001dB,1.79422432845117e+002°)
1.19307203632654e+003	(5.11243738557394e+001dB,1.79417982930549e+002°)
1.20226443461742e+003	(5.11243696203420e+001dB,1.79413498733315e+002°)
1.21152765862859e+003	(5.11243653194310e+001dB,1.79408979989345e+002°)
1.22086225405907e+003	(5.11243609519929e+001dB,1.79404426432537e+002°)
1.23026877081238e+003	(5.11243565169993e+001dB,1.79399837794739e+002°)
1.23974776302895e+003	(5.11243520134042e+001dB,1.79395213805737e+002°)
1.24929978911874e+003	(5.11243474401475e+001dB,1.79390554193235e+002°)
1.25892541179417e+003	(5.11243427961511e+001dB,1.79385858682842e+002°)
1.26862519810326e+003	(5.11243380803218e+001dB,1.79381126998054e+002°)
1.27839971946303e+003	(5.11243332915473e+001dB,1.79376358860239e+002°)
1.28824955169314e+003	(5.11243284287003e+001dB,1.79371553988620e+002°)
1.29817527504985e+003	(5.11243234906345e+001dB,1.79366712100258e+002°)
1.30817747426020e+003	(5.11243184761868e+001dB,1.79361832910037e+002°)
1.31825673855641e+003	(5.11243133841761e+001dB,1.79356916130647e+002°)
1.32841366171065e+003	(5.11243082134023e+001dB,1.79351961472564e+002°)
1.33864884207000e+003	(5.11243029626472e+001dB,1.79346968644038e+002°)
1.34896288259166e+003	(5.11242976306737e+001dB,1.79341937351072e+002°)
1.35935639087853e+003	(5.11242922162260e+001dB,1.79336867297407e+002°)
1.36982997921497e+003	(5.11242867180281e+001dB,1.79331758184504e+002°)
1.38038426460289e+003	(5.11242811347847e+001dB,1.79326609711524e+002°)
1.39101986879806e+003	(5.11242754651810e+001dB,1.79321421575314e+002°)
1.40173741834677e+003	(5.11242697078804e+001dB,1.79316193470390e+002°)
1.41253754462276e+003	(5.11242638615271e+001dB,1.79310925088913e+002°)
1.42342088386435e+003	(5.11242579247435e+001dB,1.79305616120677e+002°)
1.43438807721197e+003	(5.11242518961309e+001dB,1.79300266253089e+002°)
1.44543977074593e+003	(5.11242457742696e+001dB,1.79294875171149e+002°)
1.45657661552446e+003	(5.11242395577166e+001dB,1.79289442557434e+002°)
1.46779926762207e+003	(5.11242332450080e+001dB,1.79283968092077e+002°)
1.47910838816821e+003	(5.11242268346558e+001dB,1.79278451452751e+002°)
1.49050464338620e+003	(5.11242203251505e+001dB,1.79272892314646e+002°)
1.50198870463249e+003	(5.11242137149583e+001dB,1.79267290350457e+002°)
1.51356124843621e+003	(5.11242070025221e+001dB,1.79261645230356e+002°)
1.52522295653902e+003	(5.11242001862607e+001dB,1.79255956621978e+002°)
1.53697451593528e+003	(5.11241932645679e+001dB,1.79250224190403e+002°)
1.54881661891249e+003	(5.11241862358133e+001dB,1.79244447598131e+002°)
1.56074996309212e+003	(5.11241790983410e+001dB,1.79238626505067e+002°)
1.57277525147067e+003	(5.11241718504693e+001dB,1.79232760568497e+002°)
1.58489319246112e+003	(5.11241644904916e+001dB,1.79226849443074e+002°)
1.59710449993461e+003	(5.11241570166736e+001dB,1.79220892780789e+002°)
1.60940989326254e+003	(5.11241494272542e+001dB,1.79214890230961e+002°)
1.62181009735894e+003	(5.11241417204460e+001dB,1.79208841440205e+002°)
1.63430584272314e+003	(5.11241338944332e+001dB,1.79202746052422e+002°)
1.64689786548288e+003	(5.11241259473726e+001dB,1.79196603708772e+002°)
1.65958690743757e+003	(5.11241178773920e+001dB,1.79190414047654e+002°)
1.67237371610209e+003	(5.11241096825901e+001dB,1.79184176704685e+002°)
1.68525904475076e+003	(5.11241013610365e+001dB,1.79177891312680e+002°)
1.69824365246175e+003	(5.11240929107712e+001dB,1.79171557501628e+002°)
1.71132830416179e+003	(5.11240843298032e+001dB,1.79165174898673e+002°)
1.72451377067121e+003	(5.11240756161112e+001dB,1.79158743128091e+002°)
1.73780082874938e+003	(5.11240667676428e+001dB,1.79152261811267e+002°)
1.75119026114047e+003	(5.11240577823137e+001dB,1.79145730566674e+002°)
1.76468285661951e+003	(5.11240486580070e+001dB,1.79139149009851e+002°)
1.77827941003893e+003	(5.11240393925734e+001dB,1.79132516753380e+002°)
1.79198072237534e+003	(5.11240299838305e+001dB,1.79125833406863e+002°)
1.80578760077673e+003	(5.11240204295617e+001dB,1.79119098576900e+002°)
1.81970085860999e+003	(5.11240107275170e+001dB,1.79112311867064e+002°)
1.83372131550889e+003	(5.11240008754107e+001dB,1.79105472877881e+002°)
1.84784979742230e+003	(5.11239908709217e+001dB,1.79098581206804e+002°)
1.86208713666288e+003	(5.11239807116939e+001dB,1.79091636448191e+002°)
1.87643417195610e+003	(5.11239703953343e+001dB,1.79084638193281e+002°)
1.89089174848965e+003	(5.11239599194126e+001dB,1.79077586030168e+002°)
1.90546071796326e+003	(5.11239492814615e+001dB,1.79070479543781e+002°)
1.92014193863881e+003	(5.11239384789751e+001dB,1.79063318315855e+002°)
1.93493627539096e+003	(5.11239275094089e+001dB,1.79056101924913e+002°)
1.94984459975806e+003	(5.11239163701795e+001dB,1.79048829946232e+002°)
1.96486778999348e+003	(5.11239050586622e+001dB,1.79041501951829e+002°)
1.98000673111740e+003	(5.11238935721938e+001dB,1.79034117510427e+002°)
1.99526231496889e+003	(5.11238819080679e+001dB,1.79026676187434e+002°)
2.01063544025850e+003	(5.11238700635376e+001dB,1.79019177544919e+002°)
2.02612701262116e+003	(5.11238580358130e+001dB,1.79011621141583e+002°)
2.04173794466954e+003	(5.11238458220615e+001dB,1.79004006532733e+002°)
2.05746915604785e+003	(5.11238334194058e+001dB,1.78996333270262e+002°)
2.07332157348597e+003	(5.11238208249248e+001dB,1.78988600902615e+002°)
2.08929613085405e+003	(5.11238080356523e+001dB,1.78980808974767e+002°)
2.10539376921757e+003	(5.11237950485765e+001dB,1.78972957028198e+002°)
2.12161543689270e+003	(5.11237818606375e+001dB,1.78965044600860e+002°)
2.13796208950225e+003	(5.11237684687305e+001dB,1.78957071227159e+002°)
2.15443469003190e+003	(5.11237548697004e+001dB,1.78949036437918e+002°)
2.17103420888697e+003	(5.11237410603451e+001dB,1.78940939760358e+002°)
2.18776162394957e+003	(5.11237270374119e+001dB,1.78932780718065e+002°)
2.20461792063620e+003	(5.11237127975981e+001dB,1.78924558830965e+002°)
2.22160409195583e+003	(5.11236983375503e+001dB,1.78916273615295e+002°)
2.23872113856835e+003	(5.11236836538629e+001dB,1.78907924583576e+002°)
2.25597006884359e+003	(5.11236687430776e+001dB,1.78899511244582e+002°)
2.27335189892065e+003	(5.11236536016828e+001dB,1.78891033103315e+002°)
2.29086765276779e+003	(5.11236382261127e+001dB,1.78882489660972e+002°)
2.30851836224278e+003	(5.11236226127464e+001dB,1.78873880414920e+002°)
2.32630506715364e+003	(5.11236067579071e+001dB,1.78865204858664e+002°)
2.34422881531994e+003	(5.11235906578607e+001dB,1.78856462481819e+002°)
2.36229066263448e+003	(5.11235743088153e+001dB,1.78847652770078e+002°)
2.38049167312553e+003	(5.11235577069217e+001dB,1.78838775205187e+002°)
2.39883291901951e+003	(5.11235408482697e+001dB,1.78829829264909e+002°)
2.41731548080412e+003	(5.11235237288894e+001dB,1.78820814422998e+002°)
2.43594044729204e+003	(5.11235063447493e+001dB,1.78811730149165e+002°)
2.45470891568505e+003	(5.11234886917561e+001dB,1.78802575909050e+002°)
2.47362199163864e+003	(5.11234707657523e+001dB,1.78793351164189e+002°)
2.49268078932720e+003	(5.11234525625173e+001dB,1.78784055371986e+002°)
2.51188643150960e+003	(5.11234340777640e+001dB,1.78774687985675e+002°)
2.53124004959538e+003	(5.11234153071400e+001dB,1.78765248454296e+002°)
2.55074278371138e+003	(5.11233962462253e+001dB,1.78755736222656e+002°)
2.57039578276888e+003	(5.11233768905319e+001dB,1.78746150731304e+002°)
2.59020020453134e+003	(5.11233572355018e+001dB,1.78736491416489e+002°)
2.61015721568256e+003	(5.11233372765072e+001dB,1.78726757710139e+002°)
2.63026799189540e+003	(5.11233170088487e+001dB,1.78716949039818e+002°)
2.65053371790110e+003	(5.11232964277532e+001dB,1.78707064828696e+002°)
2.67095558755901e+003	(5.11232755283760e+001dB,1.78697104495520e+002°)
2.69153480392694e+003	(5.11232543057955e+001dB,1.78687067454573e+002°)
2.71227257933205e+003	(5.11232327550154e+001dB,1.78676953115646e+002°)
2.73317013544226e+003	(5.11232108709609e+001dB,1.78666760883999e+002°)
2.75422870333819e+003	(5.11231886484803e+001dB,1.78656490160331e+002°)
2.77544952358573e+003	(5.11231660823409e+001dB,1.78646140340742e+002°)
2.79683384630910e+003	(5.11231431672304e+001dB,1.78635710816699e+002°)
2.81838293126448e+003	(5.11231198977534e+001dB,1.78625200975003e+002°)
2.84009804791424e+003	(5.11230962684316e+001dB,1.78614610197750e+002°)
2.86198047550173e+003	(5.11230722737021e+001dB,1.78603937862296e+002°)
2.88403150312663e+003	(5.11230479079160e+001dB,1.78593183341223e+002°)
2.90625242982089e+003	(5.11230231653369e+001dB,1.78582346002302e+002°)
2.92864456462526e+003	(5.11229980401405e+001dB,1.78571425208455e+002°)
2.95120922666641e+003	(5.11229725264112e+001dB,1.78560420317719e+002°)
2.97394774523463e+003	(5.11229466181433e+001dB,1.78549330683209e+002°)
2.99686145986215e+003	(5.11229203092379e+001dB,1.78538155653081e+002°)
3.01995172040204e+003	(5.11228935935016e+001dB,1.78526894570495e+002°)
3.04321988710775e+003	(5.11228664646454e+001dB,1.78515546773575e+002°)
3.06666733071321e+003	(5.11228389162837e+001dB,1.78504111595372e+002°)
3.09029543251362e+003	(5.11228109419316e+001dB,1.78492588363826e+002°)
3.11410558444679e+003	(5.11227825350043e+001dB,1.78480976401726e+002°)
3.13809918917516e+003	(5.11227536888154e+001dB,1.78469275026672e+002°)
3.16227766016841e+003	(5.11227243965749e+001dB,1.78457483551036e+002°)
3.18664242178676e+003	(5.11226946513885e+001dB,1.78445601281922e+002°)
3.21119490936485e+003	(5.11226644462546e+001dB,1.78433627521124e+002°)
3.23593656929631e+003	(5.11226337740641e+001dB,1.78421561565089e+002°)
3.26086885911896e+003	(5.11226026275983e+001dB,1.78409402704876e+002°)
3.28599324760069e+003	(5.11225709995258e+001dB,1.78397150226113e+002°)
3.31131121482594e+003	(5.11225388824036e+001dB,1.78384803408958e+002°)
3.33682425228297e+003	(5.11225062686723e+001dB,1.78372361528057e+002°)
3.36253386295166e+003	(5.11224731506568e+001dB,1.78359823852502e+002°)
3.38844156139206e+003	(5.11224395205631e+001dB,1.78347189645789e+002°)
3.41454887383364e+003	(5.11224053704769e+001dB,1.78334458165778e+002°)
3.44085733826517e+003	(5.11223706923616e+001dB,1.78321628664647e+002°)
3.46736850452535e+003	(5.11223354780563e+001dB,1.78308700388849e+002°)
3.49408393439410e+003	(5.11222997192748e+001dB,1.78295672579074e+002°)
3.52100520168456e+003	(5.11222634076021e+001dB,1.78282544470199e+002°)
3.54813389233579e+003	(5.11222265344936e+001dB,1.78269315291248e+002°)
3.57547160450625e+003	(5.11221890912732e+001dB,1.78255984265347e+002°)
3.60301994866789e+003	(5.11221510691304e+001dB,1.78242550609679e+002°)
3.63078054770105e+003	(5.11221124591185e+001dB,1.78229013535441e+002°)
3.65875503699007e+003	(5.11220732521535e+001dB,1.78215372247795e+002°)
3.68694506451962e+003	(5.11220334390102e+001dB,1.78201625945827e+002°)
3.71535229097177e+003	(5.11219930103215e+001dB,1.78187773822500e+002°)
3.74397838982385e+003	(5.11219519565757e+001dB,1.78173815064604e+002°)
3.77282504744704e+003	(5.11219102681141e+001dB,1.78159748852716e+002°)
3.80189396320565e+003	(5.11218679351291e+001dB,1.78145574361150e+002°)
3.83118684955733e+003	(5.11218249476615e+001dB,1.78131290757907e+002°)
3.86070543215386e+003	(5.11217812955987e+001dB,1.78116897204635e+002°)
3.89045144994285e+003	(5.11217369686721e+001dB,1.78102392856573e+002°)
3.92042665527020e+003	(5.11216919564535e+001dB,1.78087776862509e+002°)
3.95063281398328e+003	(5.11216462483554e+001dB,1.78073048364729e+002°)
3.98107170553502e+003	(5.11215998336258e+001dB,1.78058206498967e+002°)
4.01174512308867e+003	(5.11215527013475e+001dB,1.78043250394359e+002°)
4.04265487362349e+003	(5.11215048404338e+001dB,1.78028179173393e+002°)
4.07380277804117e+003	(5.11214562396283e+001dB,1.78012991951855e+002°)
4.10519067127313e+003	(5.11214068875000e+001dB,1.77997687838784e+002°)
4.13682040238856e+003	(5.11213567724413e+001dB,1.77982265936421e+002°)
4.16869383470340e+003	(5.11213058826665e+001dB,1.77966725340153e+002°)
4.20081284589012e+003	(5.11212542062069e+001dB,1.77951065138468e+002°)
4.23317932808826e+003	(5.11212017309105e+001dB,1.77935284412900e+002°)
4.26579518801598e+003	(5.11211484444364e+001dB,1.77919382237977e+002°)
4.29866234708233e+003	(5.11210943342545e+001dB,1.77903357681171e+002°)
4.33178274150047e+003	(5.11210393876408e+001dB,1.77887209802843e+002°)
4.36515832240171e+003	(5.11209835916749e+001dB,1.77870937656191e+002°)
4.39879105595049e+003	(5.11209269332381e+001dB,1.77854540287196e+002°)
4.43268292346014e+003	(5.11208693990079e+001dB,1.77838016734569e+002°)
4.46683592150969e+003	(5.11208109754575e+001dB,1.77821366029697e+002°)
4.50125206206139e+003	(5.11207516488509e+001dB,1.77804587196586e+002°)
4.53593337257933e+003	(5.11206914052406e+001dB,1.77787679251810e+002°)
4.57088189614881e+003	(5.11206302304639e+001dB,1.77770641204452e+002°)
4.60609969159672e+003	(5.11205681101394e+001dB,1.77753472056051e+002°)
4.64158883361284e+003	(5.11205050296645e+001dB,1.77736170800546e+002°)
4.67735141287204e+003	(5.11204409742112e+001dB,1.77718736424217e+002°)
4.71338953615747e+003	(5.11203759287226e+001dB,1.77701167905630e+002°)
4.74970532648462e+003	(5.11203098779106e+001dB,1.77683464215580e+002°)
4.78630092322645e+003	(5.11202428062500e+001dB,1.77665624317032e+002°)
4.82317848223937e+003	(5.11201746979776e+001dB,1.77647647165065e+002°)
4.86034017599028e+003	(5.11201055370865e+001dB,1.77629531706813e+002°)
4.89778819368453e+003	(5.11200353073232e+001dB,1.77611276881405e+002°)
4.93552474139487e+003	(5.11199639921840e+001dB,1.77592881619906e+002°)
4.97355204219146e+003	(5.11198915749104e+001dB,1.77574344845259e+002°)
5.01187233627279e+003	(5.11198180384859e+001dB,1.77555665472225e+002°)
5.05048788109766e+003	(5.11197433656317e+001dB,1.77536842407321e+002°)
5.08940095151816e+003	(5.11196675388026e+001dB,1.77517874548759e+002°)
5.12861383991372e+003	(5.11195905401842e+001dB,1.77498760786386e+002°)
5.16812885632611e+003	(5.11195123516855e+001dB,1.77479500001625e+002°)
5.20794832859554e+003	(5.11194329549382e+001dB,1.77460091067407e+002°)
5.24807460249780e+003	(5.11193523312913e+001dB,1.77440532848113e+002°)
5.28851004188245e+003	(5.11192704618057e+001dB,1.77420824199511e+002°)
5.32925702881208e+003	(5.11191873272510e+001dB,1.77400963968691e+002°)
5.37031796370260e+003	(5.11191029081004e+001dB,1.77380950994001e+002°)
5.41169526546471e+003	(5.11190171845264e+001dB,1.77360784104988e+002°)
5.45339137164635e+003	(5.11189301363964e+001dB,1.77340462122325e+002°)
5.49540873857633e+003	(5.11188417432674e+001dB,1.77319983857754e+002°)
5.53774984150898e+003	(5.11187519843819e+001dB,1.77299348114017e+002°)
5.58041717477005e+003	(5.11186608386628e+001dB,1.77278553684790e+002°)
5.62341325190357e+003	(5.11185682847085e+001dB,1.77257599354618e+002°)
5.66674060582000e+003	(5.11184743007876e+001dB,1.77236483898848e+002°)
5.71040178894535e+003	(5.11183788648344e+001dB,1.77215206083563e+002°)
5.75439937337165e+003	(5.11182819544443e+001dB,1.77193764665513e+002°)
5.79873595100840e+003	(5.11181835468662e+001dB,1.77172158392047e+002°)
5.84341413373526e+003	(5.11180836190004e+001dB,1.77150386001046e+002°)
5.88843655355598e+003	(5.11179821473912e+001dB,1.77128446220855e+002°)
5.93380586275337e+003	(5.11178791082217e+001dB,1.77106337770212e+002°)
5.97952473404561e+003	(5.11177744773091e+001dB,1.77084059358178e+002°)
6.02559586074367e+003	(5.11176682300978e+001dB,1.77061609684069e+002°)
6.07202195690998e+003	(5.11175603416555e+001dB,1.77038987437385e+002°)
6.11880575751831e+003	(5.11174507866656e+001dB,1.77016191297739e+002°)
6.16595001861492e+003	(5.11173395394221e+001dB,1.76993219934783e+002°)
6.21345751748085e+003	(5.11172265738237e+001dB,1.76970072008142e+002°)
6.26133105279562e+003	(5.11171118633685e+001dB,1.76946746167336e+002°)
6.30957344480203e+003	(5.11169953811458e+001dB,1.76923241051712e+002°)
6.35818753547233e+003	(5.11168770998323e+001dB,1.76899555290367e+002°)
6.40717618867564e+003	(5.11167569916840e+001dB,1.76875687502076e+002°)
6.45654229034666e+003	(5.11166350285303e+001dB,1.76851636295221e+002°)
6.50628874865568e+003	(5.11165111817683e+001dB,1.76827400267712e+002°)
6.55641849417989e+003	(5.11163854223549e+001dB,1.76802978006913e+002°)
6.60693448007607e+003	(5.11162577208005e+001dB,1.76778368089570e+002°)
6.65783968225447e+003	(5.11161280471627e+001dB,1.76753569081732e+002°)
6.70913709955422e+003	(5.11159963710400e+001dB,1.76728579538677e+002°)
6.76082975391993e+003	(5.11158626615615e+001dB,1.76703398004833e+002°)
6.81292069057972e+003	(5.11157268873841e+001dB,1.76678023013703e+002°)
6.86541297822466e+003	(5.11155890166828e+001dB,1.76652453087786e+002°)
6.91830970918948e+003	(5.11154490171435e+001dB,1.76626686738502e+002°)
6.97161399963479e+003	(5.11153068559558e+001dB,1.76600722466109e+002°)
7.02532898973064e+003	(5.11151624998061e+001dB,1.76574558759628e+002°)
7.07945784384150e+003	(5.11150159148688e+001dB,1.76548194096763e+002°)
7.13400375071268e+003	(5.11148670667992e+001dB,1.76521626943818e+002°)
7.18896992365819e+003	(5.11147159207255e+001dB,1.76494855755624e+002°)
7.24435960075002e+003	(5.11145624412408e+001dB,1.76467878975449e+002°)
7.30017604500890e+003	(5.11144065923948e+001dB,1.76440695034927e+002°)
7.35642254459654e+003	(5.11142483376853e+001dB,1.76413302353966e+002°)
7.41310241300930e+003	(5.11140876400504e+001dB,1.76385699340677e+002°)
7.47021898927344e+003	(5.11139244618600e+001dB,1.76357884391283e+002°)
7.52777563814179e+003	(5.11137587649059e+001dB,1.76329855890040e+002°)
7.58577575029197e+003	(5.11135905103951e+001dB,1.76301612209153e+002°)
7.64422274252613e+003	(5.11134196589388e+001dB,1.76273151708695e+002°)
7.70312005797228e+003	(5.11132461705450e+001dB,1.76244472736517e+002°)
7.76247116628705e+003	(5.11130700046081e+001dB,1.76215573628168e+002°)
7.82227956386016e+003	(5.11128911199008e+001dB,1.76186452706812e+002°)
7.88254877402035e+003	(5.11127094745629e+001dB,1.76157108283135e+002°)
7.94328234724295e+003	(5.11125250260941e+001dB,1.76127538655268e+002°)
8.00448386135906e+003	(5.11123377313420e+001dB,1.76097742108694e+002°)
8.06615692176628e+003	(5.11121475464938e+001dB,1.76067716916165e+002°)
8.12830516164114e+003	(5.11119544270653e+001dB,1.76037461337613e+002°)
8.19093224215312e+003	(5.11117583278913e+001dB,1.76006973620066e+002°)
8.25404185268033e+003	(5.11115592031147e+001dB,1.75976251997555e+002°)
8.31763771102686e+003	(5.11113570061772e+001dB,1.75945294691028e+002°)
8.38172356364177e+003	(5.11111516898066e+001dB,1.75914099908264e+002°)
8.44630318583984e+003	(5.11109432060085e+001dB,1.75882665843780e+002°)
8.51138038202392e+003	(5.11107315060533e+001dB,1.75850990678741e+002°)
8.57695898590910e+003	(5.11105165404667e+001dB,1.75819072580875e+002°)
