Freq.	V(vout)
1.00000000000000e+003	(5.08797689601705e+001dB,1.79512757482436e+002°)
1.00770481413610e+003	(5.08797659892010e+001dB,1.79509003449200e+002°)
1.01546899243308e+003	(5.08797629722760e+001dB,1.79505220493695e+002°)
1.02329299228075e+003	(5.08797599086837e+001dB,1.79501408393122e+002°)
1.03117727459306e+003	(5.08797567977027e+001dB,1.79497566922970e+002°)
1.03912230383517e+003	(5.08797536386000e+001dB,1.79493695856996e+002°)
1.04712854805090e+003	(5.08797504306312e+001dB,1.79489794967215e+002°)
1.05519647889024e+003	(5.08797471730403e+001dB,1.79485864023890e+002°)
1.06332657163716e+003	(5.08797438650601e+001dB,1.79481902795511e+002°)
1.07151930523761e+003	(5.08797405059109e+001dB,1.79477911048788e+002°)
1.07977516232771e+003	(5.08797370948013e+001dB,1.79473888548632e+002°)
1.08809462926223e+003	(5.08797336309279e+001dB,1.79469835058147e+002°)
1.09647819614319e+003	(5.08797301134737e+001dB,1.79465750338612e+002°)
1.10492635684876e+003	(5.08797265416110e+001dB,1.79461634149466e+002°)
1.11343960906236e+003	(5.08797229144978e+001dB,1.79457486248298e+002°)
1.12201845430197e+003	(5.08797192312797e+001dB,1.79453306390830e+002°)
1.13066339794964e+003	(5.08797154910883e+001dB,1.79449094330903e+002°)
1.13937494928134e+003	(5.08797116930428e+001dB,1.79444849820462e+002°)
1.14815362149688e+003	(5.08797078362483e+001dB,1.79440572609544e+002°)
1.15699993175021e+003	(5.08797039197962e+001dB,1.79436262446260e+002°)
1.16591440117983e+003	(5.08796999427636e+001dB,1.79431919076782e+002°)
1.17489755493953e+003	(5.08796959042137e+001dB,1.79427542245328e+002°)
1.18394992222930e+003	(5.08796918031946e+001dB,1.79423131694148e+002°)
1.19307203632654e+003	(5.08796876387405e+001dB,1.79418687163505e+002°)
1.20226443461742e+003	(5.08796834098694e+001dB,1.79414208391663e+002°)
1.21152765862859e+003	(5.08796791155863e+001dB,1.79409695114874e+002°)
1.22086225405907e+003	(5.08796747548785e+001dB,1.79405147067356e+002°)
1.23026877081238e+003	(5.08796703267188e+001dB,1.79400563981283e+002°)
1.23974776302895e+003	(5.08796658300639e+001dB,1.79395945586765e+002°)
1.24929978911874e+003	(5.08796612638541e+001dB,1.79391291611837e+002°)
1.25892541179417e+003	(5.08796566270144e+001dB,1.79386601782439e+002°)
1.26862519810326e+003	(5.08796519184517e+001dB,1.79381875822401e+002°)
1.27839971946303e+003	(5.08796471370568e+001dB,1.79377113453427e+002°)
1.28824955169314e+003	(5.08796422817029e+001dB,1.79372314395081e+002°)
1.29817527504985e+003	(5.08796373512467e+001dB,1.79367478364766e+002°)
1.30817747426020e+003	(5.08796323445263e+001dB,1.79362605077710e+002°)
1.31825673855641e+003	(5.08796272603617e+001dB,1.79357694246948e+002°)
1.32841366171065e+003	(5.08796220975557e+001dB,1.79352745583310e+002°)
1.33864884207000e+003	(5.08796168548917e+001dB,1.79347758795396e+002°)
1.34896288259166e+003	(5.08796115311346e+001dB,1.79342733589565e+002°)
1.35935639087853e+003	(5.08796061250301e+001dB,1.79337669669915e+002°)
1.36982997921497e+003	(5.08796006353044e+001dB,1.79332566738268e+002°)
1.38038426460289e+003	(5.08795950606645e+001dB,1.79327424494150e+002°)
1.39101986879806e+003	(5.08795893997967e+001dB,1.79322242634774e+002°)
1.40173741834677e+003	(5.08795836513678e+001dB,1.79317020855024e+002°)
1.41253754462276e+003	(5.08795778140230e+001dB,1.79311758847433e+002°)
1.42342088386435e+003	(5.08795718863872e+001dB,1.79306456302171e+002°)
1.43438807721197e+003	(5.08795658670640e+001dB,1.79301112907022e+002°)
1.44543977074593e+003	(5.08795597546357e+001dB,1.79295728347366e+002°)
1.45657661552446e+003	(5.08795535476615e+001dB,1.79290302306164e+002°)
1.46779926762207e+003	(5.08795472446797e+001dB,1.79284834463936e+002°)
1.47910838816821e+003	(5.08795408442052e+001dB,1.79279324498744e+002°)
1.49050464338620e+003	(5.08795343447300e+001dB,1.79273772086170e+002°)
1.50198870463249e+003	(5.08795277447231e+001dB,1.79268176899305e+002°)
1.51356124843621e+003	(5.08795210426297e+001dB,1.79262538608719e+002°)
1.52522295653902e+003	(5.08795142368707e+001dB,1.79256856882449e+002°)
1.53697451593528e+003	(5.08795073258430e+001dB,1.79251131385978e+002°)
1.54881661891249e+003	(5.08795003079184e+001dB,1.79245361782216e+002°)
1.56074996309212e+003	(5.08794931814435e+001dB,1.79239547731478e+002°)
1.57277525147067e+003	(5.08794859447397e+001dB,1.79233688891464e+002°)
1.58489319246112e+003	(5.08794785961019e+001dB,1.79227784917242e+002°)
1.59710449993461e+003	(5.08794711337990e+001dB,1.79221835461227e+002°)
1.60940989326254e+003	(5.08794635560734e+001dB,1.79215840173159e+002°)
1.62181009735894e+003	(5.08794558611393e+001dB,1.79209798700081e+002°)
1.63430584272314e+003	(5.08794480471848e+001dB,1.79203710686323e+002°)
1.64689786548288e+003	(5.08794401123686e+001dB,1.79197575773479e+002°)
1.65958690743757e+003	(5.08794320548214e+001dB,1.79191393600385e+002°)
1.67237371610209e+003	(5.08794238726456e+001dB,1.79185163803097e+002°)
1.68525904475076e+003	(5.08794155639134e+001dB,1.79178886014874e+002°)
1.69824365246175e+003	(5.08794071266673e+001dB,1.79172559866152e+002°)
1.71132830416179e+003	(5.08793985589200e+001dB,1.79166184984525e+002°)
1.72451377067121e+003	(5.08793898586533e+001dB,1.79159760994723e+002°)
1.73780082874938e+003	(5.08793810238177e+001dB,1.79153287518588e+002°)
1.75119026114047e+003	(5.08793720523321e+001dB,1.79146764175053e+002°)
1.76468285661951e+003	(5.08793629420829e+001dB,1.79140190580122e+002°)
1.77827941003893e+003	(5.08793536909239e+001dB,1.79133566346844e+002°)
1.79198072237534e+003	(5.08793442966766e+001dB,1.79126891085293e+002°)
1.80578760077673e+003	(5.08793347571277e+001dB,1.79120164402543e+002°)
1.81970085860999e+003	(5.08793250700300e+001dB,1.79113385902647e+002°)
1.83372131550889e+003	(5.08793152331019e+001dB,1.79106555186612e+002°)
1.84784979742230e+003	(5.08793052440261e+001dB,1.79099671852378e+002°)
1.86208713666288e+003	(5.08792951004495e+001dB,1.79092735494791e+002°)
1.87643417195610e+003	(5.08792847999829e+001dB,1.79085745705584e+002°)
1.89089174848965e+003	(5.08792743402003e+001dB,1.79078702073349e+002°)
1.90546071796326e+003	(5.08792637186375e+001dB,1.79071604183515e+002°)
1.92014193863881e+003	(5.08792529327928e+001dB,1.79064451618322e+002°)
1.93493627539096e+003	(5.08792419801258e+001dB,1.79057243956801e+002°)
1.94984459975806e+003	(5.08792308580566e+001dB,1.79049980774744e+002°)
1.96486778999348e+003	(5.08792195639651e+001dB,1.79042661644682e+002°)
1.98000673111740e+003	(5.08792080951915e+001dB,1.79035286135858e+002°)
1.99526231496889e+003	(5.08791964490342e+001dB,1.79027853814207e+002°)
2.01063544025850e+003	(5.08791846227501e+001dB,1.79020364242323e+002°)
2.02612701262116e+003	(5.08791726135538e+001dB,1.79012816979442e+002°)
2.04173794466954e+003	(5.08791604186170e+001dB,1.79005211581407e+002°)
2.05746915604785e+003	(5.08791480350666e+001dB,1.78997547600651e+002°)
2.07332157348597e+003	(5.08791354599865e+001dB,1.78989824586163e+002°)
2.08929613085405e+003	(5.08791226904151e+001dB,1.78982042083469e+002°)
2.10539376921757e+003	(5.08791097233442e+001dB,1.78974199634600e+002°)
2.12161543689270e+003	(5.08790965557200e+001dB,1.78966296778068e+002°)
2.13796208950225e+003	(5.08790831844413e+001dB,1.78958333048837e+002°)
2.15443469003190e+003	(5.08790696063589e+001dB,1.78950307978298e+002°)
2.17103420888697e+003	(5.08790558182746e+001dB,1.78942221094241e+002°)
2.18776162394957e+003	(5.08790418169414e+001dB,1.78934071920827e+002°)
2.20461792063620e+003	(5.08790275990614e+001dB,1.78925859978562e+002°)
2.22160409195583e+003	(5.08790131612865e+001dB,1.78917584784265e+002°)
2.23872113856835e+003	(5.08789985002158e+001dB,1.78909245851045e+002°)
2.25597006884359e+003	(5.08789836123972e+001dB,1.78900842688268e+002°)
2.27335189892065e+003	(5.08789684943240e+001dB,1.78892374801533e+002°)
2.29086765276779e+003	(5.08789531424361e+001dB,1.78883841692638e+002°)
2.30851836224278e+003	(5.08789375531178e+001dB,1.78875242859556e+002°)
2.32630506715364e+003	(5.08789217226978e+001dB,1.78866577796403e+002°)
2.34422881531994e+003	(5.08789056474486e+001dB,1.78857845993409e+002°)
2.36229066263448e+003	(5.08788893235839e+001dB,1.78849046936887e+002°)
2.38049167312553e+003	(5.08788727472595e+001dB,1.78840180109206e+002°)
2.39883291901951e+003	(5.08788559145722e+001dB,1.78831244988760e+002°)
2.41731548080412e+003	(5.08788388215576e+001dB,1.78822241049936e+002°)
2.43594044729204e+003	(5.08788214641910e+001dB,1.78813167763085e+002°)
2.45470891568505e+003	(5.08788038383846e+001dB,1.78804024594490e+002°)
2.47362199163864e+003	(5.08787859399882e+001dB,1.78794811006337e+002°)
2.49268078932720e+003	(5.08787677647868e+001dB,1.78785526456681e+002°)
2.51188643150960e+003	(5.08787493085003e+001dB,1.78776170399418e+002°)
2.53124004959538e+003	(5.08787305667834e+001dB,1.78766742284248e+002°)
2.55074278371138e+003	(5.08787115352222e+001dB,1.78757241556649e+002°)
2.57039578276888e+003	(5.08786922093358e+001dB,1.78747667657843e+002°)
2.59020020453134e+003	(5.08786725845734e+001dB,1.78738020024759e+002°)
2.61015721568256e+003	(5.08786526563142e+001dB,1.78728298090007e+002°)
2.63026799189540e+003	(5.08786324198655e+001dB,1.78718501281841e+002°)
2.65053371790110e+003	(5.08786118704626e+001dB,1.78708629024127e+002°)
2.67095558755901e+003	(5.08785910032675e+001dB,1.78698680736309e+002°)
2.69153480392694e+003	(5.08785698133664e+001dB,1.78688655833378e+002°)
2.71227257933205e+003	(5.08785482957700e+001dB,1.78678553725832e+002°)
2.73317013544226e+003	(5.08785264454126e+001dB,1.78668373819650e+002°)
2.75422870333819e+003	(5.08785042571494e+001dB,1.78658115516250e+002°)
2.77544952358573e+003	(5.08784817257563e+001dB,1.78647778212460e+002°)
2.79683384630910e+003	(5.08784588459283e+001dB,1.78637361300479e+002°)
2.81838293126448e+003	(5.08784356122794e+001dB,1.78626864167846e+002°)
2.84009804791424e+003	(5.08784120193390e+001dB,1.78616286197398e+002°)
2.86198047550173e+003	(5.08783880615528e+001dB,1.78605626767243e+002°)
2.88403150312663e+003	(5.08783637332809e+001dB,1.78594885250717e+002°)
2.90625242982089e+003	(5.08783390287953e+001dB,1.78584061016350e+002°)
2.92864456462526e+003	(5.08783139422806e+001dB,1.78573153427831e+002°)
2.95120922666641e+003	(5.08782884678311e+001dB,1.78562161843969e+002°)
2.97394774523463e+003	(5.08782625994492e+001dB,1.78551085618656e+002°)
2.99686145986215e+003	(5.08782363310461e+001dB,1.78539924100834e+002°)
3.01995172040204e+003	(5.08782096564373e+001dB,1.78528676634449e+002°)
3.04321988710775e+003	(5.08781825693442e+001dB,1.78517342558424e+002°)
3.06666733071321e+003	(5.08781550633905e+001dB,1.78505921206609e+002°)
3.09029543251362e+003	(5.08781271321013e+001dB,1.78494411907752e+002°)
3.11410558444679e+003	(5.08780987689021e+001dB,1.78482813985457e+002°)
3.13809918917516e+003	(5.08780699671165e+001dB,1.78471126758144e+002°)
3.16227766016841e+003	(5.08780407199651e+001dB,1.78459349539010e+002°)
3.18664242178676e+003	(5.08780110205636e+001dB,1.78447481635991e+002°)
3.21119490936485e+003	(5.08779808619222e+001dB,1.78435522351720e+002°)
3.23593656929631e+003	(5.08779502369420e+001dB,1.78423470983490e+002°)
3.26086885911896e+003	(5.08779191384151e+001dB,1.78411326823210e+002°)
3.28599324760069e+003	(5.08778875590223e+001dB,1.78399089157365e+002°)
3.31131121482594e+003	(5.08778554913310e+001dB,1.78386757266979e+002°)
3.33682425228297e+003	(5.08778229277940e+001dB,1.78374330427568e+002°)
3.36253386295166e+003	(5.08777898607480e+001dB,1.78361807909101e+002°)
3.38844156139206e+003	(5.08777562824105e+001dB,1.78349188975959e+002°)
3.41454887383364e+003	(5.08777221848796e+001dB,1.78336472886890e+002°)
3.44085733826517e+003	(5.08776875601307e+001dB,1.78323658894970e+002°)
3.46736850452535e+003	(5.08776524000159e+001dB,1.78310746247558e+002°)
3.49408393439410e+003	(5.08776166962614e+001dB,1.78297734186252e+002°)
3.52100520168456e+003	(5.08775804404651e+001dB,1.78284621946848e+002°)
3.54813389233579e+003	(5.08775436240957e+001dB,1.78271408759295e+002°)
3.57547160450625e+003	(5.08775062384900e+001dB,1.78258093847649e+002°)
3.60301994866789e+003	(5.08774682748512e+001dB,1.78244676430032e+002°)
3.63078054770105e+003	(5.08774297242463e+001dB,1.78231155718586e+002°)
3.65875503699007e+003	(5.08773905776051e+001dB,1.78217530919427e+002°)
3.68694506451962e+003	(5.08773508257169e+001dB,1.78203801232599e+002°)
3.71535229097177e+003	(5.08773104592285e+001dB,1.78189965852031e+002°)
3.74397838982385e+003	(5.08772694686427e+001dB,1.78176023965490e+002°)
3.77282504744704e+003	(5.08772278443158e+001dB,1.78161974754533e+002°)
3.80189396320565e+003	(5.08771855764554e+001dB,1.78147817394462e+002°)
3.83118684955733e+003	(5.08771426551175e+001dB,1.78133551054275e+002°)
3.86070543215386e+003	(5.08770990702043e+001dB,1.78119174896623e+002°)
3.89045144994285e+003	(5.08770548114634e+001dB,1.78104688077756e+002°)
3.92042665527020e+003	(5.08770098684828e+001dB,1.78090089747481e+002°)
3.95063281398328e+003	(5.08769642306912e+001dB,1.78075379049110e+002°)
3.98107170553502e+003	(5.08769178873522e+001dB,1.78060555119411e+002°)
4.01174512308867e+003	(5.08768708275662e+001dB,1.78045617088562e+002°)
4.04265487362349e+003	(5.08768230402631e+001dB,1.78030564080098e+002°)
4.07380277804117e+003	(5.08767745142037e+001dB,1.78015395210866e+002°)
4.10519067127313e+003	(5.08767252379738e+001dB,1.78000109590967e+002°)
4.13682040238856e+003	(5.08766751999851e+001dB,1.77984706323716e+002°)
4.16869383470340e+003	(5.08766243884684e+001dB,1.77969184505581e+002°)
4.20081284589012e+003	(5.08765727914744e+001dB,1.77953543226138e+002°)
4.23317932808826e+003	(5.08765203968683e+001dB,1.77937781568019e+002°)
4.26579518801598e+003	(5.08764671923295e+001dB,1.77921898606858e+002°)
4.29866234708233e+003	(5.08764131653465e+001dB,1.77905893411238e+002°)
4.33178274150047e+003	(5.08763583032144e+001dB,1.77889765042644e+002°)
4.36515832240171e+003	(5.08763025930329e+001dB,1.77873512555403e+002°)
4.39879105595049e+003	(5.08762460217029e+001dB,1.77857134996633e+002°)
4.43268292346014e+003	(5.08761885759227e+001dB,1.77840631406194e+002°)
4.46683592150969e+003	(5.08761302421857e+001dB,1.77824000816626e+002°)
4.50125206206139e+003	(5.08760710067774e+001dB,1.77807242253101e+002°)
4.53593337257933e+003	(5.08760108557709e+001dB,1.77790354733364e+002°)
4.57088189614881e+003	(5.08759497750256e+001dB,1.77773337267679e+002°)
4.60609969159672e+003	(5.08758877501822e+001dB,1.77756188858776e+002°)
4.64158883361284e+003	(5.08758247666593e+001dB,1.77738908501791e+002°)
4.67735141287204e+003	(5.08757608096529e+001dB,1.77721495184211e+002°)
4.71338953615747e+003	(5.08756958641283e+001dB,1.77703947885819e+002°)
4.74970532648462e+003	(5.08756299148201e+001dB,1.77686265578635e+002°)
4.78630092322645e+003	(5.08755629462282e+001dB,1.77668447226859e+002°)
4.82317848223937e+003	(5.08754949426122e+001dB,1.77650491786813e+002°)
4.86034017599028e+003	(5.08754258879902e+001dB,1.77632398206882e+002°)
4.89778819368453e+003	(5.08753557661332e+001dB,1.77614165427457e+002°)
4.93552474139487e+003	(5.08752845605624e+001dB,1.77595792380875e+002°)
4.97355204219146e+003	(5.08752122545452e+001dB,1.77577277991358e+002°)
5.01187233627279e+003	(5.08751388310906e+001dB,1.77558621174957e+002°)
5.05048788109766e+003	(5.08750642729467e+001dB,1.77539820839486e+002°)
5.08940095151816e+003	(5.08749885625944e+001dB,1.77520875884467e+002°)
5.12861383991372e+003	(5.08749116822466e+001dB,1.77501785201066e+002°)
5.16812885632611e+003	(5.08748336138394e+001dB,1.77482547672030e+002°)
5.20794832859554e+003	(5.08747543390335e+001dB,1.77463162171631e+002°)
5.24807460249780e+003	(5.08746738392053e+001dB,1.77443627565595e+002°)
5.28851004188245e+003	(5.08745920954445e+001dB,1.77423942711046e+002°)
5.32925702881208e+003	(5.08745090885503e+001dB,1.77404106456441e+002°)
5.37031796370260e+003	(5.08744247990253e+001dB,1.77384117641507e+002°)
5.41169526546471e+003	(5.08743392070722e+001dB,1.77363975097173e+002°)
5.45339137164635e+003	(5.08742522925889e+001dB,1.77343677645511e+002°)
5.49540873857633e+003	(5.08741640351633e+001dB,1.77323224099670e+002°)
5.53774984150898e+003	(5.08740744140697e+001dB,1.77302613263808e+002°)
5.58041717477005e+003	(5.08739834082629e+001dB,1.77281843933027e+002°)
5.62341325190357e+003	(5.08738909963737e+001dB,1.77260914893311e+002°)
5.66674060582000e+003	(5.08737971567032e+001dB,1.77239824921454e+002°)
5.71040178894535e+003	(5.08737018672203e+001dB,1.77218572784997e+002°)
5.75439937337165e+003	(5.08736051055523e+001dB,1.77197157242157e+002°)
5.79873595100840e+003	(5.08735068489848e+001dB,1.77175577041764e+002°)
5.84341413373526e+003	(5.08734070744521e+001dB,1.77153830923189e+002°)
5.88843655355598e+003	(5.08733057585336e+001dB,1.77131917616275e+002°)
5.93380586275337e+003	(5.08732028774494e+001dB,1.77109835841273e+002°)
5.97952473404561e+003	(5.08730984070524e+001dB,1.77087584308765e+002°)
6.02559586074367e+003	(5.08729923228247e+001dB,1.77065161719600e+002°)
6.07202195690998e+003	(5.08728845998716e+001dB,1.77042566764822e+002°)
6.11880575751831e+003	(5.08727752129142e+001dB,1.77019798125597e+002°)
6.16595001861492e+003	(5.08726641362859e+001dB,1.76996854473145e+002°)
6.21345751748085e+003	(5.08725513439253e+001dB,1.76973734468666e+002°)
6.26133105279562e+003	(5.08724368093692e+001dB,1.76950436763270e+002°)
6.30957344480203e+003	(5.08723205057490e+001dB,1.76926959997901e+002°)
6.35818753547233e+003	(5.08722024057816e+001dB,1.76903302803267e+002°)
6.40717618867564e+003	(5.08720824817653e+001dB,1.76879463799767e+002°)
6.45654229034666e+003	(5.08719607055719e+001dB,1.76855441597414e+002°)
6.50628874865568e+003	(5.08718370486415e+001dB,1.76831234795763e+002°)
6.55641849417989e+003	(5.08717114819749e+001dB,1.76806841983835e+002°)
6.60693448007607e+003	(5.08715839761272e+001dB,1.76782261740045e+002°)
6.65783968225447e+003	(5.08714545012010e+001dB,1.76757492632121e+002°)
6.70913709955422e+003	(5.08713230268395e+001dB,1.76732533217032e+002°)
6.76082975391993e+003	(5.08711895222199e+001dB,1.76707382040909e+002°)
6.81292069057972e+003	(5.08710539560455e+001dB,1.76682037638971e+002°)
6.86541297822466e+003	(5.08709162965392e+001dB,1.76656498535444e+002°)
6.91830970918948e+003	(5.08707765114352e+001dB,1.76630763243487e+002°)
6.97161399963479e+003	(5.08706345679728e+001dB,1.76604830265110e+002°)
7.02532898973064e+003	(5.08704904328883e+001dB,1.76578698091096e+002°)
7.07945784384150e+003	(5.08703440724068e+001dB,1.76552365200925e+002°)
7.13400375071268e+003	(5.08701954522355e+001dB,1.76525830062690e+002°)
7.18896992365819e+003	(5.08700445375546e+001dB,1.76499091133020e+002°)
7.24435960075002e+003	(5.08698912930104e+001dB,1.76472146856997e+002°)
7.30017604500890e+003	(5.08697356827065e+001dB,1.76444995668079e+002°)
7.35642254459654e+003	(5.08695776701955e+001dB,1.76417635988013e+002°)
7.41310241300930e+003	(5.08694172184707e+001dB,1.76390066226758e+002°)
7.47021898927344e+003	(5.08692542899586e+001dB,1.76362284782401e+002°)
7.52777563814179e+003	(5.08690888465081e+001dB,1.76334290041073e+002°)
7.58577575029197e+003	(5.08689208493841e+001dB,1.76306080376867e+002°)
7.64422274252613e+003	(5.08687502592574e+001dB,1.76277654151756e+002°)
7.70312005797228e+003	(5.08685770361945e+001dB,1.76249009715506e+002°)
7.76247116628705e+003	(5.08684011396513e+001dB,1.76220145405592e+002°)
7.82227956386016e+003	(5.08682225284619e+001dB,1.76191059547118e+002°)
7.88254877402035e+003	(5.08680411608289e+001dB,1.76161750452722e+002°)
7.94328234724295e+003	(5.08678569943147e+001dB,1.76132216422501e+002°)
8.00448386135906e+003	(5.08676699858317e+001dB,1.76102455743917e+002°)
8.06615692176628e+003	(5.08674800916319e+001dB,1.76072466691714e+002°)
8.12830516164114e+003	(5.08672872672980e+001dB,1.76042247527830e+002°)
8.19093224215312e+003	(5.08670914677316e+001dB,1.76011796501310e+002°)
8.25404185268033e+003	(5.08668926471439e+001dB,1.75981111848218e+002°)
8.31763771102686e+003	(5.08666907590456e+001dB,1.75950191791549e+002°)
8.38172356364177e+003	(5.08664857562349e+001dB,1.75919034541138e+002°)
8.44630318583984e+003	(5.08662775907890e+001dB,1.75887638293576e+002°)
8.51138038202392e+003	(5.08660662140503e+001dB,1.75856001232114e+002°)
8.57695898590910e+003	(5.08658515766178e+001dB,1.75824121526579e+002°)
