Freq.	V(vout)
1.00000000000000e+003	(5.08797706043117e+001dB,1.79513429957356e+002°)
1.00770481413610e+003	(5.08797676350846e+001dB,1.79509681105393e+002°)
1.01546899243308e+003	(5.08797646199284e+001dB,1.79505903371082e+002°)
1.02329299228075e+003	(5.08797615581328e+001dB,1.79502096531931e+002°)
1.03117727459306e+003	(5.08797584489761e+001dB,1.79498260363738e+002°)
1.03912230383517e+003	(5.08797552917259e+001dB,1.79494394640573e+002°)
1.04712854805090e+003	(5.08797520856383e+001dB,1.79490499134767e+002°)
1.05519647889024e+003	(5.08797488299576e+001dB,1.79486573616898e+002°)
1.06332657163716e+003	(5.08797455239171e+001dB,1.79482617855777e+002°)
1.07151930523761e+003	(5.08797421667378e+001dB,1.79478631618435e+002°)
1.07977516232771e+003	(5.08797387576286e+001dB,1.79474614670110e+002°)
1.08809462926223e+003	(5.08797352957862e+001dB,1.79470566774230e+002°)
1.09647819614319e+003	(5.08797317803950e+001dB,1.79466487692404e+002°)
1.10492635684876e+003	(5.08797282106267e+001dB,1.79462377184405e+002°)
1.11343960906236e+003	(5.08797245856406e+001dB,1.79458235008155e+002°)
1.12201845430197e+003	(5.08797209045822e+001dB,1.79454060919714e+002°)
1.13066339794964e+003	(5.08797171665841e+001dB,1.79449854673262e+002°)
1.13937494928134e+003	(5.08797133707659e+001dB,1.79445616021088e+002°)
1.14815362149688e+003	(5.08797095162332e+001dB,1.79441344713573e+002°)
1.15699993175021e+003	(5.08797056020775e+001dB,1.79437040499176e+002°)
1.16591440117983e+003	(5.08797016273774e+001dB,1.79432703124419e+002°)
1.17489755493953e+003	(5.08796975911953e+001dB,1.79428332333874e+002°)
1.18394992222930e+003	(5.08796934925812e+001dB,1.79423927870145e+002°)
1.19307203632654e+003	(5.08796893305692e+001dB,1.79419489473856e+002°)
1.20226443461742e+003	(5.08796851041782e+001dB,1.79415016883632e+002°)
1.21152765862859e+003	(5.08796808124133e+001dB,1.79410509836087e+002°)
1.22086225405907e+003	(5.08796764542625e+001dB,1.79405968065808e+002°)
1.23026877081238e+003	(5.08796720286995e+001dB,1.79401391305337e+002°)
1.23974776302895e+003	(5.08796675346816e+001dB,1.79396779285159e+002°)
1.24929978911874e+003	(5.08796629711497e+001dB,1.79392131733683e+002°)
1.25892541179417e+003	(5.08796583370289e+001dB,1.79387448377227e+002°)
1.26862519810326e+003	(5.08796536312272e+001dB,1.79382728940003e+002°)
1.27839971946303e+003	(5.08796488526362e+001dB,1.79377973144100e+002°)
1.28824955169314e+003	(5.08796440001295e+001dB,1.79373180709468e+002°)
1.29817527504985e+003	(5.08796390725647e+001dB,1.79368351353900e+002°)
1.30817747426020e+003	(5.08796340687800e+001dB,1.79363484793017e+002°)
1.31825673855641e+003	(5.08796289875971e+001dB,1.79358580740252e+002°)
1.32841366171065e+003	(5.08796238278186e+001dB,1.79353638906833e+002°)
1.33864884207000e+003	(5.08796185882287e+001dB,1.79348659001762e+002°)
1.34896288259166e+003	(5.08796132675937e+001dB,1.79343640731804e+002°)
1.35935639087853e+003	(5.08796078646594e+001dB,1.79338583801466e+002°)
1.36982997921497e+003	(5.08796023781529e+001dB,1.79333487912981e+002°)
1.38038426460289e+003	(5.08795968067821e+001dB,1.79328352766290e+002°)
1.39101986879806e+003	(5.08795911492340e+001dB,1.79323178059024e+002°)
1.40173741834677e+003	(5.08795854041759e+001dB,1.79317963486487e+002°)
1.41253754462276e+003	(5.08795795702543e+001dB,1.79312708741640e+002°)
1.42342088386435e+003	(5.08795736460945e+001dB,1.79307413515078e+002°)
1.43438807721197e+003	(5.08795676303012e+001dB,1.79302077495017e+002°)
1.44543977074593e+003	(5.08795615214573e+001dB,1.79296700367271e+002°)
1.45657661552446e+003	(5.08795553181229e+001dB,1.79291281815240e+002°)
1.46779926762207e+003	(5.08795490188373e+001dB,1.79285821519883e+002°)
1.47910838816821e+003	(5.08795426221161e+001dB,1.79280319159708e+002°)
1.49050464338620e+003	(5.08795361264523e+001dB,1.79274774410745e+002°)
1.50198870463249e+003	(5.08795295303158e+001dB,1.79269186946536e+002°)
1.51356124843621e+003	(5.08795228321525e+001dB,1.79263556438106e+002°)
1.52522295653902e+003	(5.08795160303849e+001dB,1.79257882553951e+002°)
1.53697451593528e+003	(5.08795091234097e+001dB,1.79252164960015e+002°)
1.54881661891249e+003	(5.08795021096004e+001dB,1.79246403319674e+002°)
1.56074996309212e+003	(5.08794949873046e+001dB,1.79240597293711e+002°)
1.57277525147067e+003	(5.08794877548445e+001dB,1.79234746540300e+002°)
1.58489319246112e+003	(5.08794804105160e+001dB,1.79228850714986e+002°)
1.59710449993461e+003	(5.08794729525892e+001dB,1.79222909470662e+002°)
1.60940989326254e+003	(5.08794653793073e+001dB,1.79216922457552e+002°)
1.62181009735894e+003	(5.08794576888858e+001dB,1.79210889323188e+002°)
1.63430584272314e+003	(5.08794498795135e+001dB,1.79204809712391e+002°)
1.64689786548288e+003	(5.08794419493505e+001dB,1.79198683267248e+002°)
1.65958690743757e+003	(5.08794338965285e+001dB,1.79192509627095e+002°)
1.67237371610209e+003	(5.08794257191508e+001dB,1.79186288428491e+002°)
1.68525904475076e+003	(5.08794174152908e+001dB,1.79180019305201e+002°)
1.69824365246175e+003	(5.08794089829924e+001dB,1.79173701888172e+002°)
1.71132830416179e+003	(5.08794004202696e+001dB,1.79167335805511e+002°)
1.72451377067121e+003	(5.08793917251048e+001dB,1.79160920682467e+002°)
1.73780082874938e+003	(5.08793828954502e+001dB,1.79154456141404e+002°)
1.75119026114047e+003	(5.08793739292256e+001dB,1.79147941801783e+002°)
1.76468285661951e+003	(5.08793648243188e+001dB,1.79141377280136e+002°)
1.77827941003893e+003	(5.08793555785850e+001dB,1.79134762190048e+002°)
1.79198072237534e+003	(5.08793461898466e+001dB,1.79128096142130e+002°)
1.80578760077673e+003	(5.08793366558923e+001dB,1.79121378744000e+002°)
1.81970085860999e+003	(5.08793269744750e+001dB,1.79114609600257e+002°)
1.83372131550889e+003	(5.08793171433153e+001dB,1.79107788312460e+002°)
1.84784979742230e+003	(5.08793071600975e+001dB,1.79100914479104e+002°)
1.86208713666288e+003	(5.08792970224691e+001dB,1.79093987695595e+002°)
1.87643417195610e+003	(5.08792867280433e+001dB,1.79087007554229e+002°)
1.89089174848965e+003	(5.08792762743944e+001dB,1.79079973644166e+002°)
1.90546071796326e+003	(5.08792656590604e+001dB,1.79072885551409e+002°)
1.92014193863881e+003	(5.08792548795409e+001dB,1.79065742858775e+002°)
1.93493627539096e+003	(5.08792439332967e+001dB,1.79058545145876e+002°)
1.94984459975806e+003	(5.08792328177497e+001dB,1.79051291989089e+002°)
1.96486778999348e+003	(5.08792215302813e+001dB,1.79043982961536e+002°)
1.98000673111740e+003	(5.08792100682333e+001dB,1.79036617633056e+002°)
1.99526231496889e+003	(5.08791984289057e+001dB,1.79029195570183e+002°)
2.01063544025850e+003	(5.08791866095566e+001dB,1.79021716336116e+002°)
2.02612701262116e+003	(5.08791746074032e+001dB,1.79014179490697e+002°)
2.04173794466954e+003	(5.08791624196176e+001dB,1.79006584590387e+002°)
2.05746915604785e+003	(5.08791500433295e+001dB,1.78998931188233e+002°)
2.07332157348597e+003	(5.08791374756238e+001dB,1.78991218833851e+002°)
2.08929613085405e+003	(5.08791247135407e+001dB,1.78983447073392e+002°)
2.10539376921757e+003	(5.08791117540742e+001dB,1.78975615449521e+002°)
2.12161543689270e+003	(5.08790985941719e+001dB,1.78967723501386e+002°)
2.13796208950225e+003	(5.08790852307345e+001dB,1.78959770764596e+002°)
2.15443469003190e+003	(5.08790716606146e+001dB,1.78951756771187e+002°)
2.17103420888697e+003	(5.08790578806161e+001dB,1.78943681049604e+002°)
2.18776162394957e+003	(5.08790438874937e+001dB,1.78935543124663e+002°)
2.20461792063620e+003	(5.08790296779514e+001dB,1.78927342517534e+002°)
2.22160409195583e+003	(5.08790152486435e+001dB,1.78919078745702e+002°)
2.23872113856835e+003	(5.08790005961705e+001dB,1.78910751322951e+002°)
2.25597006884359e+003	(5.08789857170824e+001dB,1.78902359759324e+002°)
2.27335189892065e+003	(5.08789706078753e+001dB,1.78893903561101e+002°)
2.29086765276779e+003	(5.08789552649900e+001dB,1.78885382230772e+002°)
2.30851836224278e+003	(5.08789396848139e+001dB,1.78876795267002e+002°)
2.32630506715364e+003	(5.08789238636778e+001dB,1.78868142164606e+002°)
2.34422881531994e+003	(5.08789077978553e+001dB,1.78859422414517e+002°)
2.36229066263448e+003	(5.08788914835636e+001dB,1.78850635503761e+002°)
2.38049167312553e+003	(5.08788749169601e+001dB,1.78841780915420e+002°)
2.39883291901951e+003	(5.08788580941443e+001dB,1.78832858128610e+002°)
2.41731548080412e+003	(5.08788410111539e+001dB,1.78823866618443e+002°)
2.43594044729204e+003	(5.08788236639662e+001dB,1.78814805856003e+002°)
2.45470891568505e+003	(5.08788060484963e+001dB,1.78805675308311e+002°)
2.47362199163864e+003	(5.08787881605961e+001dB,1.78796474438296e+002°)
2.49268078932720e+003	(5.08787699960536e+001dB,1.78787202704761e+002°)
2.51188643150960e+003	(5.08787515505906e+001dB,1.78777859562357e+002°)
2.53124004959538e+003	(5.08787328198646e+001dB,1.78768444461546e+002°)
2.55074278371138e+003	(5.08787137994644e+001dB,1.78758956848573e+002°)
2.57039578276888e+003	(5.08786944849116e+001dB,1.78749396165428e+002°)
2.59020020453134e+003	(5.08786748716579e+001dB,1.78739761849823e+002°)
2.61015721568256e+003	(5.08786549550852e+001dB,1.78730053335151e+002°)
2.63026799189540e+003	(5.08786347305043e+001dB,1.78720270050455e+002°)
2.65053371790110e+003	(5.08786141931528e+001dB,1.78710411420398e+002°)
2.67095558755901e+003	(5.08785933381950e+001dB,1.78700476865228e+002°)
2.69153480392694e+003	(5.08785721607206e+001dB,1.78690465800742e+002°)
2.71227257933205e+003	(5.08785506557435e+001dB,1.78680377638255e+002°)
2.73317013544226e+003	(5.08785288182002e+001dB,1.78670211784567e+002°)
2.75422870333819e+003	(5.08785066429493e+001dB,1.78659967641923e+002°)
2.77544952358573e+003	(5.08784841247697e+001dB,1.78649644607986e+002°)
2.79683384630910e+003	(5.08784612583598e+001dB,1.78639242075794e+002°)
2.81838293126448e+003	(5.08784380383361e+001dB,1.78628759433732e+002°)
2.84009804791424e+003	(5.08784144592320e+001dB,1.78618196065494e+002°)
2.86198047550173e+003	(5.08783905154959e+001dB,1.78607551350044e+002°)
2.88403150312663e+003	(5.08783662014913e+001dB,1.78596824661586e+002°)
2.90625242982089e+003	(5.08783415114939e+001dB,1.78586015369524e+002°)
2.92864456462526e+003	(5.08783164396915e+001dB,1.78575122838426e+002°)
2.95120922666641e+003	(5.08782909801815e+001dB,1.78564146427987e+002°)
2.97394774523463e+003	(5.08782651269706e+001dB,1.78553085492995e+002°)
2.99686145986215e+003	(5.08782388739727e+001dB,1.78541939383289e+002°)
3.01995172040204e+003	(5.08782122150074e+001dB,1.78530707443725e+002°)
3.04321988710775e+003	(5.08781851437999e+001dB,1.78519389014138e+002°)
3.06666733071321e+003	(5.08781576539775e+001dB,1.78507983429302e+002°)
3.09029543251362e+003	(5.08781297390689e+001dB,1.78496490018893e+002°)
3.11410558444679e+003	(5.08781013925039e+001dB,1.78484908107448e+002°)
3.13809918917516e+003	(5.08780726076094e+001dB,1.78473237014332e+002°)
3.16227766016841e+003	(5.08780433776104e+001dB,1.78461476053691e+002°)
3.18664242178676e+003	(5.08780136956268e+001dB,1.78449624534419e+002°)
3.21119490936485e+003	(5.08779835546726e+001dB,1.78437681760114e+002°)
3.23593656929631e+003	(5.08779529476531e+001dB,1.78425647029040e+002°)
3.26086885911896e+003	(5.08779218673645e+001dB,1.78413519634086e+002°)
3.28599324760069e+003	(5.08778903064921e+001dB,1.78401298862726e+002°)
3.31131121482594e+003	(5.08778582576078e+001dB,1.78388983996976e+002°)
3.33682425228297e+003	(5.08778257131683e+001dB,1.78376574313356e+002°)
3.36253386295166e+003	(5.08777926655153e+001dB,1.78364069082844e+002°)
3.38844156139206e+003	(5.08777591068708e+001dB,1.78351467570840e+002°)
3.41454887383364e+003	(5.08777250293373e+001dB,1.78338769037118e+002°)
3.44085733826517e+003	(5.08776904248951e+001dB,1.78325972735786e+002°)
3.46736850452535e+003	(5.08776552854010e+001dB,1.78313077915246e+002°)
3.49408393439410e+003	(5.08776196025861e+001dB,1.78300083818146e+002°)
3.52100520168456e+003	(5.08775833680531e+001dB,1.78286989681338e+002°)
3.54813389233579e+003	(5.08775465732758e+001dB,1.78273794735837e+002°)
3.57547160450625e+003	(5.08775092095963e+001dB,1.78260498206775e+002°)
3.60301994866789e+003	(5.08774712682227e+001dB,1.78247099313354e+002°)
3.63078054770105e+003	(5.08774327402272e+001dB,1.78233597268808e+002°)
3.65875503699007e+003	(5.08773936165452e+001dB,1.78219991280351e+002°)
3.68694506451962e+003	(5.08773538879708e+001dB,1.78206280549135e+002°)
3.71535229097177e+003	(5.08773135451570e+001dB,1.78192464270206e+002°)
3.74397838982385e+003	(5.08772725786120e+001dB,1.78178541632453e+002°)
3.77282504744704e+003	(5.08772309786976e+001dB,1.78164511818568e+002°)
3.80189396320565e+003	(5.08771887356272e+001dB,1.78150374004995e+002°)
3.83118684955733e+003	(5.08771458394624e+001dB,1.78136127361883e+002°)
3.86070543215386e+003	(5.08771022801122e+001dB,1.78121771053041e+002°)
3.89045144994285e+003	(5.08770580473288e+001dB,1.78107304235889e+002°)
3.92042665527020e+003	(5.08770131307074e+001dB,1.78092726061410e+002°)
3.95063281398328e+003	(5.08769675196824e+001dB,1.78078035674103e+002°)
3.98107170553502e+003	(5.08769212035243e+001dB,1.78063232211933e+002°)
4.01174512308867e+003	(5.08768741713391e+001dB,1.78048314806282e+002°)
4.04265487362349e+003	(5.08768264120636e+001dB,1.78033282581899e+002°)
4.07380277804117e+003	(5.08767779144652e+001dB,1.78018134656854e+002°)
4.10519067127313e+003	(5.08767286671367e+001dB,1.78002870142482e+002°)
4.13682040238856e+003	(5.08766786584956e+001dB,1.77987488143339e+002°)
4.16869383470340e+003	(5.08766278767807e+001dB,1.77971987757146e+002°)
4.20081284589012e+003	(5.08765763100491e+001dB,1.77956368074740e+002°)
4.23317932808826e+003	(5.08765239461739e+001dB,1.77940628180025e+002°)
4.26579518801598e+003	(5.08764707728407e+001dB,1.77924767149914e+002°)
4.29866234708233e+003	(5.08764167775457e+001dB,1.77908784054284e+002°)
4.33178274150047e+003	(5.08763619475915e+001dB,1.77892677955917e+002°)
4.36515832240171e+003	(5.08763062700856e+001dB,1.77876447910454e+002°)
4.39879105595049e+003	(5.08762497319362e+001dB,1.77860092966333e+002°)
4.43268292346014e+003	(5.08761923198498e+001dB,1.77843612164744e+002°)
4.46683592150969e+003	(5.08761340203276e+001dB,1.77827004539570e+002°)
4.50125206206139e+003	(5.08760748196627e+001dB,1.77810269117332e+002°)
4.53593337257933e+003	(5.08760147039372e+001dB,1.77793404917139e+002°)
4.57088189614881e+003	(5.08759536590181e+001dB,1.77776410950628e+002°)
4.60609969159672e+003	(5.08758916705545e+001dB,1.77759286221910e+002°)
4.64158883361284e+003	(5.08758287239748e+001dB,1.77742029727516e+002°)
4.67735141287204e+003	(5.08757648044817e+001dB,1.77724640456337e+002°)
4.71338953615747e+003	(5.08756998970508e+001dB,1.77707117389572e+002°)
4.74970532648462e+003	(5.08756339864253e+001dB,1.77689459500665e+002°)
4.78630092322645e+003	(5.08755670571139e+001dB,1.77671665755254e+002°)
4.82317848223937e+003	(5.08754990933856e+001dB,1.77653735111109e+002°)
4.86034017599028e+003	(5.08754300792682e+001dB,1.77635666518074e+002°)
4.89778819368453e+003	(5.08753599985416e+001dB,1.77617458918011e+002°)
4.93552474139487e+003	(5.08752888347377e+001dB,1.77599111244738e+002°)
4.97355204219146e+003	(5.08752165711323e+001dB,1.77580622423971e+002°)
5.01187233627279e+003	(5.08751431907457e+001dB,1.77561991373264e+002°)
5.05048788109766e+003	(5.08750686763352e+001dB,1.77543217001948e+002°)
5.08940095151816e+003	(5.08749930103926e+001dB,1.77524298211073e+002°)
5.12861383991372e+003	(5.08749161751408e+001dB,1.77505233893344e+002°)
5.16812885632611e+003	(5.08748381525271e+001dB,1.77486022933060e+002°)
5.20794832859554e+003	(5.08747589242221e+001dB,1.77466664206054e+002°)
5.24807460249780e+003	(5.08746784716137e+001dB,1.77447156579630e+002°)
5.28851004188245e+003	(5.08745967758027e+001dB,1.77427498912498e+002°)
5.32925702881208e+003	(5.08745138175992e+001dB,1.77407690054715e+002°)
5.37031796370260e+003	(5.08744295775181e+001dB,1.77387728847619e+002°)
5.41169526546471e+003	(5.08743440357728e+001dB,1.77367614123764e+002°)
5.45339137164635e+003	(5.08742571722730e+001dB,1.77347344706859e+002°)
5.49540873857633e+003	(5.08741689666195e+001dB,1.77326919411701e+002°)
5.53774984150898e+003	(5.08740793980982e+001dB,1.77306337044110e+002°)
5.58041717477005e+003	(5.08739884456761e+001dB,1.77285596400864e+002°)
5.62341325190357e+003	(5.08738960879963e+001dB,1.77264696269634e+002°)
5.66674060582000e+003	(5.08738023033737e+001dB,1.77243635428914e+002°)
5.71040178894535e+003	(5.08737070697889e+001dB,1.77222412647958e+002°)
5.75439937337165e+003	(5.08736103648837e+001dB,1.77201026686711e+002°)
5.79873595100840e+003	(5.08735121659558e+001dB,1.77179476295743e+002°)
5.84341413373526e+003	(5.08734124499534e+001dB,1.77157760216177e+002°)
5.88843655355598e+003	(5.08733111934701e+001dB,1.77135877179625e+002°)
5.93380586275337e+003	(5.08732083727392e+001dB,1.77113825908116e+002°)
5.97952473404561e+003	(5.08731039636287e+001dB,1.77091605114027e+002°)
6.02559586074367e+003	(5.08729979416343e+001dB,1.77069213500015e+002°)
6.07202195690998e+003	(5.08728902818764e+001dB,1.77046649758945e+002°)
6.11880575751831e+003	(5.08727809590908e+001dB,1.77023912573820e+002°)
6.16595001861492e+003	(5.08726699476259e+001dB,1.77001000617709e+002°)
6.21345751748085e+003	(5.08725572214358e+001dB,1.76977912553675e+002°)
6.26133105279562e+003	(5.08724427540727e+001dB,1.76954647034707e+002°)
6.30957344480203e+003	(5.08723265186836e+001dB,1.76931202703642e+002°)
6.35818753547233e+003	(5.08722084880020e+001dB,1.76907578193096e+002°)
6.40717618867564e+003	(5.08720886343418e+001dB,1.76883772125387e+002°)
6.45654229034666e+003	(5.08719669295916e+001dB,1.76859783112467e+002°)
6.50628874865568e+003	(5.08718433452086e+001dB,1.76835609755841e+002°)
6.55641849417989e+003	(5.08717178522104e+001dB,1.76811250646499e+002°)
6.60693448007607e+003	(5.08715904211690e+001dB,1.76786704364833e+002°)
6.65783968225447e+003	(5.08714610222050e+001dB,1.76761969480571e+002°)
6.70913709955422e+003	(5.08713296249796e+001dB,1.76737044552693e+002°)
6.76082975391993e+003	(5.08711961986876e+001dB,1.76711928129359e+002°)
6.81292069057972e+003	(5.08710607120512e+001dB,1.76686618747828e+002°)
6.86541297822466e+003	(5.08709231333116e+001dB,1.76661114934387e+002°)
6.91830970918948e+003	(5.08707834302219e+001dB,1.76635415204268e+002°)
6.97161399963479e+003	(5.08706415700412e+001dB,1.76609518061571e+002°)
7.02532898973064e+003	(5.08704975195250e+001dB,1.76583421999188e+002°)
7.07945784384150e+003	(5.08703512449181e+001dB,1.76557125498718e+002°)
7.13400375071268e+003	(5.08702027119481e+001dB,1.76530627030395e+002°)
7.18896992365819e+003	(5.08700518858155e+001dB,1.76503925053002e+002°)
7.24435960075002e+003	(5.08698987311873e+001dB,1.76477018013794e+002°)
7.30017604500890e+003	(5.08697432121887e+001dB,1.76449904348416e+002°)
7.35642254459654e+003	(5.08695852923932e+001dB,1.76422582480820e+002°)
7.41310241300930e+003	(5.08694249348161e+001dB,1.76395050823188e+002°)
7.47021898927344e+003	(5.08692621019055e+001dB,1.76367307775845e+002°)
7.52777563814179e+003	(5.08690967555339e+001dB,1.76339351727179e+002°)
7.58577575029197e+003	(5.08689288569876e+001dB,1.76311181053556e+002°)
7.64422274252613e+003	(5.08687583669613e+001dB,1.76282794119240e+002°)
7.70312005797228e+003	(5.08685852455449e+001dB,1.76254189276304e+002°)
7.76247116628705e+003	(5.08684094522183e+001dB,1.76225364864552e+002°)
7.82227956386016e+003	(5.08682309458391e+001dB,1.76196319211429e+002°)
7.88254877402035e+003	(5.08680496846350e+001dB,1.76167050631936e+002°)
7.94328234724295e+003	(5.08678656261935e+001dB,1.76137557428550e+002°)
8.00448386135906e+003	(5.08676787274522e+001dB,1.76107837891131e+002°)
8.06615692176628e+003	(5.08674889446890e+001dB,1.76077890296839e+002°)
8.12830516164114e+003	(5.08672962335119e+001dB,1.76047712910048e+002°)
8.19093224215312e+003	(5.08671005488498e+001dB,1.76017303982255e+002°)
8.25404185268033e+003	(5.08669018449410e+001dB,1.75986661751998e+002°)
8.31763771102686e+003	(5.08667000753227e+001dB,1.75955784444762e+002°)
8.38172356364177e+003	(5.08664951928220e+001dB,1.75924670272893e+002°)
8.44630318583984e+003	(5.08662871495430e+001dB,1.75893317435511e+002°)
8.51138038202392e+003	(5.08660758968576e+001dB,1.75861724118417e+002°)
8.57695898590910e+003	(5.08658613853937e+001dB,1.75829888494006e+002°)
