Freq.	V(vout)
1.00000000000000e+003	(5.08797674454112e+001dB,1.79512098302862e+002°)
1.00770481413610e+003	(5.08797644742324e+001dB,1.79508339190783e+002°)
1.01546899243308e+003	(5.08797614570943e+001dB,1.79504551117303e+002°)
1.02329299228075e+003	(5.08797583932860e+001dB,1.79500733859324e+002°)
1.03117727459306e+003	(5.08797552820854e+001dB,1.79496887192028e+002°)
1.03912230383517e+003	(5.08797521227601e+001dB,1.79493010888867e+002°)
1.04712854805090e+003	(5.08797489145651e+001dB,1.79489104721549e+002°)
1.05519647889024e+003	(5.08797456567446e+001dB,1.79485168460025e+002°)
1.06332657163716e+003	(5.08797423485309e+001dB,1.79481201872471e+002°)
1.07151930523761e+003	(5.08797389891447e+001dB,1.79477204725281e+002°)
1.07977516232771e+003	(5.08797355777947e+001dB,1.79473176783050e+002°)
1.08809462926223e+003	(5.08797321136769e+001dB,1.79469117808561e+002°)
1.09647819614319e+003	(5.08797285959749e+001dB,1.79465027562767e+002°)
1.10492635684876e+003	(5.08797250238600e+001dB,1.79460905804785e+002°)
1.11343960906236e+003	(5.08797213964912e+001dB,1.79456752291874e+002°)
1.12201845430197e+003	(5.08797177130130e+001dB,1.79452566779426e+002°)
1.13066339794964e+003	(5.08797139725580e+001dB,1.79448349020949e+002°)
1.13937494928134e+003	(5.08797101742448e+001dB,1.79444098768052e+002°)
1.14815362149688e+003	(5.08797063171782e+001dB,1.79439815770434e+002°)
1.15699993175021e+003	(5.08797024004499e+001dB,1.79435499775865e+002°)
1.16591440117983e+003	(5.08796984231368e+001dB,1.79431150530174e+002°)
1.17489755493953e+003	(5.08796943843020e+001dB,1.79426767777232e+002°)
1.18394992222930e+003	(5.08796902829937e+001dB,1.79422351258940e+002°)
1.19307203632654e+003	(5.08796861182458e+001dB,1.79417900715210e+002°)
1.20226443461742e+003	(5.08796818890768e+001dB,1.79413415883954e+002°)
1.21152765862859e+003	(5.08796775944907e+001dB,1.79408896501062e+002°)
1.22086225405907e+003	(5.08796732334753e+001dB,1.79404342300397e+002°)
1.23026877081238e+003	(5.08796688050033e+001dB,1.79399753013767e+002°)
1.23974776302895e+003	(5.08796643080312e+001dB,1.79395128370920e+002°)
1.24929978911874e+003	(5.08796597414999e+001dB,1.79390468099520e+002°)
1.25892541179417e+003	(5.08796551043330e+001dB,1.79385771925138e+002°)
1.26862519810326e+003	(5.08796503954381e+001dB,1.79381039571230e+002°)
1.27839971946303e+003	(5.08796456137061e+001dB,1.79376270759123e+002°)
1.28824955169314e+003	(5.08796407580099e+001dB,1.79371465208002e+002°)
1.29817527504985e+003	(5.08796358272058e+001dB,1.79366622634885e+002°)
1.30817747426020e+003	(5.08796308201325e+001dB,1.79361742754618e+002°)
1.31825673855641e+003	(5.08796257356094e+001dB,1.79356825279847e+002°)
1.32841366171065e+003	(5.08796205724392e+001dB,1.79351869921008e+002°)
1.33864884207000e+003	(5.08796153294054e+001dB,1.79346876386309e+002°)
1.34896288259166e+003	(5.08796100052728e+001dB,1.79341844381712e+002°)
1.35935639087853e+003	(5.08796045987873e+001dB,1.79336773610913e+002°)
1.36982997921497e+003	(5.08795991086745e+001dB,1.79331663775331e+002°)
1.38038426460289e+003	(5.08795935336412e+001dB,1.79326514574085e+002°)
1.39101986879806e+003	(5.08795878723745e+001dB,1.79321325703978e+002°)
1.40173741834677e+003	(5.08795821235399e+001dB,1.79316096859481e+002°)
1.41253754462276e+003	(5.08795762857837e+001dB,1.79310827732713e+002°)
1.42342088386435e+003	(5.08795703577298e+001dB,1.79305518013422e+002°)
1.43438807721197e+003	(5.08795643379823e+001dB,1.79300167388970e+002°)
1.44543977074593e+003	(5.08795582251228e+001dB,1.79294775544312e+002°)
1.45657661552446e+003	(5.08795520177110e+001dB,1.79289342161978e+002°)
1.46779926762207e+003	(5.08795457142847e+001dB,1.79283866922058e+002°)
1.47910838816821e+003	(5.08795393133588e+001dB,1.79278349502177e+002°)
1.49050464338620e+003	(5.08795328134254e+001dB,1.79272789577478e+002°)
1.50198870463249e+003	(5.08795262129532e+001dB,1.79267186820609e+002°)
1.51356124843621e+003	(5.08795195103871e+001dB,1.79261540901695e+002°)
1.52522295653902e+003	(5.08795127041484e+001dB,1.79255851488323e+002°)
1.53697451593528e+003	(5.08795057926332e+001dB,1.79250118245524e+002°)
1.54881661891249e+003	(5.08794987742140e+001dB,1.79244340835750e+002°)
1.56074996309212e+003	(5.08794916472366e+001dB,1.79238518918857e+002°)
1.57277525147067e+003	(5.08794844100223e+001dB,1.79232652152083e+002°)
1.58489319246112e+003	(5.08794770608663e+001dB,1.79226740190028e+002°)
1.59710449993461e+003	(5.08794695980373e+001dB,1.79220782684636e+002°)
1.60940989326254e+003	(5.08794620197776e+001dB,1.79214779285173e+002°)
1.62181009735894e+003	(5.08794543243009e+001dB,1.79208729638204e+002°)
1.63430584272314e+003	(5.08794465097954e+001dB,1.79202633387579e+002°)
1.64689786548288e+003	(5.08794385744197e+001dB,1.79196490174406e+002°)
1.65958690743757e+003	(5.08794305163043e+001dB,1.79190299637030e+002°)
1.67237371610209e+003	(5.08794223335515e+001dB,1.79184061411018e+002°)
1.68525904475076e+003	(5.08794140242336e+001dB,1.79177775129130e+002°)
1.69824365246175e+003	(5.08794055863926e+001dB,1.79171440421302e+002°)
1.71132830416179e+003	(5.08793970180414e+001dB,1.79165056914625e+002°)
1.72451377067121e+003	(5.08793883171612e+001dB,1.79158624233319e+002°)
1.73780082874938e+003	(5.08793794817027e+001dB,1.79152141998715e+002°)
1.75119026114047e+003	(5.08793705095842e+001dB,1.79145609829231e+002°)
1.76468285661951e+003	(5.08793613986927e+001dB,1.79139027340351e+002°)
1.77827941003893e+003	(5.08793521468818e+001dB,1.79132394144598e+002°)
1.79198072237534e+003	(5.08793427519722e+001dB,1.79125709851520e+002°)
1.80578760077673e+003	(5.08793332117504e+001dB,1.79118974067659e+002°)
1.81970085860999e+003	(5.08793235239699e+001dB,1.79112186396530e+002°)
1.83372131550889e+003	(5.08793136863481e+001dB,1.79105346438602e+002°)
1.84784979742230e+003	(5.08793036965679e+001dB,1.79098453791269e+002°)
1.86208713666288e+003	(5.08792935522765e+001dB,1.79091508048831e+002°)
1.87643417195610e+003	(5.08792832510838e+001dB,1.79084508802465e+002°)
1.89089174848965e+003	(5.08792727905637e+001dB,1.79077455640207e+002°)
1.90546071796326e+003	(5.08792621682522e+001dB,1.79070348146925e+002°)
1.92014193863881e+003	(5.08792513816471e+001dB,1.79063185904295e+002°)
1.93493627539096e+003	(5.08792404282080e+001dB,1.79055968490775e+002°)
1.94984459975806e+003	(5.08792293053545e+001dB,1.79048695481584e+002°)
1.96486778999348e+003	(5.08792180104668e+001dB,1.79041366448673e+002°)
1.98000673111740e+003	(5.08792065408847e+001dB,1.79033980960704e+002°)
1.99526231496889e+003	(5.08791948939066e+001dB,1.79026538583022e+002°)
2.01063544025850e+003	(5.08791830667889e+001dB,1.79019038877630e+002°)
2.02612701262116e+003	(5.08791710567461e+001dB,1.79011481403166e+002°)
2.04173794466954e+003	(5.08791588609493e+001dB,1.79003865714873e+002°)
2.05746915604785e+003	(5.08791464765261e+001dB,1.78996191364576e+002°)
2.07332157348597e+003	(5.08791339005599e+001dB,1.78988457900655e+002°)
2.08929613085405e+003	(5.08791211300881e+001dB,1.78980664868020e+002°)
2.10539376921757e+003	(5.08791081621031e+001dB,1.78972811808080e+002°)
2.12161543689270e+003	(5.08790949935508e+001dB,1.78964898258724e+002°)
2.13796208950225e+003	(5.08790816213296e+001dB,1.78956923754286e+002°)
2.15443469003190e+003	(5.08790680422900e+001dB,1.78948887825522e+002°)
2.17103420888697e+003	(5.08790542532340e+001dB,1.78940789999582e+002°)
2.18776162394957e+003	(5.08790402509137e+001dB,1.78932629799984e+002°)
2.20461792063620e+003	(5.08790260320317e+001dB,1.78924406746582e+002°)
2.22160409195583e+003	(5.08790115932389e+001dB,1.78916120355542e+002°)
2.23872113856835e+003	(5.08789969311350e+001dB,1.78907770139314e+002°)
2.25597006884359e+003	(5.08789820422671e+001dB,1.78899355606599e+002°)
2.27335189892065e+003	(5.08789669231283e+001dB,1.78890876262326e+002°)
2.29086765276779e+003	(5.08789515701584e+001dB,1.78882331607618e+002°)
2.30851836224278e+003	(5.08789359797415e+001dB,1.78873721139769e+002°)
2.32630506715364e+003	(5.08789201482059e+001dB,1.78865044352208e+002°)
2.34422881531994e+003	(5.08789040718236e+001dB,1.78856300734475e+002°)
2.36229066263448e+003	(5.08788877468083e+001dB,1.78847489772188e+002°)
2.38049167312553e+003	(5.08788711693155e+001dB,1.78838610947015e+002°)
2.39883291901951e+003	(5.08788543354421e+001dB,1.78829663736642e+002°)
2.41731548080412e+003	(5.08788372412231e+001dB,1.78820647614745e+002°)
2.43594044729204e+003	(5.08788198826331e+001dB,1.78811562050956e+002°)
2.45470891568505e+003	(5.08788022555847e+001dB,1.78802406510836e+002°)
2.47362199163864e+003	(5.08787843559268e+001dB,1.78793180455842e+002°)
2.49268078932720e+003	(5.08787661794446e+001dB,1.78783883343295e+002°)
2.51188643150960e+003	(5.08787477218577e+001dB,1.78774514626350e+002°)
2.53124004959538e+003	(5.08787289788199e+001dB,1.78765073753963e+002°)
2.55074278371138e+003	(5.08787099459177e+001dB,1.78755560170860e+002°)
2.57039578276888e+003	(5.08786906186696e+001dB,1.78745973317505e+002°)
2.59020020453134e+003	(5.08786709925244e+001dB,1.78736312630065e+002°)
2.61015721568256e+003	(5.08786510628605e+001dB,1.78726577540381e+002°)
2.63026799189540e+003	(5.08786308249861e+001dB,1.78716767475932e+002°)
2.65053371790110e+003	(5.08786102741357e+001dB,1.78706881859802e+002°)
2.67095558755901e+003	(5.08785894054700e+001dB,1.78696920110651e+002°)
2.69153480392694e+003	(5.08785682140757e+001dB,1.78686881642675e+002°)
2.71227257933205e+003	(5.08785466949635e+001dB,1.78676765865574e+002°)
2.73317013544226e+003	(5.08785248430667e+001dB,1.78666572184520e+002°)
2.75422870333819e+003	(5.08785026532400e+001dB,1.78656300000123e+002°)
2.77544952358573e+003	(5.08784801202596e+001dB,1.78645948708391e+002°)
2.79683384630910e+003	(5.08784572388198e+001dB,1.78635517700700e+002°)
2.81838293126448e+003	(5.08784340035341e+001dB,1.78625006363758e+002°)
2.84009804791424e+003	(5.08784104089314e+001dB,1.78614414079567e+002°)
2.86198047550173e+003	(5.08783864494575e+001dB,1.78603740225391e+002°)
2.88403150312663e+003	(5.08783621194717e+001dB,1.78592984173716e+002°)
2.90625242982089e+003	(5.08783374132459e+001dB,1.78582145292217e+002°)
2.92864456462526e+003	(5.08783123249641e+001dB,1.78571222943719e+002°)
2.95120922666641e+003	(5.08782868487199e+001dB,1.78560216486163e+002°)
2.97394774523463e+003	(5.08782609785160e+001dB,1.78549125272566e+002°)
2.99686145986215e+003	(5.08782347082623e+001dB,1.78537948650984e+002°)
3.01995172040204e+003	(5.08782080317747e+001dB,1.78526685964476e+002°)
3.04321988710775e+003	(5.08781809427739e+001dB,1.78515336551067e+002°)
3.06666733071321e+003	(5.08781534348827e+001dB,1.78503899743706e+002°)
3.09029543251362e+003	(5.08781255016264e+001dB,1.78492374870229e+002°)
3.11410558444679e+003	(5.08780971364294e+001dB,1.78480761253324e+002°)
3.13809918917516e+003	(5.08780683326153e+001dB,1.78469058210484e+002°)
3.16227766016841e+003	(5.08780390834039e+001dB,1.78457265053978e+002°)
3.18664242178676e+003	(5.08780093819113e+001dB,1.78445381090801e+002°)
3.21119490936485e+003	(5.08779792211459e+001dB,1.78433405622642e+002°)
3.23593656929631e+003	(5.08779485940090e+001dB,1.78421337945839e+002°)
3.26086885911896e+003	(5.08779174932923e+001dB,1.78409177351341e+002°)
3.28599324760069e+003	(5.08778859116754e+001dB,1.78396923124668e+002°)
3.31131121482594e+003	(5.08778538417258e+001dB,1.78384574545865e+002°)
3.33682425228297e+003	(5.08778212758962e+001dB,1.78372130889466e+002°)
3.36253386295166e+003	(5.08777882065217e+001dB,1.78359591424451e+002°)
3.38844156139206e+003	(5.08777546258200e+001dB,1.78346955414201e+002°)
3.41454887383364e+003	(5.08777205258883e+001dB,1.78334222116461e+002°)
3.44085733826517e+003	(5.08776858987015e+001dB,1.78321390783292e+002°)
3.46736850452535e+003	(5.08776507361114e+001dB,1.78308460661032e+002°)
3.49408393439410e+003	(5.08776150298431e+001dB,1.78295430990250e+002°)
3.52100520168456e+003	(5.08775787714943e+001dB,1.78282301005705e+002°)
3.54813389233579e+003	(5.08775419525331e+001dB,1.78269069936300e+002°)
3.57547160450625e+003	(5.08775045642955e+001dB,1.78255737005040e+002°)
3.60301994866789e+003	(5.08774665979843e+001dB,1.78242301428984e+002°)
3.63078054770105e+003	(5.08774280446659e+001dB,1.78228762419206e+002°)
3.65875503699007e+003	(5.08773888952693e+001dB,1.78215119180743e+002°)
3.68694506451962e+003	(5.08773491405827e+001dB,1.78201370912554e+002°)
3.71535229097177e+003	(5.08773087712531e+001dB,1.78187516807475e+002°)
3.74397838982385e+003	(5.08772677777822e+001dB,1.78173556052169e+002°)
3.77282504744704e+003	(5.08772261505260e+001dB,1.78159487827082e+002°)
3.80189396320565e+003	(5.08771838796908e+001dB,1.78145311306397e+002°)
3.83118684955733e+003	(5.08771409553321e+001dB,1.78131025657983e+002°)
3.86070543215386e+003	(5.08770973673520e+001dB,1.78116630043354e+002°)
3.89045144994285e+003	(5.08770531054963e+001dB,1.78102123617615e+002°)
3.92042665527020e+003	(5.08770081593534e+001dB,1.78087505529418e+002°)
3.95063281398328e+003	(5.08769625183502e+001dB,1.78072774920911e+002°)
3.98107170553502e+003	(5.08769161717509e+001dB,1.78057930927692e+002°)
4.01174512308867e+003	(5.08768691086535e+001dB,1.78042972678755e+002°)
4.04265487362349e+003	(5.08768213179881e+001dB,1.78027899296446e+002°)
4.07380277804117e+003	(5.08767727885146e+001dB,1.78012709896411e+002°)
4.10519067127313e+003	(5.08767235088183e+001dB,1.77997403587544e+002°)
4.13682040238856e+003	(5.08766734673093e+001dB,1.77981979471940e+002°)
4.16869383470340e+003	(5.08766226522183e+001dB,1.77966436644840e+002°)
4.20081284589012e+003	(5.08765710515948e+001dB,1.77950774194584e+002°)
4.23317932808826e+003	(5.08765186533036e+001dB,1.77934991202557e+002°)
4.26579518801598e+003	(5.08764654450227e+001dB,1.77919086743136e+002°)
4.29866234708233e+003	(5.08764114142394e+001dB,1.77903059883639e+002°)
4.33178274150047e+003	(5.08763565482487e+001dB,1.77886909684275e+002°)
4.36515832240171e+003	(5.08763008341497e+001dB,1.77870635198086e+002°)
4.39879105595049e+003	(5.08762442588411e+001dB,1.77854235470896e+002°)
4.43268292346014e+003	(5.08761868090213e+001dB,1.77837709541258e+002°)
4.46683592150969e+003	(5.08761284711825e+001dB,1.77821056440397e+002°)
4.50125206206139e+003	(5.08760692316091e+001dB,1.77804275192160e+002°)
4.53593337257933e+003	(5.08760090763735e+001dB,1.77787364812957e+002°)
4.57088189614881e+003	(5.08759479913338e+001dB,1.77770324311705e+002°)
4.60609969159672e+003	(5.08758859621297e+001dB,1.77753152689779e+002°)
4.64158883361284e+003	(5.08758229741794e+001dB,1.77735848940947e+002°)
4.67735141287204e+003	(5.08757590126769e+001dB,1.77718412051321e+002°)
4.71338953615747e+003	(5.08756940625873e+001dB,1.77700840999294e+002°)
4.74970532648462e+003	(5.08756281086439e+001dB,1.77683134755490e+002°)
4.78630092322645e+003	(5.08755611353448e+001dB,1.77665292282697e+002°)
4.82317848223937e+003	(5.08754931269498e+001dB,1.77647312535819e+002°)
4.86034017599028e+003	(5.08754240674748e+001dB,1.77629194461809e+002°)
4.89778819368453e+003	(5.08753539406899e+001dB,1.77610936999617e+002°)
4.93552474139487e+003	(5.08752827301156e+001dB,1.77592539080126e+002°)
4.97355204219146e+003	(5.08752104190179e+001dB,1.77573999626096e+002°)
5.01187233627279e+003	(5.08751369904051e+001dB,1.77555317552099e+002°)
5.05048788109766e+003	(5.08750624270227e+001dB,1.77536491764465e+002°)
5.08940095151816e+003	(5.08749867113521e+001dB,1.77517521161217e+002°)
5.12861383991372e+003	(5.08749098256034e+001dB,1.77498404632010e+002°)
5.16812885632611e+003	(5.08748317517128e+001dB,1.77479141058073e+002°)
5.20794832859554e+003	(5.08747524713387e+001dB,1.77459729312140e+002°)
5.24807460249780e+003	(5.08746719658567e+001dB,1.77440168258396e+002°)
5.28851004188245e+003	(5.08745902163555e+001dB,1.77420456752407e+002°)
5.32925702881208e+003	(5.08745072036322e+001dB,1.77400593641062e+002°)
5.37031796370260e+003	(5.08744229081885e+001dB,1.77380577762504e+002°)
5.41169526546471e+003	(5.08743373102254e+001dB,1.77360407946074e+002°)
5.45339137164635e+003	(5.08742503896403e+001dB,1.77340083012236e+002°)
5.49540873857633e+003	(5.08741621260190e+001dB,1.77319601772521e+002°)
5.53774984150898e+003	(5.08740724986342e+001dB,1.77298963029458e+002°)
5.58041717477005e+003	(5.08739814864392e+001dB,1.77278165576506e+002°)
5.62341325190357e+003	(5.08738890680636e+001dB,1.77257208197995e+002°)
5.66674060582000e+003	(5.08737952218078e+001dB,1.77236089669049e+002°)
5.71040178894535e+003	(5.08736999256375e+001dB,1.77214808755530e+002°)
5.75439937337165e+003	(5.08736031571800e+001dB,1.77193364213962e+002°)
5.79873595100840e+003	(5.08735048937184e+001dB,1.77171754791466e+002°)
5.84341413373526e+003	(5.08734051121854e+001dB,1.77149979225695e+002°)
5.88843655355598e+003	(5.08733037891594e+001dB,1.77128036244759e+002°)
5.93380586275337e+003	(5.08732009008581e+001dB,1.77105924567162e+002°)
5.97952473404561e+003	(5.08730964231335e+001dB,1.77083642901726e+002°)
6.02559586074367e+003	(5.08729903314659e+001dB,1.77061189947529e+002°)
6.07202195690998e+003	(5.08728826009578e+001dB,1.77038564393825e+002°)
6.11880575751831e+003	(5.08727732063300e+001dB,1.77015764919981e+002°)
6.16595001861492e+003	(5.08726621219136e+001dB,1.76992790195404e+002°)
6.21345751748085e+003	(5.08725493216449e+001dB,1.76969638879463e+002°)
6.26133105279562e+003	(5.08724347790600e+001dB,1.76946309621426e+002°)
6.30957344480203e+003	(5.08723184672873e+001dB,1.76922801060381e+002°)
6.35818753547233e+003	(5.08722003590424e+001dB,1.76899111825166e+002°)
6.40717618867564e+003	(5.08720804266214e+001dB,1.76875240534294e+002°)
6.45654229034666e+003	(5.08719586418949e+001dB,1.76851185795877e+002°)
6.50628874865568e+003	(5.08718349762997e+001dB,1.76826946207558e+002°)
6.55641849417989e+003	(5.08717094008359e+001dB,1.76802520356428e+002°)
6.60693448007607e+003	(5.08715818860557e+001dB,1.76777906818957e+002°)
6.65783968225447e+003	(5.08714524020603e+001dB,1.76753104160915e+002°)
6.70913709955422e+003	(5.08713209184907e+001dB,1.76728110937298e+002°)
6.76082975391993e+003	(5.08711874045216e+001dB,1.76702925692247e+002°)
6.81292069057972e+003	(5.08710518288545e+001dB,1.76677546958977e+002°)
6.86541297822466e+003	(5.08709141597100e+001dB,1.76651973259695e+002°)
6.91830970918948e+003	(5.08707743648200e+001dB,1.76626203105524e+002°)
6.97161399963479e+003	(5.08706324114220e+001dB,1.76600234996423e+002°)
7.02532898973064e+003	(5.08704882662493e+001dB,1.76574067421109e+002°)
7.07945784384150e+003	(5.08703418955253e+001dB,1.76547698856979e+002°)
7.13400375071268e+003	(5.08701932649547e+001dB,1.76521127770028e+002°)
7.18896992365819e+003	(5.08700423397151e+001dB,1.76494352614770e+002°)
7.24435960075002e+003	(5.08698890844507e+001dB,1.76467371834158e+002°)
7.30017604500890e+003	(5.08697334632623e+001dB,1.76440183859500e+002°)
7.35642254459654e+003	(5.08695754397002e+001dB,1.76412787110381e+002°)
7.41310241300930e+003	(5.08694149767556e+001dB,1.76385179994580e+002°)
7.47021898927344e+003	(5.08692520368515e+001dB,1.76357360907986e+002°)
7.52777563814179e+003	(5.08690865818353e+001dB,1.76329328234517e+002°)
7.58577575029197e+003	(5.08689185729683e+001dB,1.76301080346036e+002°)
7.64422274252613e+003	(5.08687479709188e+001dB,1.76272615602266e+002°)
7.70312005797228e+003	(5.08685747357516e+001dB,1.76243932350708e+002°)
7.76247116628705e+003	(5.08683988269185e+001dB,1.76215028926557e+002°)
7.82227956386016e+003	(5.08682202032518e+001dB,1.76185903652613e+002°)
7.88254877402035e+003	(5.08680388229500e+001dB,1.76156554839199e+002°)
7.94328234724295e+003	(5.08678546435741e+001dB,1.76126980784076e+002°)
8.00448386135906e+003	(5.08676676220330e+001dB,1.76097179772352e+002°)
8.06615692176628e+003	(5.08674777145759e+001dB,1.76067150076400e+002°)
8.12830516164114e+003	(5.08672848767820e+001dB,1.76036889955768e+002°)
8.19093224215312e+003	(5.08670890635497e+001dB,1.76006397657092e+002°)
8.25404185268033e+003	(5.08668902290881e+001dB,1.75975671414011e+002°)
8.31763771102686e+003	(5.08666883269040e+001dB,1.75944709447074e+002°)
8.38172356364177e+003	(5.08664833097929e+001dB,1.75913509963653e+002°)
8.44630318583984e+003	(5.08662751298279e+001dB,1.75882071157854e+002°)
8.51138038202392e+003	(5.08660637383491e+001dB,1.75850391210428e+002°)
8.57695898590910e+003	(5.08658490859514e+001dB,1.75818468288681e+002°)
