Freq.	V(vo)/V(Vi)
1.00000000000000e+000	(-7.78119026355160e-005dB,-1.79970034277927e+002°)
1.02329299228075e+000	(-7.77208217456182e-005dB,-1.79969336286840e+002°)
1.04712854805090e+000	(-7.76254483450694e-005dB,-1.79968622037470e+002°)
1.07151930523761e+000	(-7.75255801394469e-005dB,-1.79967891151113e+002°)
1.09647819614318e+000	(-7.74210052922387e-005dB,-1.79967143240247e+002°)
1.12201845430196e+000	(-7.73115019908939e-005dB,-1.79966377908320e+002°)
1.14815362149688e+000	(-7.71968379492272e-005dB,-1.79965594749545e+002°)
1.17489755493953e+000	(-7.70767699753986e-005dB,-1.79964793348684e+002°)
1.20226443461741e+000	(-7.69510433692052e-005dB,-1.79963973280825e+002°)
1.23026877081238e+000	(-7.68193914466662e-005dB,-1.79963134111161e+002°)
1.25892541179417e+000	(-7.66815349681744e-005dB,-1.79962275394755e+002°)
1.28824955169313e+000	(-7.65371815203595e-005dB,-1.79961396676307e+002°)
1.31825673855641e+000	(-7.63860249037382e-005dB,-1.79960497489912e+002°)
1.34896288259165e+000	(-7.62277445039704e-005dB,-1.79959577358813e+002°)
1.38038426460288e+000	(-7.60620045811478e-005dB,-1.79958635795147e+002°)
1.41253754462275e+000	(-7.58884535812620e-005dB,-1.79957672299690e+002°)
1.44543977074593e+000	(-7.57067233869201e-005dB,-1.79956686361586e+002°)
1.47910838816821e+000	(-7.55164285159871e-005dB,-1.79955677458084e+002°)
1.51356124843621e+000	(-7.53171653289066e-005dB,-1.79954645054253e+002°)
1.54881661891248e+000	(-7.51085111646629e-005dB,-1.79953588602704e+002°)
1.58489319246111e+000	(-7.48900234333470e-005dB,-1.79952507543299e+002°)
1.62181009735893e+000	(-7.46612387289752e-005dB,-1.79951401302851e+002°)
1.65958690743756e+000	(-7.44216717137608e-005dB,-1.79950269294823e+002°)
1.69824365246174e+000	(-7.41708142859009e-005dB,-1.79949110919015e+002°)
1.73780082874937e+000	(-7.39081343124493e-005dB,-1.79947925561249e+002°)
1.77827941003892e+000	(-7.36330746389540e-005dB,-1.79946712593040e+002°)
1.81970085860998e+000	(-7.33450518088313e-005dB,-1.79945471371264e+002°)
1.86208713666287e+000	(-7.30434548965321e-005dB,-1.79944201237817e+002°)
1.90546071796325e+000	(-7.27276441815950e-005dB,-1.79942901519268e+002°)
1.94984459975804e+000	(-7.23969497696613e-005dB,-1.79941571526499e+002°)
1.99526231496888e+000	(-7.20506702559228e-005dB,-1.79940210554340e+002°)
2.04173794466953e+000	(-7.16880711108428e-005dB,-1.79938817881197e+002°)
2.08929613085404e+000	(-7.13083832153509e-005dB,-1.79937392768669e+002°)
2.13796208950223e+000	(-7.09108012099222e-005dB,-1.79935934461156e+002°)
2.18776162394955e+000	(-7.04944817771214e-005dB,-1.79934442185457e+002°)
2.23872113856834e+000	(-7.00585418508575e-005dB,-1.79932915150365e+002°)
2.29086765276777e+000	(-6.96020567513899e-005dB,-1.79931352546239e+002°)
2.34422881531992e+000	(-6.91240582017215e-005dB,-1.79929753544585e+002°)
2.39883291901949e+000	(-6.86235323304970e-005dB,-1.79928117297610e+002°)
2.45470891568503e+000	(-6.80994174396043e-005dB,-1.79926442937773e+002°)
2.51188643150958e+000	(-6.75506018431430e-005dB,-1.79924729577328e+002°)
2.57039578276886e+000	(-6.69759214199875e-005dB,-1.79922976307851e+002°)
2.63026799189538e+000	(-6.63741572126443e-005dB,-1.79921182199761e+002°)
2.69153480392691e+000	(-6.57440328091385e-005dB,-1.79919346301824e+002°)
2.75422870333816e+000	(-6.50842116217213e-005dB,-1.79917467640650e+002°)
2.81838293126445e+000	(-6.43932941202615e-005dB,-1.79915545220179e+002°)
2.88403150312660e+000	(-6.36698147724840e-005dB,-1.79913578021150e+002°)
2.95120922666638e+000	(-6.29122390102544e-005dB,-1.79911565000563e+002°)
3.01995172040201e+000	(-6.21189599017484e-005dB,-1.79909505091125e+002°)
3.09029543251359e+000	(-6.12882948390598e-005dB,-1.79907397200685e+002°)
3.16227766016837e+000	(-6.04184818796222e-005dB,-1.79905240211653e+002°)
3.23593656929628e+000	(-5.95076760403886e-005dB,-1.79903032980412e+002°)
3.31131121482591e+000	(-5.85539454145856e-005dB,-1.79900774336706e+002°)
3.38844156139202e+000	(-5.75552670473961e-005dB,-1.79898463083026e+002°)
3.46736850452531e+000	(-5.65095225985390e-005dB,-1.79896097993971e+002°)
3.54813389233575e+000	(-5.54144939662900e-005dB,-1.79893677815598e+002°)
3.63078054770101e+000	(-5.42678584650332e-005dB,-1.79891201264763e+002°)
3.71535229097172e+000	(-5.30671839488284e-005dB,-1.79888667028434e+002°)
3.80189396320560e+000	(-5.18099237025935e-005dB,-1.79886073762999e+002°)
3.89045144994280e+000	(-5.04934109147896e-005dB,-1.79883420093555e+002°)
3.98107170553496e+000	(-4.91148531366284e-005dB,-1.79880704613175e+002°)
4.07380277804112e+000	(-4.76713263198935e-005dB,-1.79877925882168e+002°)
4.16869383470335e+000	(-4.61597686002063e-005dB,-1.79875082427311e+002°)
4.26579518801592e+000	(-4.45769738267049e-005dB,-1.79872172741070e+002°)
4.36515832240165e+000	(-4.29195847349550e-005dB,-1.79869195280805e+002°)
4.46683592150962e+000	(-4.11840858614571e-005dB,-1.79866148467946e+002°)
4.57088189614874e+000	(-3.93667960493206e-005dB,-1.79863030687161e+002°)
4.67735141287197e+000	(-3.74638606820412e-005dB,-1.79859840285501e+002°)
4.78630092322637e+000	(-3.54712434650577e-005dB,-1.79856575571518e+002°)
4.89778819368445e+000	(-3.33847178862419e-005dB,-1.79853234814378e+002°)
5.01187233627271e+000	(-3.11998582695018e-005dB,-1.79849816242936e+002°)
5.12861383991364e+000	(-2.89120303588219e-005dB,-1.79846318044803e+002°)
5.24807460249771e+000	(-2.65163815050724e-005dB,-1.79842738365382e+002°)
5.37031796370252e+000	(-2.40078303418036e-005dB,-1.79839075306888e+002°)
5.49540873857623e+000	(-2.13810560898614e-005dB,-1.79835326927343e+002°)
5.62341325190348e+000	(-1.86304871841741e-005dB,-1.79831491239546e+002°)
5.75439937337156e+000	(-1.57502894676622e-005dB,-1.79827566210023e+002°)
5.88843655355588e+000	(-1.27343539059921e-005dB,-1.79823549757944e+002°)
6.02559586074356e+000	(-9.57628352617108e-006dB,-1.79819439754030e+002°)
6.16595001861481e+000	(-6.26937987215449e-006dB,-1.79815234019417e+002°)
6.30957344480192e+000	(-2.80662887332867e-006dB,-1.79810930324508e+002°)
6.45654229034654e+000	(8.19314131589471e-007dB,-1.79806526387790e+002°)
6.60693448007594e+000	(4.61613991531414e-006dB,-1.79802019874626e+002°)
6.76082975391980e+000	(8.59190166462034e-006dB,-1.79797408396020e+002°)
6.91830970918935e+000	(1.27550320918228e-005dB,-1.79792689507350e+002°)
7.07945784384136e+000	(1.71143613184381e-005dB,-1.79787860707079e+002°)
7.24435960074988e+000	(2.16791355454705e-005dB,-1.79782919435424e+002°)
7.41310241300916e+000	(2.64590367455928e-005dB,-1.79777863073007e+002°)
7.58577575029182e+000	(3.14642031361092e-005dB,-1.79772688939466e+002°)
7.76247116628690e+000	(3.67052506795390e-005dB,-1.79767394292037e+002°)
7.94328234724279e+000	(4.21932956445723e-005dB,-1.79761976324104e+002°)
8.12830516164097e+000	(4.79399781116411e-005dB,-1.79756432163713e+002°)
8.31763771102669e+000	(5.39574866815033e-005dB,-1.79750758872050e+002°)
8.51138038202374e+000	(6.02585843867950e-005dB,-1.79744953441895e+002°)
8.70963589956078e+000	(6.68566356444939e-005dB,-1.79739012796020e+002°)
8.91250938133743e+000	(7.37656346928284e-005dB,-1.79732933785571e+002°)
9.12010839355907e+000	(8.10002351712024e-005dB,-1.79726713188399e+002°)
9.33254300796988e+000	(8.85757812924440e-005dB,-1.79720347707356e+002°)
9.54992586021433e+000	(9.65083402910090e-005dB,-1.79713833968554e+002°)
9.77237220955808e+000	(1.04814736563646e-004dB,-1.79707168519580e+002°)
9.99999999999997e+000	(1.13512587290288e-004dB,-1.79700347827673e+002°)
1.02329299228075e+001	(1.22620339783867e-004dB,-1.79693368277855e+002°)
1.04712854805090e+001	(1.32157310665382e-004dB,-1.79686226171024e+002°)
1.07151930523760e+001	(1.42143726748391e-004dB,-1.79678917722000e+002°)
1.09647819614318e+001	(1.52600767968371e-004dB,-1.79671439057521e+002°)
1.12201845430196e+001	(1.63550612243043e-004dB,-1.79663786214206e+002°)
1.14815362149688e+001	(1.75016482537347e-004dB,-1.79655955136454e+002°)
1.17489755493953e+001	(1.87022696077007e-004dB,-1.79647941674311e+002°)
1.20226443461741e+001	(1.99594715891756e-004dB,-1.79639741581276e+002°)
1.23026877081238e+001	(2.12759204788352e-004dB,-1.79631350512059e+002°)
1.25892541179416e+001	(2.26544081897784e-004dB,-1.79622764020293e+002°)
1.28824955169313e+001	(2.40978581848512e-004dB,-1.79613977556189e+002°)
1.31825673855640e+001	(2.56093316685063e-004dB,-1.79604986464135e+002°)
1.34896288259165e+001	(2.71920340844116e-004dB,-1.79595785980242e+002°)
1.38038426460288e+001	(2.88493219031559e-004dB,-1.79586371229836e+002°)
1.41253754462275e+001	(3.05847097382025e-004dB,-1.79576737224891e+002°)
1.44543977074592e+001	(3.24018777944901e-004dB,-1.79566878861399e+002°)
1.47910838816820e+001	(3.43046796666099e-004dB,-1.79556790916687e+002°)
1.51356124843620e+001	(3.62971505083078e-004dB,-1.79546468046665e+002°)
1.54881661891248e+001	(3.83835155829042e-004dB,-1.79535904783017e+002°)
1.58489319246111e+001	(4.05681992142488e-004dB,-1.79525095530326e+002°)
1.62181009735892e+001	(4.28558341643796e-004dB,-1.79514034563132e+002°)
1.65958690743755e+001	(4.52512714490052e-004dB,-1.79502716022922e+002°)
1.69824365246174e+001	(4.77595906133044e-004dB,-1.79491133915057e+002°)
1.73780082874937e+001	(5.03861104999772e-004dB,-1.79479282105621e+002°)
1.77827941003892e+001	(5.31364005084974e-004dB,-1.79467154318206e+002°)
1.81970085860998e+001	(5.60162923994715e-004dB,-1.79454744130617e+002°)
1.86208713666286e+001	(5.90318926488212e-004dB,-1.79442044971509e+002°)
1.90546071796324e+001	(6.21895953738537e-004dB,-1.79429050116940e+002°)
1.94984459975804e+001	(6.54960958868314e-004dB,-1.79415752686855e+002°)
1.99526231496887e+001	(6.89584048660661e-004dB,-1.79402145641483e+002°)
2.04173794466952e+001	(7.25838632072599e-004dB,-1.79388221777656e+002°)
2.08929613085403e+001	(7.63801575637984e-004dB,-1.79373973725044e+002°)
2.13796208950222e+001	(8.03553366274998e-004dB,-1.79359393942308e+002°)
2.18776162394954e+001	(8.45178281631232e-004dB,-1.79344474713161e+002°)
2.23872113856833e+001	(8.88764568542718e-004dB,-1.79329208142345e+002°)
2.29086765276776e+001	(9.34404629837907e-004dB,-1.79313586151520e+002°)
2.34422881531991e+001	(9.82195219840737e-004dB,-1.79297600475053e+002°)
2.39883291901948e+001	(1.03223764926805e-003dB,-1.79281242655722e+002°)
2.45470891568502e+001	(1.08463799949314e-003dB,-1.79264504040320e+002°)
2.51188643150957e+001	(1.13950734704951e-003dB,-1.79247375775159e+002°)
2.57039578276885e+001	(1.19696199868719e-003dB,-1.79229848801482e+002°)
2.63026799189537e+001	(1.25712373731517e-003dB,-1.79211913850765e+002°)
2.69153480392690e+001	(1.32012007966407e-003dB,-1.79193561439921e+002°)
2.75422870333815e+001	(1.38608454590534e-003dB,-1.79174781866399e+002°)
2.81838293126444e+001	(1.45515694203711e-003dB,-1.79155565203171e+002°)
2.88403150312659e+001	(1.52748365544535e-003dB,-1.79135901293613e+002°)
2.95120922666637e+001	(1.60321796437444e-003dB,-1.79115779746275e+002°)
3.01995172040200e+001	(1.68252036183972e-003dB,-1.79095189929534e+002°)
3.09029543251358e+001	(1.76555889489411e-003dB,-1.79074120966137e+002°)
3.16227766016837e+001	(1.85250951951783e-003dB,-1.79052561727619e+002°)
3.23593656929627e+001	(1.94355647253911e-003dB,-1.79030500828610e+002°)
3.31131121482590e+001	(2.03889266055622e-003dB,-1.79007926621011e+002°)
3.38844156139201e+001	(2.13872006737666e-003dB,-1.78984827188055e+002°)
3.46736850452530e+001	(2.24325018047405e-003dB,-1.78961190338234e+002°)
3.54813389233574e+001	(2.35270443731092e-003dB,-1.78937003599106e+002°)
3.63078054770100e+001	(2.46731469261550e-003dB,-1.78912254210967e+002°)
3.71535229097171e+001	(2.58732370762179e-003dB,-1.78886929120391e+002°)
3.80189396320559e+001	(2.71298566200705e-003dB,-1.78861014973639e+002°)
3.89045144994279e+001	(2.84456668986629e-003dB,-1.78834498109931e+002°)
3.98107170553495e+001	(2.98234544078972e-003dB,-1.78807364554577e+002°)
4.07380277804111e+001	(3.12661366703742e-003dB,-1.78779600011976e+002°)
4.16869383470333e+001	(3.27767683821607e-003dB,-1.78751189858468e+002°)
4.26579518801591e+001	(3.43585478459564e-003dB,-1.78722119135041e+002°)
4.36515832240164e+001	(3.60148237050030e-003dB,-1.78692372539899e+002°)
4.46683592150961e+001	(3.77491019909853e-003dB,-1.78661934420881e+002°)
4.57088189614873e+001	(3.95650534996057e-003dB,-1.78630788767730e+002°)
4.67735141287196e+001	(4.14665215107724e-003dB,-1.78598919204219e+002°)
4.78630092322636e+001	(4.34575298682012e-003dB,-1.78566308980118e+002°)
4.89778819368444e+001	(4.55422914342873e-003dB,-1.78532940963013e+002°)
5.01187233627270e+001	(4.77252169389451e-003dB,-1.78498797629979e+002°)
5.12861383991362e+001	(5.00109242396184e-003dB,-1.78463861059085e+002°)
5.24807460249770e+001	(5.24042480107233e-003dB,-1.78428112920760e+002°)
5.37031796370250e+001	(5.49102498842886e-003dB,-1.78391534468992e+002°)
5.49540873857622e+001	(5.75342290591176e-003dB,-1.78354106532378e+002°)
5.62341325190346e+001	(6.02817334035785e-003dB,-1.78315809505019e+002°)
5.75439937337154e+001	(6.31585710711385e-003dB,-1.78276623337254e+002°)
5.88843655355586e+001	(6.61708226539431e-003dB,-1.78236527526250e+002°)
6.02559586074355e+001	(6.93248538985478e-003dB,-1.78195501106424e+002°)
6.16595001861479e+001	(7.26273290085159e-003dB,-1.78153522639726e+002°)
6.30957344480190e+001	(7.60852245609782e-003dB,-1.78110570205758e+002°)
6.45654229034652e+001	(7.97058440652826e-003dB,-1.78066621391754e+002°)
6.60693448007593e+001	(8.34968331912707e-003dB,-1.78021653282401e+002°)
6.76082975391978e+001	(8.74661956985183e-003dB,-1.77975642449526e+002°)
6.91830970918933e+001	(9.16223100975284e-003dB,-1.77928564941633e+002°)
7.07945784384134e+001	(9.59739470753392e-003dB,-1.77880396273305e+002°)
7.24435960074986e+001	(1.00530287719595e-002dB,-1.77831111414469e+002°)
7.41310241300914e+001	(1.05300942577003e-002dB,-1.77780684779537e+002°)
7.58577575029180e+001	(1.10295971583213e-002dB,-1.77729090216412e+002°)
7.76247116628688e+001	(1.15525904901133e-002dB,-1.77676300995390e+002°)
7.94328234724277e+001	(1.21001764709814e-002dB,-1.77622289797941e+002°)
8.12830516164095e+001	(1.26735087984210e-002dB,-1.77567028705386e+002°)
8.31763771102667e+001	(1.32737950309502e-002dB,-1.77510489187487e+002°)
8.51138038202372e+001	(1.39022990774996e-002dB,-1.77452642090945e+002°)
8.70963589956076e+001	(1.45603437993553e-002dB,-1.77393457627824e+002°)
8.91250938133741e+001	(1.52493137298059e-002dB,-1.77332905363915e+002°)
9.12010839355905e+001	(1.59706579161388e-002dB,-1.77270954207047e+002°)
9.33254300796986e+001	(1.67258928894870e-002dB,-1.77207572395363e+002°)
9.54992586021431e+001	(1.75166057679558e-002dB,-1.77142727485578e+002°)
9.77237220955805e+001	(1.83444574986220e-002dB,-1.77076386341225e+002°)
9.99999999999995e+001	(1.92111862441452e-002dB,-1.77008515120930e+002°)
1.02329299228075e+002	(2.01186109202887e-002dB,-1.76939079266707e+002°)
1.04712854805089e+002	(2.10686348903782e-002dB,-1.76868043492322e+002°)
1.07151930523760e+002	(2.20632498234135e-002dB,-1.76795371771734e+002°)
1.09647819614318e+002	(2.31045397222550e-002dB,-1.76721027327641e+002°)
1.12201845430196e+002	(2.41946851291667e-002dB,-1.76644972620163e+002°)
1.14815362149688e+002	(2.53359675155146e-002dB,-1.76567169335697e+002°)
1.17489755493952e+002	(2.65307738633725e-002dB,-1.76487578375962e+002°)
1.20226443461741e+002	(2.77816014462221e-002dB,-1.76406159847282e+002°)
1.23026877081237e+002	(2.90910628170137e-002dB,-1.76322873050150e+002°)
1.25892541179416e+002	(3.04618910113100e-002dB,-1.76237676469094e+002°)
1.28824955169313e+002	(3.18969449740364e-002dB,-1.76150527762918e+002°)
1.31825673855640e+002	(3.33992152181252e-002dB,-1.76061383755339e+002°)
1.34896288259165e+002	(3.49718297240362e-002dB,-1.75970200426094e+002°)
1.38038426460288e+002	(3.66180600887574e-002dB,-1.75876932902557e+002°)
1.41253754462275e+002	(3.83413279337541e-002dB,-1.75781535451943e+002°)
1.44543977074592e+002	(4.01452115809458e-002dB,-1.75683961474139e+002°)
1.47910838816820e+002	(4.20334530061977e-002dB,-1.75584163495261e+002°)
1.51356124843620e+002	(4.40099650802578e-002dB,-1.75482093161984e+002°)
1.54881661891247e+002	(4.60788391065735e-002dB,-1.75377701236747e+002°)
1.58489319246110e+002	(4.82443526661548e-002dB,-1.75270937593899e+002°)
1.62181009735892e+002	(5.05109777795370e-002dB,-1.75161751216889e+002°)
1.65958690743755e+002	(5.28833893957271e-002dB,-1.75050090196598e+002°)
1.69824365246173e+002	(5.53664742185941e-002dB,-1.74935901730902e+002°)
1.73780082874936e+002	(5.79653398805986e-002dB,-1.74819132125599e+002°)
1.77827941003891e+002	(6.06853244742171e-002dB,-1.74699726796798e+002°)
1.81970085860997e+002	(6.35320064510430e-002dB,-1.74577630274901e+002°)
1.86208713666286e+002	(6.65112148984364e-002dB,-1.74452786210325e+002°)
1.90546071796323e+002	(6.96290402037466e-002dB,-1.74325137381082e+002°)
1.94984459975803e+002	(7.28918451154399e-002dB,-1.74194625702391e+002°)
1.99526231496887e+002	(7.63062762104913e-002dB,-1.74061192238461e+002°)
2.04173794466952e+002	(7.98792757769201e-002dB,-1.73924777216635e+002°)
2.08929613085403e+002	(8.36180941198830e-002dB,-1.73785320044059e+002°)
2.13796208950222e+002	(8.75303022993164e-002dB,-1.73642759327075e+002°)
2.18776162394954e+002	(9.16238053061656e-002dB,-1.73497032893532e+002°)
2.23872113856832e+002	(9.59068556840102e-002dB,-1.73348077818234e+002°)
2.29086765276776e+002	(1.00388067601396e-001dB,-1.73195830451749e+002°)
2.34422881531991e+002	(1.05076431379948e-001dB,-1.73040226452806e+002°)
2.39883291901947e+002	(1.09981328481308e-001dB,-1.72881200824537e+002°)
2.45470891568501e+002	(1.15112546955672e-001dB,-1.72718687954826e+002°)
2.51188643150956e+002	(1.20480297352315e-001dB,-1.72552621661026e+002°)
2.57039578276885e+002	(1.26095229091661e-001dB,-1.72382935239352e+002°)
2.63026799189536e+002	(1.31968447296150e-001dB,-1.72209561519229e+002°)
2.69153480392690e+002	(1.38111530075362e-001dB,-1.72032432922922e+002°)
2.75422870333815e+002	(1.44536546258806e-001dB,-1.71851481530772e+002°)
2.81838293126443e+002	(1.51256073566981e-001dB,-1.71666639152381e+002°)
2.88403150312659e+002	(1.58283217209050e-001dB,-1.71477837404094e+002°)
2.95120922666637e+002	(1.65631628892334e-001dB,-1.71285007793152e+002°)
3.01995172040200e+002	(1.73315526225661e-001dB,-1.71088081808895e+002°)
3.09029543251357e+002	(1.81349712495319e-001dB,-1.70886991021404e+002°)
3.16227766016836e+002	(1.89749596788399e-001dB,-1.70681667187995e+002°)
3.23593656929626e+002	(1.98531214434431e-001dB,-1.70472042367967e+002°)
3.31131121482589e+002	(2.07711247731754e-001dB,-1.70258049046046e+002°)
3.38844156139200e+002	(2.17307046920609e-001dB,-1.70039620264940e+002°)
3.46736850452529e+002	(2.27336651359555e-001dB,-1.69816689767467e+002°)
3.54813389233573e+002	(2.37818810856917e-001dB,-1.69589192148684e+002°)
3.63078054770099e+002	(2.48773007103022e-001dB,-1.69357063018486e+002°)
3.71535229097170e+002	(2.60219475143029e-001dB,-1.69120239175109e+002°)
3.80189396320558e+002	(2.72179224824047e-001dB,-1.68878658790007e+002°)
3.89045144994278e+002	(2.84674062143292e-001dB,-1.68632261604536e+002°)
3.98107170553494e+002	(2.97726610417400e-001dB,-1.68380989138902e+002°)
4.07380277804110e+002	(3.11360331185593e-001dB,-1.68124784913783e+002°)
4.16869383470332e+002	(3.25599544751990e-001dB,-1.67863594685064e+002°)
4.26579518801589e+002	(3.40469450264758e-001dB,-1.67597366692073e+002°)
4.36515832240163e+002	(3.55996145221815e-001dB,-1.67326051919688e+002°)
4.46683592150960e+002	(3.72206644284824e-001dB,-1.67049604374679e+002°)
4.57088189614872e+002	(3.89128897275242e-001dB,-1.66767981376582e+002°)
4.67735141287195e+002	(4.06791806217976e-001dB,-1.66481143863388e+002°)
4.78630092322635e+002	(4.25225241290437e-001dB,-1.66189056712287e+002°)
4.89778819368443e+002	(4.44460055526619e-001dB,-1.65891689075620e+002°)
5.01187233627268e+002	(4.64528098118793e-001dB,-1.65589014732188e+002°)
5.12861383991361e+002	(4.85462226151688e-001dB,-1.65281012453953e+002°)
5.24807460249769e+002	(5.07296314597980e-001dB,-1.64967666388121e+002°)
5.37031796370249e+002	(5.30065264397329e-001dB,-1.64648966454510e+002°)
5.49540873857620e+002	(5.53805008436792e-001dB,-1.64324908758014e+002°)
5.62341325190345e+002	(5.78552515245398e-001dB,-1.63995496015898e+002°)
