Freq.	V(vo)/V(Vi)
1.00000000000000e+000	(-7.97399941935230e-005dB,1.79999964558907e+002°)
1.02329299228075e+000	(-7.97397814657526e-005dB,1.79999963733362e+002°)
1.04712854805090e+000	(-7.97395587127418e-005dB,1.79999962888588e+002°)
1.07151930523761e+000	(-7.97393254716093e-005dB,1.79999962024135e+002°)
1.09647819614318e+000	(-7.97390812409000e-005dB,1.79999961139545e+002°)
1.12201845430196e+000	(-7.97388254931221e-005dB,1.79999960234348e+002°)
1.14815362149688e+000	(-7.97385577017479e-005dB,1.79999959308066e+002°)
1.17489755493953e+000	(-7.97382772910686e-005dB,1.79999958360207e+002°)
1.20226443461741e+000	(-7.97379836738034e-005dB,1.79999957390267e+002°)
1.23026877081238e+000	(-7.97376762183121e-005dB,1.79999956397732e+002°)
1.25892541179417e+000	(-7.97373542784893e-005dB,1.79999955382077e+002°)
1.28824955169313e+000	(-7.97370171706205e-005dB,1.79999954342762e+002°)
1.31825673855641e+000	(-7.97366641849543e-005dB,1.79999953279236e+002°)
1.34896288259165e+000	(-7.97362945760585e-005dB,1.79999952190936e+002°)
1.38038426460288e+000	(-7.97359075464272e-005dB,1.79999951077282e+002°)
1.41253754462275e+000	(-7.97355022956612e-005dB,1.79999949937686e+002°)
1.44543977074593e+000	(-7.97350779336780e-005dB,1.79999948771543e+002°)
1.47910838816821e+000	(-7.97346335954680e-005dB,1.79999947578234e+002°)
1.51356124843621e+000	(-7.97341683234452e-005dB,1.79999946357125e+002°)
1.54881661891248e+000	(-7.97336811417012e-005dB,1.79999945107570e+002°)
1.58489319246111e+000	(-7.97331710058599e-005dB,1.79999943828905e+002°)
1.62181009735893e+000	(-7.97326368377932e-005dB,1.79999942520452e+002°)
1.65958690743756e+000	(-7.97320775179068e-005dB,1.79999941181518e+002°)
1.69824365246174e+000	(-7.97314918427087e-005dB,1.79999939811390e+002°)
1.73780082874937e+000	(-7.97308785971353e-005dB,1.79999938409344e+002°)
1.77827941003892e+000	(-7.97302364667963e-005dB,1.79999936974634e+002°)
1.81970085860998e+000	(-7.97295640919773e-005dB,1.79999935506500e+002°)
1.86208713666287e+000	(-7.97288600531753e-005dB,1.79999934004163e+002°)
1.90546071796325e+000	(-7.97281228547048e-005dB,1.79999932466826e+002°)
1.94984459975804e+000	(-7.97273509526633e-005dB,1.79999930893672e+002°)
1.99526231496888e+000	(-7.97265426883923e-005dB,1.79999929283867e+002°)
2.04173794466953e+000	(-7.97256963771963e-005dB,1.79999927636558e+002°)
2.08929613085404e+000	(-7.97248102090160e-005dB,1.79999925950869e+002°)
2.13796208950223e+000	(-7.97238823246110e-005dB,1.79999924225906e+002°)
2.18776162394955e+000	(-7.97229107567353e-005dB,1.79999922460754e+002°)
2.23872113856834e+000	(-7.97218934532812e-005dB,1.79999920654475e+002°)
2.29086765276777e+000	(-7.97208282560640e-005dB,1.79999918806112e+002°)
2.34422881531992e+000	(-7.97197129056437e-005dB,1.79999916914683e+002°)
2.39883291901949e+000	(-7.97185450702552e-005dB,1.79999914979183e+002°)
2.45470891568503e+000	(-7.97173222628750e-005dB,1.79999912998587e+002°)
2.51188643150958e+000	(-7.97160419058324e-005dB,1.79999910971841e+002°)
2.57039578276886e+000	(-7.97147012854848e-005dB,1.79999908897871e+002°)
2.63026799189538e+000	(-7.97132975811486e-005dB,1.79999906775575e+002°)
2.69153480392691e+000	(-7.97118278236323e-005dB,1.79999904603826e+002°)
2.75422870333816e+000	(-7.97102889164520e-005dB,1.79999902381470e+002°)
2.81838293126445e+000	(-7.97086776078657e-005dB,1.79999900107329e+002°)
2.88403150312660e+000	(-7.97069904850873e-005dB,1.79999897780194e+002°)
2.95120922666638e+000	(-7.97052240041807e-005dB,1.79999895398828e+002°)
3.01995172040201e+000	(-7.97033744273786e-005dB,1.79999892961968e+002°)
3.09029543251359e+000	(-7.97014378790132e-005dB,1.79999890468319e+002°)
3.16227766016837e+000	(-7.96994102490833e-005dB,1.79999887916555e+002°)
3.23593656929628e+000	(-7.96972872713651e-005dB,1.79999885305322e+002°)
3.31131121482591e+000	(-7.96950644858032e-005dB,1.79999882633231e+002°)
3.38844156139202e+000	(-7.96927371893295e-005dB,1.79999879898863e+002°)
3.46736850452531e+000	(-7.96903004937233e-005dB,1.79999877100764e+002°)
3.54813389233575e+000	(-7.96877492783588e-005dB,1.79999874237448e+002°)
3.63078054770101e+000	(-7.96850781574178e-005dB,1.79999871307392e+002°)
3.71535229097172e+000	(-7.96822815290708e-005dB,1.79999868309038e+002°)
3.80189396320560e+000	(-7.96793535050805e-005dB,1.79999865240792e+002°)
3.89045144994280e+000	(-7.96762879368386e-005dB,1.79999862101023e+002°)
3.98107170553496e+000	(-7.96730783738996e-005dB,1.79999858888060e+002°)
4.07380277804112e+000	(-7.96697180977326e-005dB,1.79999855600195e+002°)
4.16869383470335e+000	(-7.96662000455388e-005dB,1.79999852235678e+002°)
4.26579518801592e+000	(-7.96625168333950e-005dB,1.79999848792720e+002°)
4.36515832240165e+000	(-7.96586607466111e-005dB,1.79999845269487e+002°)
4.46683592150962e+000	(-7.96546237059777e-005dB,1.79999841664104e+002°)
4.57088189614874e+000	(-7.96503972494439e-005dB,1.79999837974653e+002°)
4.67735141287197e+000	(-7.96459725407964e-005dB,1.79999834199168e+002°)
4.78630092322637e+000	(-7.96413403310859e-005dB,1.79999830335638e+002°)
4.89778819368445e+000	(-7.96364909229469e-005dB,1.79999826382007e+002°)
5.01187233627271e+000	(-7.96314141956702e-005dB,1.79999822336166e+002°)
5.12861383991364e+000	(-7.96260995560219e-005dB,1.79999818195961e+002°)
5.24807460249771e+000	(-7.96205359334216e-005dB,1.79999813959183e+002°)
5.37031796370252e+000	(-7.96147117027956e-005dB,1.79999809623575e+002°)
5.49540873857623e+000	(-7.96086147665455e-005dB,1.79999805186824e+002°)
5.62341325190348e+000	(-7.96022324301487e-005dB,1.79999800646562e+002°)
5.75439937337156e+000	(-7.95955514272314e-005dB,1.79999796000368e+002°)
5.88843655355588e+000	(-7.95885579031746e-005dB,1.79999791245761e+002°)
6.02559586074356e+000	(-7.95812373321813e-005dB,1.79999786380203e+002°)
6.16595001861481e+000	(-7.95735745510284e-005dB,1.79999781401094e+002°)
6.30957344480192e+000	(-7.95655537060280e-005dB,1.79999776305775e+002°)
6.45654229034654e+000	(-7.95571582212044e-005dB,1.79999771091522e+002°)
6.60693448007594e+000	(-7.95483707404340e-005dB,1.79999765755547e+002°)
6.76082975391980e+000	(-7.95391731669831e-005dB,1.79999760294997e+002°)
6.91830970918935e+000	(-7.95295465477874e-005dB,1.79999754706949e+002°)
7.07945784384136e+000	(-7.95194710859886e-005dB,1.79999748988411e+002°)
7.24435960074988e+000	(-7.95089261062180e-005dB,1.79999743136323e+002°)
7.41310241300916e+000	(-7.94978899658779e-005dB,1.79999737147547e+002°)
7.58577575029182e+000	(-7.94863400966080e-005dB,1.79999731018873e+002°)
7.76247116628690e+000	(-7.94742528692782e-005dB,1.79999724747015e+002°)
7.94328234724279e+000	(-7.94616036614924e-005dB,1.79999718328608e+002°)
8.12830516164097e+000	(-7.94483666840076e-005dB,1.79999711760205e+002°)
8.31763771102669e+000	(-7.94345150617385e-005dB,1.79999705038277e+002°)
8.51138038202374e+000	(-7.94200206842856e-005dB,1.79999698159213e+002°)
8.70963589956078e+000	(-7.94048542367932e-005dB,1.79999691119312e+002°)
8.91250938133743e+000	(-7.93889850784440e-005dB,1.79999683914784e+002°)
9.12010839355907e+000	(-7.93723812511375e-005dB,1.79999676541752e+002°)
9.33254300796988e+000	(-7.93550093888428e-005dB,1.79999668996240e+002°)
9.54992586021433e+000	(-7.93368346558809e-005dB,1.79999661274181e+002°)
9.77237220955808e+000	(-7.93178207440318e-005dB,1.79999653371405e+002°)
9.99999999999997e+000	(-7.92979297307772e-005dB,1.79999645283645e+002°)
1.02329299228075e+001	(-7.92771221063019e-005dB,1.79999637006529e+002°)
1.04712854805090e+001	(-7.92553566134141e-005dB,1.79999628535579e+002°)
1.07151930523760e+001	(-7.92325902947976e-005dB,1.79999619866207e+002°)
1.09647819614318e+001	(-7.92087783310041e-005dB,1.79999610993714e+002°)
1.12201845430196e+001	(-7.91838740230945e-005dB,1.79999601913288e+002°)
1.14815362149688e+001	(-7.91578287241716e-005dB,1.79999592619997e+002°)
1.17489755493953e+001	(-7.91305917275166e-005dB,1.79999583108789e+002°)
1.20226443461741e+001	(-7.91021102579111e-005dB,1.79999573374487e+002°)
1.23026877081238e+001	(-7.90723293549516e-005dB,1.79999563411789e+002°)
1.25892541179416e+001	(-7.90411917949388e-005dB,1.79999553215260e+002°)
1.28824955169313e+001	(-7.90086380619478e-005dB,1.79999542779332e+002°)
1.31825673855640e+001	(-7.89746062176424e-005dB,1.79999532098299e+002°)
1.34896288259165e+001	(-7.89390318511303e-005dB,1.79999521166313e+002°)
1.38038426460288e+001	(-7.89018480249597e-005dB,1.79999509977381e+002°)
1.41253754462275e+001	(-7.88629851410777e-005dB,1.79999498525361e+002°)
1.44543977074592e+001	(-7.88223709302218e-005dB,1.79999486803957e+002°)
1.47910838816820e+001	(-7.87799303188426e-005dB,1.79999474806715e+002°)
1.51356124843620e+001	(-7.87355853779934e-005dB,1.79999462527019e+002°)
1.54881661891248e+001	(-7.86892552693282e-005dB,1.79999449958088e+002°)
1.58489319246111e+001	(-7.86408561419178e-005dB,1.79999437092969e+002°)
1.62181009735892e+001	(-7.85903010878904e-005dB,1.79999423924533e+002°)
1.65958690743755e+001	(-7.85375000218903e-005dB,1.79999410445469e+002°)
1.69824365246174e+001	(-7.84823596887923e-005dB,1.79999396648283e+002°)
1.73780082874937e+001	(-7.84247835547328e-005dB,1.79999382525287e+002°)
1.77827941003892e+001	(-7.83646717723934e-005dB,1.79999368068599e+002°)
1.81970085860998e+001	(-7.83019211202487e-005dB,1.79999353270133e+002°)
1.86208713666286e+001	(-7.82364249331340e-005dB,1.79999338121597e+002°)
1.90546071796324e+001	(-7.81680731224970e-005dB,1.79999322614484e+002°)
1.94984459975804e+001	(-7.80967520944300e-005dB,1.79999306740068e+002°)
1.99526231496887e+001	(-7.80223447352048e-005dB,1.79999290489397e+002°)
2.04173794466952e+001	(-7.79447304257389e-005dB,1.79999273853286e+002°)
2.08929613085403e+001	(-7.78637850030222e-005dB,1.79999256822311e+002°)
2.13796208950222e+001	(-7.77793807996558e-005dB,1.79999239386803e+002°)
2.18776162394954e+001	(-7.76913866448165e-005dB,1.79999221536839e+002°)
2.23872113856833e+001	(-7.75996679037957e-005dB,1.79999203262236e+002°)
2.29086765276776e+001	(-7.75040865657545e-005dB,1.79999184552546e+002°)
2.34422881531991e+001	(-7.74045012495107e-005dB,1.79999165397041e+002°)
2.39883291901948e+001	(-7.73007673732625e-005dB,1.79999145784715e+002°)
2.45470891568502e+001	(-7.71927371806267e-005dB,1.79999125704268e+002°)
2.51188643150957e+001	(-7.70802599402570e-005dB,1.79999105144101e+002°)
2.57039578276885e+001	(-7.69631820615652e-005dB,1.79999084092309e+002°)
2.63026799189537e+001	(-7.68413473020549e-005dB,1.79999062536670e+002°)
2.69153480392690e+001	(-7.67145969669393e-005dB,1.79999040464636e+002°)
2.75422870333815e+001	(-7.65827701135820e-005dB,1.79999017863328e+002°)
2.81838293126444e+001	(-7.64457038899800e-005dB,1.79998994719522e+002°)
2.88403150312659e+001	(-7.63032337613837e-005dB,1.79998971019642e+002°)
2.95120922666637e+001	(-7.61551938960321e-005dB,1.79998946749751e+002°)
3.01995172040200e+001	(-7.60014175036364e-005dB,1.79998921895541e+002°)
3.09029543251358e+001	(-7.58417372760823e-005dB,1.79998896442321e+002°)
3.16227766016837e+001	(-7.56759857963096e-005dB,1.79998870375012e+002°)
3.23593656929627e+001	(-7.55039960397680e-005dB,1.79998843678135e+002°)
3.31131121482590e+001	(-7.53256019134824e-005dB,1.79998816335797e+002°)
3.38844156139201e+001	(-7.51406387999386e-005dB,1.79998788331687e+002°)
3.46736850452530e+001	(-7.49489441781174e-005dB,1.79998759649064e+002°)
3.54813389233574e+001	(-7.47503583139595e-005dB,1.79998730270744e+002°)
3.63078054770100e+001	(-7.45447248611481e-005dB,1.79998700179094e+002°)
3.71535229097171e+001	(-7.43318916933309e-005dB,1.79998669356021e+002°)
3.80189396320559e+001	(-7.41117116534103e-005dB,1.79998637782959e+002°)
3.89045144994279e+001	(-7.38840433471917e-005dB,1.79998605440863e+002°)
3.98107170553495e+001	(-7.36487520334662e-005dB,1.79998572310197e+002°)
4.07380277804111e+001	(-7.34057105005918e-005dB,1.79998538370927e+002°)
4.16869383470333e+001	(-7.31547999961131e-005dB,1.79998503602507e+002°)
4.26579518801591e+001	(-7.28959111631309e-005dB,1.79998467983874e+002°)
4.36515832240164e+001	(-7.26289450605688e-005dB,1.79998431493437e+002°)
4.46683592150961e+001	(-7.23538141217223e-005dB,1.79998394109071e+002°)
4.57088189614873e+001	(-7.20704432073119e-005dB,1.79998355808104e+002°)
4.67735141287196e+001	(-7.17787705784965e-005dB,1.79998316567313e+002°)
4.78630092322636e+001	(-7.14787489672839e-005dB,1.79998276362913e+002°)
4.89778819368444e+001	(-7.11703465505079e-005dB,1.79998235170553e+002°)
5.01187233627270e+001	(-7.08535480019154e-005dB,1.79998192965307e+002°)
5.12861383991362e+001	(-7.05283553928530e-005dB,1.79998149721668e+002°)
5.24807460249770e+001	(-7.01947892260310e-005dB,1.79998105413540e+002°)
5.37031796370250e+001	(-6.98528892513478e-005dB,1.79998060014236e+002°)
5.49540873857622e+001	(-6.95027153665742e-005dB,1.79998013496466e+002°)
5.62341325190346e+001	(-6.91443483521730e-005dB,1.79997965832341e+002°)
5.75439937337154e+001	(-6.87778906205819e-005dB,1.79997916993358e+002°)
5.88843655355586e+001	(-6.84034667774509e-005dB,1.79997866950402e+002°)
6.02559586074355e+001	(-6.80212241905949e-005dB,1.79997815673742e+002°)
6.16595001861479e+001	(-6.76313333602915e-005dB,1.79997763133021e+002°)
6.30957344480190e+001	(-6.72339882510055e-005dB,1.79997709297257e+002°)
6.45654229034652e+001	(-6.68294064042096e-005dB,1.79997654134839e+002°)
6.60693448007593e+001	(-6.64178290020229e-005dB,1.79997597613517e+002°)
6.76082975391978e+001	(-6.59995207447332e-005dB,1.79997539700407e+002°)
6.91830970918933e+001	(-6.55747695759538e-005dB,1.79997480361978e+002°)
7.07945784384134e+001	(-6.51438862612010e-005dB,1.79997419564051e+002°)
7.24435960074986e+001	(-6.47072038170013e-005dB,1.79997357271795e+002°)
7.41310241300914e+001	(-6.42650767799166e-005dB,1.79997293449718e+002°)
7.58577575029180e+001	(-6.38178802952415e-005dB,1.79997228061663e+002°)
7.76247116628688e+001	(-6.33660090272970e-005dB,1.79997161070798e+002°)
7.94328234724277e+001	(-6.29098760417601e-005dB,1.79997092439611e+002°)
8.12830516164095e+001	(-6.24499113398686e-005dB,1.79997022129899e+002°)
8.31763771102667e+001	(-6.19865604533791e-005dB,1.79996950102757e+002°)
8.51138038202372e+001	(-6.15202827685485e-005dB,1.79996876318568e+002°)
8.70963589956076e+001	(-6.10515497739329e-005dB,1.79996800736988e+002°)
8.91250938133741e+001	(-6.05808432580428e-005dB,1.79996723316934e+002°)
9.12010839355905e+001	(-6.01086533363110e-005dB,1.79996644016565e+002°)
9.33254300796986e+001	(-5.96354764452745e-005dB,1.79996562793268e+002°)
9.54992586021431e+001	(-5.91618132721472e-005dB,1.79996479603634e+002°)
9.77237220955805e+001	(-5.86881666554631e-005dB,1.79996394403442e+002°)
9.99999999999995e+001	(-5.82150394712555e-005dB,1.79996307147632e+002°)
1.02329299228075e+002	(-5.77429324893429e-005dB,1.79996217790283e+002°)
1.04712854805089e+002	(-5.72723422730112e-005dB,1.79996126284587e+002°)
1.07151930523760e+002	(-5.68037591163054e-005dB,1.79996032582819e+002°)
1.09647819614318e+002	(-5.63376650324322e-005dB,1.79995936636306e+002°)
1.12201845430196e+002	(-5.58745318443831e-005dB,1.79995838395400e+002°)
1.14815362149688e+002	(-5.54148192495203e-005dB,1.79995737809442e+002°)
1.17489755493952e+002	(-5.49589731985379e-005dB,1.79995634826725e+002°)
1.20226443461741e+002	(-5.45074241587017e-005dB,1.79995529394463e+002°)
1.23026877081237e+002	(-5.40605857155727e-005dB,1.79995421458747e+002°)
1.25892541179416e+002	(-5.36188531390491e-005dB,1.79995310964511e+002°)
1.28824955169313e+002	(-5.31826022425672e-005dB,1.79995197855488e+002°)
1.31825673855640e+002	(-5.27521882480885e-005dB,1.79995082074171e+002°)
1.34896288259165e+002	(-5.23279450059609e-005dB,1.79994963561769e+002°)
1.38038426460288e+002	(-5.19101841405280e-005dB,1.79994842258160e+002°)
1.41253754462275e+002	(-5.14991945457896e-005dB,1.79994718101853e+002°)
1.44543977074592e+002	(-5.10952419582103e-005dB,1.79994591029937e+002°)
1.47910838816820e+002	(-5.06985686548910e-005dB,1.79994460978036e+002°)
1.51356124843620e+002	(-5.03093934005375e-005dB,1.79994327880264e+002°)
1.54881661891247e+002	(-4.99279114436107e-005dB,1.79994191669176e+002°)
1.58489319246110e+002	(-4.95542946580905e-005dB,1.79994052275718e+002°)
1.62181009735892e+002	(-4.91886919022144e-005dB,1.79993909629181e+002°)
1.65958690743755e+002	(-4.88312293830015e-005dB,1.79993763657153e+002°)
1.69824365246173e+002	(-4.84820111847128e-005dB,1.79993614285466e+002°)
1.73780082874936e+002	(-4.81411199159241e-005dB,1.79993461438149e+002°)
1.77827941003891e+002	(-4.78086173836000e-005dB,1.79993305037375e+002°)
1.81970085860997e+002	(-4.74845453857796e-005dB,1.79993145003416e+002°)
1.86208713666286e+002	(-4.71689265823734e-005dB,1.79992981254585e+002°)
1.90546071796323e+002	(-4.68617653582449e-005dB,1.79992813707191e+002°)
1.94984459975803e+002	(-4.65630487885110e-005dB,1.79992642275481e+002°)
1.99526231496887e+002	(-4.62727476723090e-005dB,1.79992466871596e+002°)
2.04173794466952e+002	(-4.59908174277004e-005dB,1.79992287405511e+002°)
2.08929613085403e+002	(-4.57171992083696e-005dB,1.79992103784986e+002°)
2.13796208950222e+002	(-4.54518209123179e-005dB,1.79991915915514e+002°)
2.18776162394954e+002	(-4.51945981529472e-005dB,1.79991723700260e+002°)
2.23872113856832e+002	(-4.49454353825089e-005dB,1.79991527040014e+002°)
2.29086765276776e+002	(-4.47042268024342e-005dB,1.79991325833134e+002°)
2.34422881531991e+002	(-4.44708573816696e-005dB,1.79991119975485e+002°)
2.39883291901947e+002	(-4.42452038750123e-005dB,1.79990909360387e+002°)
2.45470891568501e+002	(-4.40271356746154e-005dB,1.79990693878557e+002°)
2.51188643150956e+002	(-4.38165157212821e-005dB,1.79990473418048e+002°)
2.57039578276885e+002	(-4.36132014456534e-005dB,1.79990247864189e+002°)
2.63026799189536e+002	(-4.34170455261728e-005dB,1.79990017099529e+002°)
2.69153480392690e+002	(-4.32278966759808e-005dB,1.79989781003769e+002°)
2.75422870333815e+002	(-4.30456004462028e-005dB,1.79989539453701e+002°)
2.81838293126443e+002	(-4.28699998807299e-005dB,1.79989292323147e+002°)
2.88403150312659e+002	(-4.27009362086084e-005dB,1.79989039482888e+002°)
2.95120922666637e+002	(-4.25382494573541e-005dB,1.79988780800600e+002°)
3.01995172040200e+002	(-4.23817790151568e-005dB,1.79988516140786e+002°)
3.09029543251357e+002	(-4.22313642085141e-005dB,1.79988245364703e+002°)
3.16227766016836e+002	(-4.20868447969329e-005dB,1.79987968330292e+002°)
3.23593656929626e+002	(-4.19480613644468e-005dB,1.79987684892108e+002°)
3.31131121482589e+002	(-4.18148558712132e-005dB,1.79987394901237e+002°)
3.38844156139200e+002	(-4.16870719138818e-005dB,1.79987098205227e+002°)
3.46736850452529e+002	(-4.15645551412203e-005dB,1.79986794648005e+002°)
3.54813389233573e+002	(-4.14471535646286e-005dB,1.79986484069799e+002°)
3.63078054770099e+002	(-4.13347178426155e-005dB,1.79986166307054e+002°)
3.71535229097170e+002	(-4.12271015199519e-005dB,1.79985841192347e+002°)
3.80189396320558e+002	(-4.11241613111838e-005dB,1.79985508554302e+002°)
3.89045144994278e+002	(-4.10257572086361e-005dB,1.79985168217502e+002°)
3.98107170553494e+002	(-4.09317527572463e-005dB,1.79984820002395e+002°)
4.07380277804110e+002	(-4.08420151558187e-005dB,1.79984463725205e+002°)
4.16869383470332e+002	(-4.07564154132453e-005dB,1.79984099197833e+002°)
4.26579518801589e+002	(-4.06748284680819e-005dB,1.79983726227764e+002°)
4.36515832240163e+002	(-4.05971332338713e-005dB,1.79983344617961e+002°)
4.46683592150960e+002	(-4.05232127630784e-005dB,1.79982954166767e+002°)
4.57088189614872e+002	(-4.04529542634838e-005dB,1.79982554667800e+002°)
4.67735141287195e+002	(-4.03862491676147e-005dB,1.79982145909843e+002°)
4.78630092322635e+002	(-4.03229931549238e-005dB,1.79981727676734e+002°)
4.89778819368443e+002	(-4.02630862038632e-005dB,1.79981299747258e+002°)
5.01187233627268e+002	(-4.02064326410639e-005dB,1.79980861895022e+002°)
5.12861383991361e+002	(-4.01529410969768e-005dB,1.79980413888348e+002°)
5.24807460249769e+002	(-4.01025245483025e-005dB,1.79979955490142e+002°)
5.37031796370249e+002	(-4.00551003343845e-005dB,1.79979486457776e+002°)
5.49540873857620e+002	(-4.00105900954914e-005dB,1.79979006542957e+002°)
5.62341325190345e+002	(-3.99689198682859e-005dB,1.79978515491598e+002°)
5.75439937337152e+002	(-3.99300199710682e-005dB,1.79978013043688e+002°)
