Freq.	V(vo)/V(Vi)
1.00000000000000e+000	(-1.93568301889394e-002dB,1.77005064028473e+002°)
1.02329299228075e+000	(-2.02636023122894e-002dB,1.76935547719856e+002°)
1.04712854805090e+000	(-2.12129429704663e-002dB,1.76864429612179e+002°)
1.07151930523761e+000	(-2.22068423823130e-002dB,1.76791673635286e+002°)
1.09647819614318e+000	(-2.32473830321588e-002dB,1.76717242966707e+002°)
1.12201845430196e+000	(-2.43367438721042e-002dB,1.76641100020319e+002°)
1.14815362149688e+000	(-2.54772047084118e-002dB,1.76563206435165e+002°)
1.17489755493953e+000	(-2.66711507794014e-002dB,1.76483523064480e+002°)
1.20226443461741e+000	(-2.79210775326578e-002dB,1.76402009964940e+002°)
1.23026877081238e+000	(-2.92295956090423e-002dB,1.76318626386199e+002°)
1.25892541179417e+000	(-3.05994360418595e-002dB,1.76233330760723e+002°)
1.28824955169313e+000	(-3.20334556792978e-002dB,1.76146080694001e+002°)
1.31825673855641e+000	(-3.35346428386492e-002dB,1.76056832955150e+002°)
1.34896288259165e+000	(-3.51061232011290e-002dB,1.75965543467987e+002°)
1.38038426460288e+000	(-3.67511659560357e-002dB,1.75872167302618e+002°)
1.41253754462275e+000	(-3.84731902035164e-002dB,1.75776658667596e+002°)
1.44543977074593e+000	(-4.02757716251722e-002dB,1.75678970902727e+002°)
1.47910838816821e+000	(-4.21626494320167e-002dB,1.75579056472581e+002°)
1.51356124843621e+000	(-4.41377335994090e-002dB,1.75476866960792e+002°)
1.54881661891248e+000	(-4.62051123987893e-002dB,1.75372353065215e+002°)
1.58489319246111e+000	(-4.83690602360572e-002dB,1.75265464594035e+002°)
1.62181009735893e+000	(-5.06340458067464e-002dB,1.75156150462919e+002°)
1.65958690743756e+000	(-5.30047405779402e-002dB,1.75044358693294e+002°)
1.69824365246174e+000	(-5.54860276071604e-002dB,1.74930036411874e+002°)
1.73780082874937e+000	(-5.80830107084185e-002dB,1.74813129851538e+002°)
1.77827941003892e+000	(-6.08010239754584e-002dB,1.74693584353665e+002°)
1.81970085860998e+000	(-6.36456416722270e-002dB,1.74571344372078e+002°)
1.86208713666287e+000	(-6.66226885007982e-002dB,1.74446353478704e+002°)
1.90546071796325e+000	(-6.97382502560685e-002dB,1.74318554371104e+002°)
1.94984459975804e+000	(-7.29986848771317e-002dB,1.74187888882032e+002°)
1.99526231496888e+000	(-7.64106339043980e-002dB,1.74054297991156e+002°)
2.04173794466953e+000	(-7.99810343514482e-002dB,1.73917721839151e+002°)
2.08929613085404e+000	(-8.37171309997241e-002dB,1.73778099744295e+002°)
2.13796208950223e+000	(-8.76264891244550e-002dB,1.73635370221809e+002°)
2.18776162394955e+000	(-9.17170076585165e-002dB,1.73489471006094e+002°)
2.23872113856834e+000	(-9.59969328010418e-002dB,1.73340339076116e+002°)
2.29086765276777e+000	(-1.00474872076308e-001dB,1.73187910684141e+002°)
2.34422881531992e+000	(-1.05159808847415e-001dB,1.73032121388057e+002°)
2.39883291901949e+000	(-1.10061117288602e-001dB,1.72872906087540e+002°)
2.45470891568503e+000	(-1.15188577817903e-001dB,1.72710199064324e+002°)
2.51188643150958e+000	(-1.20552392991551e-001dB,1.72543934026833e+002°)
2.57039578276886e+000	(-1.26163203858710e-001dB,1.72374044159486e+002°)
2.63026799189538e+000	(-1.32032106774532e-001dB,1.72200462176957e+002°)
2.69153480392691e+000	(-1.38170670666471e-001dB,1.72023120383708e+002°)
2.75422870333816e+000	(-1.44590954747211e-001dB,1.71841950739130e+002°)
2.81838293126445e+000	(-1.51305526665233e-001dB,1.71656884928621e+002°)
2.88403150312660e+000	(-1.58327481080758e-001dB,1.71467854440962e+002°)
2.95120922666638e+000	(-1.65670458652604e-001dB,1.71274790652357e+002°)
3.01995172040201e+000	(-1.73348665417729e-001dB,1.71077624917523e+002°)
3.09029543251359e+000	(-1.81376892542287e-001dB,1.70876288668203e+002°)
3.16227766016837e+000	(-1.89770536418849e-001dB,1.70670713519533e+002°)
3.23593656929628e+000	(-1.98545619080680e-001dB,1.70460831384660e+002°)
3.31131121482591e+000	(-2.07718808899471e-001dB,1.70246574598037e+002°)
3.38844156139202e+000	(-2.17307441528308e-001dB,1.70027876047834e+002°)
3.46736850452531e+000	(-2.27329541046628e-001dB,1.69804669317911e+002°)
3.54813389233575e+000	(-2.37803841258602e-001dB,1.69576888839784e+002°)
3.63078054770101e+000	(-2.48749807090779e-001dB,1.69344470055046e+002°)
3.71535229097172e+000	(-2.60187656028623e-001dB,1.69107349588699e+002°)
3.80189396320560e+000	(-2.72138379525552e-001dB,1.68865465433831e+002°)
3.89045144994280e+000	(-2.84623764311270e-001dB,1.68618757148111e+002°)
3.98107170553496e+000	(-2.97666413519218e-001dB,1.68367166062511e+002°)
4.07380277804112e+000	(-3.11289767545874e-001dB,1.68110635502721e+002°)
4.16869383470335e+000	(-3.25518124547179e-001dB,1.67849111023640e+002°)
4.26579518801592e+000	(-3.40376660469426e-001dB,1.67582540657363e+002°)
4.36515832240165e+000	(-3.55891448504439e-001dB,1.67310875175035e+002°)
4.46683592150962e+000	(-3.72089477850587e-001dB,1.67034068362904e+002°)
4.57088189614874e+000	(-3.88998671653252e-001dB,1.66752077312909e+002°)
4.67735141287197e+000	(-4.06647903990240e-001dB,1.66464862728063e+002°)
4.78630092322637e+000	(-4.25067015759645e-001dB,1.66172389242853e+002°)
4.89778819368445e+000	(-4.44286829319961e-001dB,1.65874625758861e+002°)
5.01187233627271e+000	(-4.64339161724429e-001dB,1.65571545795688e+002°)
5.12861383991364e+000	(-4.85256836384876e-001dB,1.65263127857274e+002°)
5.24807460249771e+000	(-5.07073692993097e-001dB,1.64949355813554e+002°)
5.37031796370252e+000	(-5.29824595522532e-001dB,1.64630219297387e+002°)
5.49540873857623e+000	(-5.53545438127187e-001dB,1.64305714116550e+002°)
5.62341325190348e+000	(-5.78273148751064e-001dB,1.63975842680523e+002°)
5.75439937337156e+000	(-6.04045690257952e-001dB,1.63640614441687e+002°)
5.88843655355588e+000	(-6.30902058889929e-001dB,1.63300046350441e+002°)
6.02559586074356e+000	(-6.58882279862837e-001dB,1.62954163323639e+002°)
6.16595001861481e+000	(-6.88027399908167e-001dB,1.62602998725624e+002°)
6.30957344480192e+000	(-7.18379476574784e-001dB,1.62246594861015e+002°)
6.45654229034654e+000	(-7.49981564108986e-001dB,1.61885003478275e+002°)
6.60693448007594e+000	(-7.82877695739800e-001dB,1.61518286282958e+002°)
6.76082975391980e+000	(-8.17112862206385e-001dB,1.61146515459409e+002°)
6.91830970918935e+000	(-8.52732986377960e-001dB,1.60769774199557e+002°)
7.07945784384136e+000	(-8.89784893832181e-001dB,1.60388157237322e+002°)
7.24435960074988e+000	(-9.28316279277194e-001dB,1.60001771387041e+002°)
7.41310241300916e+000	(-9.68375668724124e-001dB,1.59610736084195e+002°)
7.58577575029182e+000	(-1.01001237734213e+000dB,1.59215183926645e+002°)
7.76247116628690e+000	(-1.05327646295622e+000dB,1.58815261214482e+002°)
7.94328234724279e+000	(-1.09821867517894e+000dB,1.58411128486540e+002°)
8.12830516164097e+000	(-1.14489040020186e+000dB,1.58002961051582e+002°)
8.31763771102669e+000	(-1.19334360130896e+000dB,1.57590949512141e+002°)
8.51138038202374e+000	(-1.24363075521369e+000dB,1.57175300279023e+002°)
8.70963589956078e+000	(-1.29580478436359e+000dB,1.56756236074523e+002°)
8.91250938133743e+000	(-1.34991898539845e+000dB,1.56333996422471e+002°)
9.12010839355907e+000	(-1.40602695399360e+000dB,1.55908838123380e+002°)
9.33254300796988e+000	(-1.46418250636429e+000dB,1.55481035713110e+002°)
9.54992586021433e+000	(-1.52443959775175e+000dB,1.55050881903694e+002°)
9.77237220955808e+000	(-1.58685223825623e+000dB,1.54618688005236e+002°)
9.99999999999997e+000	(-1.65147440642278e+000dB,1.54184784328116e+002°)
1.02329299228075e+001	(-1.71835996102598e+000dB,1.53749520565109e+002°)
1.04712854805090e+001	(-1.78756255153315e+000dB,1.53313266153483e+002°)
1.07151930523760e+001	(-1.85913552775658e+000dB,1.52876410617596e+002°)
1.09647819614318e+001	(-1.93313184922709e+000dB,1.52439363893114e+002°)
1.12201845430196e+001	(-2.00960399483756e+000dB,1.52002556634549e+002°)
1.14815362149688e+001	(-2.08860387331049e+000dB,1.51566440508499e+002°)
1.17489755493953e+001	(-2.17018273503951e+000dB,1.51131488475692e+002°)
1.20226443461741e+001	(-2.25439108583818e+000dB,1.50698195065720e+002°)
1.23026877081238e+001	(-2.34127860309955e+000dB,1.50267076649154e+002°)
1.25892541179416e+001	(-2.43089405482528e+000dB,1.49838671712607e+002°)
1.28824955169313e+001	(-2.52328522192208e+000dB,1.49413541143228e+002°)
1.31825673855640e+001	(-2.61849882408434e+000dB,1.48992268530004e+002°)
1.34896288259165e+001	(-2.71658044948407e+000dB,1.48575460490258e+002°)
1.38038426460288e+001	(-2.81757448837029e+000dB,1.48163747030665e+002°)
1.41253754462275e+001	(-2.92152407053930e+000dB,1.47757781953113e+002°)
1.44543977074592e+001	(-3.02847100647232e+000dB,1.47358243316738e+002°)
1.47910838816820e+001	(-3.13845573174655e+000dB,1.46965833968411e+002°)
1.51356124843620e+001	(-3.25151725410770e+000dB,1.46581282154970e+002°)
1.54881661891248e+001	(-3.36769310234429e+000dB,1.46205342231399e+002°)
1.58489319246111e+001	(-3.48701927582379e+000dB,1.45838795480094e+002°)
1.62181009735892e+001	(-3.60953019323536e+000dB,1.45482451057230e+002°)
1.65958690743755e+001	(-3.73525863873017e+000dB,1.45137147083030e+002°)
1.69824365246174e+001	(-3.86423570325288e+000dB,1.44803751893532e+002°)
1.73780082874937e+001	(-3.99649071841381e+000dB,1.44483165472069e+002°)
1.77827941003892e+001	(-4.13205117975233e+000dB,1.44176321079244e+002°)
1.81970085860998e+001	(-4.27094265568450e+000dB,1.43884187100600e+002°)
1.86208713666286e+001	(-4.41318867779964e+000dB,1.43607769131418e+002°)
1.90546071796324e+001	(-4.55881060746656e+000dB,1.43348112318097e+002°)
1.94984459975804e+001	(-4.70782747291605e+000dB,1.43106303975310e+002°)
1.99526231496887e+001	(-4.86025577007165e+000dB,1.42883476497504e+002°)
2.04173794466952e+001	(-5.01610921939131e+000dB,1.42680810582234e+002°)
2.08929613085403e+001	(-5.17539846984244e+000dB,1.42499538781136e+002°)
2.13796208950222e+001	(-5.33813073984611e+000dB,1.42340949391903e+002°)
2.18776162394954e+001	(-5.50430938357414e+000dB,1.42206390701222e+002°)
2.23872113856833e+001	(-5.67393336934884e+000dB,1.42097275583937e+002°)
2.29086765276776e+001	(-5.84699665506003e+000dB,1.42015086457488e+002°)
2.34422881531991e+001	(-6.02348744346432e+000dB,1.41961380582368e+002°)
2.39883291901948e+001	(-6.20338729795553e+000dB,1.41937795688533e+002°)
2.45470891568502e+001	(-6.38667009688892e+000dB,1.41946055893711e+002°)
2.51188643150957e+001	(-6.57330080181584e+000dB,1.41987977861471e+002°)
2.57039578276885e+001	(-6.76323401206373e+000dB,1.42065477124005e+002°)
2.63026799189537e+001	(-6.95641227503513e+000dB,1.42180574465360e+002°)
2.69153480392690e+001	(-7.15276411848706e+000dB,1.42335402224298e+002°)
2.75422870333815e+001	(-7.35220176803390e+000dB,1.42532210330145e+002°)
2.81838293126444e+001	(-7.55461851040810e+000dB,1.42773371828347e+002°)
2.88403150312659e+001	(-7.75988566092549e+000dB,1.43061387582775e+002°)
2.95120922666637e+001	(-7.96784909257649e+000dB,1.43398889757140e+002°)
3.01995172040200e+001	(-8.17832528480422e+000dB,1.43788643575914e+002°)
3.09029543251358e+001	(-8.39109685314923e+000dB,1.44233546744218e+002°)
3.16227766016837e+001	(-8.60590752760456e+000dB,1.44736625764852e+002°)
3.23593656929627e+001	(-8.82245655910367e+000dB,1.45301028229046e+002°)
3.31131121482590e+001	(-9.04039255176711e+000dB,1.45930009977478e+002°)
3.38844156139201e+001	(-9.25930674542630e+000dB,1.46626915834794e+002°)
3.46736850452530e+001	(-9.47872581091424e+000dB,1.47395152423768e+002°)
3.54813389233574e+001	(-9.69810427226958e+000dB,1.48238151380638e+002°)
3.63078054770100e+001	(-9.91681673793474e+000dB,1.49159321145632e+002°)
3.71535229097171e+001	(-1.01341502093988e+001dB,1.50161985428088e+002°)
3.80189396320559e+001	(-1.03492968416171e+001dB,1.51249306492342e+002°)
3.89045144994279e+001	(-1.05613476539462e+001dB,1.52424191641363e+002°)
3.98107170553495e+001	(-1.07692878289469e+001dB,1.53689181764879e+002°)
4.07380277804111e+001	(-1.09719943799892e+001dB,1.55046321650006e+002°)
4.16869383470333e+001	(-1.11682371013708e+001dB,1.56497013003857e+002°)
4.26579518801591e+001	(-1.13566838130018e+001dB,1.58041852865814e+002°)
4.36515832240164e+001	(-1.15359109438415e+001dB,1.59680462298791e+002°)
4.46683592150961e+001	(-1.17044204259673e+001dB,1.61411312866529e+002°)
4.57088189614873e+001	(-1.18606636543879e+001dB,1.63231561230147e+002°)
4.67735141287196e+001	(-1.20030728731334e+001dB,1.65136904886774e+002°)
4.78630092322636e+001	(-1.21300997612033e+001dB,1.67121474132722e+002°)
4.89778819368444e+001	(-1.22402602309057e+001dB,1.69177776163749e+002°)
5.01187233627270e+001	(-1.23321835791977e+001dB,1.71296706221374e+002°)
5.12861383991362e+001	(-1.24046632624093e+001dB,1.73467637404178e+002°)
5.24807460249770e+001	(-1.24567058489488e+001dB,1.75678595071068e+002°)
5.37031796370250e+001	(-1.24875743099346e+001dB,1.77916514047457e+002°)
5.49540873857622e+001	(-1.24968218741353e+001dB,-1.79832431967620e+002°)
5.62341325190346e+001	(-1.24843132694027e+001dB,-1.77582447933561e+002°)
5.75439937337154e+001	(-1.24502312610124e+001dB,-1.75347707802366e+002°)
5.88843655355586e+001	(-1.23950678293573e+001dB,-1.73141947099846e+002°)
6.02559586074355e+001	(-1.23196008726699e+001dB,-1.70978086899527e+002°)
6.16595001861479e+001	(-1.22248587142277e+001dB,-1.68867914216964e+002°)
6.30957344480190e+001	(-1.21120757147849e+001dB,-1.66821836762892e+002°)
6.45654229034652e+001	(-1.19826428069517e+001dB,-1.64848721316192e+002°)
6.60693448007593e+001	(-1.18380567589676e+001dB,-1.62955816250279e+002°)
6.76082975391978e+001	(-1.16798715224214e+001dB,-1.61148751288026e+002°)
6.91830970918933e+001	(-1.15096542688398e+001dB,-1.59431602217733e+002°)
7.07945784384134e+001	(-1.13289478406228e+001dB,-1.57807005373190e+002°)
7.24435960074986e+001	(-1.11392404805071e+001dB,-1.56276305986759e+002°)
7.41310241300914e+001	(-1.09419429659710e+001dB,-1.54839725578860e+002°)
7.58577575029180e+001	(-1.07383727166767e+001dB,-1.53496535737689e+002°)
7.76247116628688e+001	(-1.05297440766752e+001dB,-1.52245228381239e+002°)
7.94328234724277e+001	(-1.03171637803966e+001dB,-1.51083675406715e+002°)
8.12830516164095e+001	(-1.01016305573873e+001dB,-1.50009273198614e+002°)
8.31763771102667e+001	(-9.88403787513201e+000dB,-1.49019069608320e+002°)
8.51138038202372e+001	(-9.66517892463272e+000dB,-1.48109872672783e+002°)
8.70963589956076e+001	(-9.44575308912000e+000dB,-1.47278341523924e+002°)
8.91250938133741e+001	(-9.22637327993642e+000dB,-1.46521060715153e+002°)
9.12010839355905e+001	(-9.00757366056481e+000dB,-1.45834599637203e+002°)
9.33254300796986e+001	(-8.78981740158058e+000dB,-1.45215558894146e+002°)
9.54992586021431e+001	(-8.57350421226245e+000dB,-1.44660605535393e+002°)
9.77237220955805e+001	(-8.35897747809743e+000dB,-1.44166498951194e+002°)
9.99999999999995e+001	(-8.14653089875533e+000dB,-1.43730109084060e+002°)
1.02329299228075e+002	(-7.93641457054324e+000dB,-1.43348428420722e+002°)
1.04712854805089e+002	(-7.72884049349846e+000dB,-1.43018579031899e+002°)
1.07151930523760e+002	(-7.52398750872255e+000dB,-1.42737815735278e+002°)
1.09647819614318e+002	(-7.32200568864633e+000dB,-1.42503526279688e+002°)
1.12201845430196e+002	(-7.12302021365719e+000dB,-1.42313229289763e+002°)
1.14815362149688e+002	(-6.92713477457349e+000dB,-1.42164570572256e+002°)
1.17489755493952e+002	(-6.73443454313598e+000dB,-1.42055318267120e+002°)
1.20226443461741e+002	(-6.54498875303046e+000dB,-1.41983357227272e+002°)
1.23026877081237e+002	(-6.35885293273716e+000dB,-1.41946682928625e+002°)
1.25892541179416e+002	(-6.17607082929664e+000dB,-1.41943395144431e+002°)
1.28824955169313e+002	(-5.99667605931047e+000dB,-1.41971691563020e+002°)
1.31825673855640e+002	(-5.82069352044953e+000dB,-1.42029861483765e+002°)
1.34896288259165e+002	(-5.64814059363218e+000dB,-1.42116279690696e+002°)
1.38038426460288e+002	(-5.47902816298782e+000dB,-1.42229400575032e+002°)
1.41253754462275e+002	(-5.31336147782756e+000dB,-1.42367752555753e+002°)
1.44543977074592e+002	(-5.15114087814902e+000dB,-1.42529932829937e+002°)
1.47910838816820e+002	(-4.99236240273021e+000dB,-1.42714602471142e+002°)
1.51356124843620e+002	(-4.83701829662629e+000dB,-1.42920481883669e+002°)
1.54881661891247e+002	(-4.68509743286577e+000dB,-1.43146346612627e+002°)
1.58489319246110e+002	(-4.53658566133922e+000dB,-1.43391023503737e+002°)
1.62181009735892e+002	(-4.39146609626794e+000dB,-1.43653387202331e+002°)
1.65958690743755e+002	(-4.24971935221379e+000dB,-1.43932356977766e+002°)
1.69824365246173e+002	(-4.11132373732794e+000dB,-1.44226893857149e+002°)
1.73780082874936e+002	(-3.97625541141691e+000dB,-1.44535998050689e+002°)
1.77827941003891e+002	(-3.84448851541267e+000dB,-1.44858706649989e+002°)
1.81970085860997e+002	(-3.71599527795543e+000dB,-1.45194091580027e+002°)
1.86208713666286e+002	(-3.59074610401750e+000dB,-1.45541257785350e+002°)
1.90546071796323e+002	(-3.46870964980478e+000dB,-1.45899341631084e+002°)
1.94984459975803e+002	(-3.34985288755532e+000dB,-1.46267509499606e+002°)
1.99526231496887e+002	(-3.23414116330630e+000dB,-1.46644956564172e+002°)
2.04173794466952e+002	(-3.12153825020991e+000dB,-1.47030905721376e+002°)
2.08929613085403e+002	(-3.01200639954262e+000dB,-1.47424606664955e+002°)
2.13796208950222e+002	(-2.90550639116111e+000dB,-1.47825335084262e+002°)
2.18776162394954e+002	(-2.80199758481084e+000dB,-1.48232391971498e+002°)
2.23872113856832e+002	(-2.70143797338310e+000dB,-1.48645103022730e+002°)
2.29086765276776e+002	(-2.60378423894123e+000dB,-1.49062818118607e+002°)
2.34422881531991e+002	(-2.50899181209368e+000dB,-1.49484910871633e+002°)
2.39883291901947e+002	(-2.41701493507777e+000dB,-1.49910778227872e+002°)
2.45470891568501e+002	(-2.32780672873126e+000dB,-1.50339840111885e+002°)
2.51188643150956e+002	(-2.24131926336809e+000dB,-1.50771539104748e+002°)
2.57039578276885e+002	(-2.15750363343689e+000dB,-1.51205340145939e+002°)
2.63026799189536e+002	(-2.07631003572522e+000dB,-1.51640730250885e+002°)
2.69153480392690e+002	(-1.99768785077771e+000dB,-1.52077218236908e+002°)
2.75422870333815e+002	(-1.92158572712033e+000dB,-1.52514334451237e+002°)
2.81838293126443e+002	(-1.84795166782388e+000dB,-1.52951630495640e+002°)
2.88403150312659e+002	(-1.77673311889825e+000dB,-1.53388678943126e+002°)
2.95120922666637e+002	(-1.70787705898052e+000dB,-1.53825073042923e+002°)
3.01995172040200e+002	(-1.64133008976553e+000dB,-1.54260426410773e+002°)
3.09029543251357e+002	(-1.57703852662525e+000dB,-1.54694372702238e+002°)
3.16227766016836e+002	(-1.51494848886982e+000dB,-1.55126565267424e+002°)
3.23593656929626e+002	(-1.45500598912084e+000dB,-1.55556676786093e+002°)
3.31131121482589e+002	(-1.39715702129054e+000dB,-1.55984398882707e+002°)
3.38844156139200e+002	(-1.34134764669165e+000dB,-1.56409441721414e+002°)
3.46736850452529e+002	(-1.28752407783800e+000dB,-1.56831533581437e+002°)
3.54813389233573e+002	(-1.23563275953506e+000dB,-1.57250420413664e+002°)
3.63078054770099e+002	(-1.18562044690261e+000dB,-1.57665865379592e+002°)
3.71535229097170e+002	(-1.13743428001461e+000dB,-1.58077648374001e+002°)
3.80189396320558e+002	(-1.09102185488726e+000dB,-1.58485565532981e+002°)
3.89045144994278e+002	(-1.04633129059064e+000dB,-1.58889428729048e+002°)
3.98107170553494e+002	(-1.00331129230362e+000dB,-1.59289065055276e+002°)
4.07380277804110e+002	(-9.61911210175034e-001dB,-1.59684316300358e+002°)
4.16869383470332e+002	(-9.22081093895324e-001dB,-1.60075038416644e+002°)
4.26579518801589e+002	(-8.83771742921546e-001dB,-1.60461100983130e+002°)
4.36515832240163e+002	(-8.46934752335780e-001dB,-1.60842386665410e+002°)
4.46683592150960e+002	(-8.11522554350143e-001dB,-1.61218790674532e+002°)
4.57088189614872e+002	(-7.77488455502639e-001dB,-1.61590220226617e+002°)
4.67735141287195e+002	(-7.44786669615889e-001dB,-1.61956594005062e+002°)
4.78630092322635e+002	(-7.13372346614920e-001dB,-1.62317841626989e+002°)
4.89778819368443e+002	(-6.83201597322358e-001dB,-1.62673903115544e+002°)
5.01187233627268e+002	(-6.54231514366963e-001dB,-1.63024728379496e+002°)
5.12861383991361e+002	(-6.26420189357876e-001dB,-1.63370276701483e+002°)
5.24807460249769e+002	(-5.99726726488919e-001dB,-1.63710516236100e+002°)
5.37031796370249e+002	(-5.74111252747598e-001dB,-1.64045423518941e+002°)
5.49540873857620e+002	(-5.49534924911150e-001dB,-1.64374982987506e+002°)
5.62341325190345e+002	(-5.25959933517101e-001dB,-1.64699186514838e+002°)
