Freq.	V(vo)/V(Vi)
1.00000000000000e+000	(1.91974593413754e-002dB,-1.77005134988880e+002°)
1.02329299228075e+000	(2.01042370351270e-002dB,-1.76935620333782e+002°)
1.04712854805090e+000	(2.10535835263397e-002dB,-1.76864503918186e+002°)
1.07151930523761e+000	(2.20474890462430e-002dB,-1.76791749672835e+002°)
1.09647819614318e+000	(2.30880360921716e-002dB,-1.76717320776185e+002°)
1.12201845430196e+000	(2.41774036297969e-002dB,-1.76641179643055e+002°)
1.14815362149688e+000	(2.53178714795871e-002dB,-1.76563287913457e+002°)
1.17489755493953e+000	(2.65118248948053e-002dB,-1.76483606441613e+002°)
1.20226443461741e+000	(2.77617593386182e-002dB,-1.76402095285214e+002°)
1.23026877081238e+000	(2.90702854682158e-002dB,-1.76318713694948e+002°)
1.25892541179417e+000	(3.04401343340393e-002dB,-1.76233420104346e+002°)
1.28824955169313e+000	(3.18741628021764e-002dB,-1.76146172119982e+002°)
1.31825673855641e+000	(3.33753592087119e-002dB,-1.76056926512084e+002°)
1.34896288259165e+000	(3.49468492545142e-002dB,-1.75965639205610e+002°)
1.38038426460288e+000	(3.65919021494603e-002dB,-1.75872265271828e+002°)
1.41253754462275e+000	(3.83139370152534e-002dB,-1.75776758920487e+002°)
1.44543977074593e+000	(4.01165295560660e-002dB,-1.75679073492613e+002°)
1.47910838816821e+000	(4.20034190065663e-002dB,-1.75579161454028e+002°)
1.51356124843621e+000	(4.39785153668699e-002dB,-1.75476974389645e+002°)
1.54881661891248e+000	(4.60459069343697e-002dB,-1.75372462998631e+002°)
1.58489319246111e+000	(4.82098681421062e-002dB,-1.75265577090512e+002°)
1.62181009735893e+000	(5.04748677140746e-002dB,-1.75156265582330e+002°)
1.65958690743756e+000	(5.28455771471219e-002dB,-1.75044476496917e+002°)
1.69824365246174e+000	(5.53268795300239e-002dB,-1.74930156962431e+002°)
1.73780082874937e+000	(5.79238787094221e-002dB,-1.74813253213222e+002°)
1.77827941003892e+000	(6.06419088133034e-002dB,-1.74693710592183e+002°)
1.81970085860998e+000	(6.34865441414768e-002dB,-1.74571473554682e+002°)
1.86208713666287e+000	(6.64636094335371e-002dB,-1.74446485674231e+002°)
1.90546071796325e+000	(6.95791905237167e-002dB,-1.74318689650013e+002°)
1.94984459975804e+000	(7.28396453922947e-002dB,-1.74188027316441e+002°)
1.99526231496888e+000	(7.62516156228450e-002dB,-1.74054439654888e+002°)
2.04173794466953e+000	(7.98220382740824e-002dB,-1.73917866807769e+002°)
2.08929613085404e+000	(8.35581581748123e-002dB,-1.73778248095149e+002°)
2.13796208950223e+000	(8.74675406498237e-002dB,-1.73635522034075e+002°)
2.18776162394955e+000	(9.15580846839282e-002dB,-1.73489626360823e+002°)
2.23872113856834e+000	(9.58380365306324e-002dB,-1.73340498056277e+002°)
2.29086765276777e+000	(1.00316003771177e-001dB,-1.73188073374667e+002°)
2.34422881531992e+000	(1.05000969828357e-001dB,-1.73032287875897e+002°)
2.39883291901949e+000	(1.09902308938896e-001dB,-1.72873076461705e+002°)
2.45470891568503e+000	(1.15029801586335e-001dB,-1.72710373415938e+002°)
2.51188643150958e+000	(1.20393650395442e-001dB,-1.72544112449188e+002°)
2.57039578276886e+000	(1.26004496487277e-001dB,-1.72374226748094e+002°)
2.63026799189538e+000	(1.31873436292256e-001dB,-1.72200649029603e+002°)
2.69153480392691e+000	(1.38012038816645e-001dB,-1.72023311600510e+002°)
2.75422870333816e+000	(1.44432363355752e-001dB,-1.71842146422596e+002°)
2.81838293126445e+000	(1.51146977644576e-001dB,-1.71657085183709e+002°)
2.88403150312660e+000	(1.58168976433991e-001dB,-1.71468059375140e+002°)
2.95120922666638e+000	(1.65512000477770e-001dB,-1.71275000375671e+002°)
3.01995172040201e+000	(1.73190255912359e-001dB,-1.71077839542657e+002°)
3.09029543251359e+000	(1.81218534008149e-001dB,-1.70876508310549e+002°)
3.16227766016837e+000	(1.89612231266908e-001dB,-1.70670938297260e+002°)
3.23593656929628e+000	(1.98387369836313e-001dB,-1.70461061418785e+002°)
3.31131121482591e+000	(2.07560618207921e-001dB,-1.70246810012497e+002°)
3.38844156139202e+000	(2.17149312160401e-001dB,-1.70028116969565e+002°)
3.46736850452531e+000	(2.27171475904764e-001dB,-1.69804915876922e+002°)
3.54813389233575e+000	(2.37645843383082e-001dB,-1.69577141169241e+002°)
3.63078054770101e+000	(2.48591879666324e-001dB,-1.69344728291354e+002°)
3.71535229097172e+000	(2.60029802391327e-001dB,-1.69107613871585e+002°)
3.80189396320560e+000	(2.71980603170113e-001dB,-1.68865735906437e+002°)
3.89045144994280e+000	(2.84466068898565e-001dB,-1.68619033957081e+002°)
3.98107170553496e+000	(2.97508802884229e-001dB,-1.68367449358089e+002°)
4.07380277804112e+000	(3.11132245706085e-001dB,-1.68110925438845e+002°)
4.16869383470335e+000	(3.25360695711250e-001dB,-1.67849407758045e+002°)
4.26579518801592e+000	(3.40219329046373e-001dB,-1.67582844351688e+002°)
4.36515832240165e+000	(3.55734219113220e-001dB,-1.67311185994924e+002°)
4.46683592150962e+000	(3.71932355330162e-001dB,-1.67034386478125e+002°)
4.57088189614874e+000	(3.88841661073120e-001dB,-1.66752402897466e+002°)
4.67735141287197e+000	(4.06491010661480e-001dB,-1.66465195960317e+002°)
4.78630092322637e+000	(4.24910245246521e-001dB,-1.66172730305648e+002°)
4.89778819368445e+000	(4.44130187452013e-001dB,-1.65874974839650e+002°)
5.01187233627271e+000	(4.64182654609213e-001dB,-1.65571903086672e+002°)
5.12861383991364e+000	(4.85100470421256e-001dB,-1.65263493555537e+002°)
5.24807460249771e+000	(5.06917474885236e-001dB,-1.64949730121212e+002°)
5.37031796370252e+000	(5.29668532294496e-001dB,-1.64630602421737e+002°)
5.49540873857623e+000	(5.53389537138261e-001dB,-1.64306106270227e+002°)
5.62341325190348e+000	(5.78117417711832e-001dB,-1.63976244081665e+002°)
5.75439937337156e+000	(6.03890137247035e-001dB,-1.63641025314103e+002°)
5.88843655355588e+000	(6.30746692371671e-001dB,-1.63300466923792e+002°)
6.02559586074356e+000	(6.58727108705677e-001dB,-1.62954593833623e+002°)
6.16595001861481e+000	(6.87872433403973e-001dB,-1.62603439414168e+002°)
6.30957344480192e+000	(7.18224724459050e-001dB,-1.62247045976482e+002°)
6.45654229034654e+000	(7.49827036581984e-001dB,-1.61885465275671e+002°)
6.60693448007594e+000	(7.82723403488677e-001dB,-1.61518759024158e+002°)
6.76082975391980e+000	(8.16958816428364e-001dB,-1.61146999413387e+002°)
6.91830970918935e+000	(8.52579198804538e-001dB,-1.60770269642631e+002°)
7.07945784384136e+000	(8.89631376754461e-001dB,-1.60388664453413e+002°)
7.24435960074988e+000	(9.28163045572359e-001dB,-1.60002290667936e+002°)
7.41310241300916e+000	(9.68222731883109e-001dB,-1.59611267729832e+002°)
7.58577575029182e+000	(1.00985975149856e+000dB,-1.59215728245410e+002°)
7.76247116628690e+000	(1.05312416291660e+000dB,-1.58815818523522e+002°)
7.94328234724279e+000	(1.09806671645416e+000dB,-1.58411699112091e+002°)
8.12830516164097e+000	(1.14473879904019e+000dB,-1.58003545329317e+002°)
8.31763771102669e+000	(1.19319237473027e+000dB,-1.57591547787534e+002°)
8.51138038202374e+000	(1.24347992104536e+000dB,-1.57175912907739e+002°)
8.70963589956078e+000	(1.29565436127772e+000dB,-1.56756863422822e+002°)
8.91250938133743e+000	(1.34976899295076e+000dB,-1.56334638867644e+002°)
9.12010839355907e+000	(1.40587741266388e+000dB,-1.55909496054203e+002°)
9.33254300796988e+000	(1.46403343759841e+000dB,-1.55481709530330e+002°)
9.54992586021433e+000	(1.52429102400543e+000dB,-1.55051572020542e+002°)
9.77237220955808e+000	(1.58670418304033e+000dB,-1.54619394847970e+002°)
9.99999999999997e+000	(1.65132689435053e+000dB,-1.54185508336601e+002°)
1.02329299228075e+001	(1.71821301786163e+000dB,-1.53750262193433e+002°)
1.04712854805090e+001	(1.78741620424259e+000dB,-1.53314025870605e+002°)
1.07151930523760e+001	(1.85898980455951e+000dB,-1.52877188908048e+002°)
1.09647819614318e+001	(1.93298677965091e+000dB,-1.52440161257738e+002°)
1.12201845430196e+001	(2.00945960977290e+000dB,-1.52003373591289e+002°)
1.14815362149688e+001	(2.08846020506841e+000dB,-1.51567277593243e+002°)
1.17489755493953e+001	(2.17003981741009e+000dB,-1.51132346243173e+002°)
1.20226443461741e+001	(2.25424895415058e+000dB,-1.50699074090478e+002°)
1.23026877081238e+001	(2.34113729428333e+000dB,-1.50267977526564e+002°)
1.25892541179416e+001	(2.43075360747284e+000dB,-1.49839595059983e+002°)
1.28824955169313e+001	(2.52314567635189e+000dB,-1.49414487601000e+002°)
1.31825673855640e+001	(2.61836022240491e+000dB,-1.48993238762983e+002°)
1.34896288259165e+001	(2.71644283565803e+000dB,-1.48576455188997e+002°)
1.38038426460288e+001	(2.81743790827843e+000dB,-1.48164766912911e+002°)
1.41253754462275e+001	(2.92138857204400e+000dB,-1.47758827765378e+002°)
1.44543977074592e+001	(3.02833663947962e+000dB,-1.47359315835981e+002°)
1.47910838816820e+001	(3.13832254826644e+000dB,-1.46966934003849e+002°)
1.51356124843620e+001	(3.25138530831156e+000dB,-1.46582410550030e+002°)
1.54881661891248e+001	(3.36756245061844e+000dB,-1.46206499865821e+002°)
1.58489319246111e+001	(3.48688997681816e+000dB,-1.45839983272202e+002°)
1.62181009735892e+001	(3.60940230790562e+000dB,-1.45483669966370e+002°)
1.65958690743755e+001	(3.73513223037171e+000dB,-1.45138398112219e+002°)
1.69824365246174e+001	(3.86411083752469e+000dB,-1.44805036092306e+002°)
1.73780082874937e+001	(3.99636746334968e+000dB,-1.44484483939562e+002°)
1.77827941003892e+001	(4.13192960575686e+000dB,-1.44177674967522e+002°)
1.81970085860998e+001	(4.27082283551026e+000dB,-1.43885577618258e+002°)
1.86208713666286e+001	(4.41307068650193e+000dB,-1.43609197547476e+002°)
1.90546071796324e+001	(4.55869452233091e+000dB,-1.43349579966207e+002°)
1.94984459975804e+001	(4.70771337335317e+000dB,-1.43107812258305e+002°)
1.99526231496887e+001	(4.86014373747355e+000dB,-1.42885026892318e+002°)
2.04173794466952e+001	(5.01599933694113e+000dB,-1.42682404645215e+002°)
2.08929613085403e+001	(5.17529082226922e+000dB,-1.42501178153779e+002°)
2.13796208950222e+001	(5.33802541311441e+000dB,-1.42342635807038e+002°)
2.18776162394954e+001	(5.50420646449664e+000dB,-1.42208125989673e+002°)
2.23872113856833e+001	(5.67383294510795e+000dB,-1.42099061681687e+002°)
2.29086765276776e+001	(5.84689881262240e+000dB,-1.42016925413362e+002°)
2.34422881531991e+001	(6.02339226886963e+000dB,-1.41963274566252e+002°)
2.39883291901948e+001	(6.20329487545756e+000dB,-1.41939747000143e+002°)
2.45470891568502e+001	(6.38658050792413e+000dB,-1.41948066971897e+002°)
2.51188643150957e+001	(6.57321412377031e+000dB,-1.41990051294047e+002°)
2.57039578276885e+001	(6.76315031680564e+000dB,-1.42067615658052e+002°)
2.63026799189537e+001	(6.95633162717506e+000dB,-1.42182781017946e+002°)
2.69153480392690e+001	(7.15268657332365e+000dB,-1.42337679893502e+002°)
2.75422870333815e+001	(7.35212736913730e+000dB,-1.42534562406233e+002°)
2.81838293126444e+001	(7.55454728678843e+000dB,-1.42775801804885e+002°)
2.88403150312659e+001	(7.75981762372882e+000dB,-1.43063899167396e+002°)
2.95120922666637e+001	(7.96778423124662e+000dB,-1.43401486881565e+002°)
3.01995172040200e+001	(8.17826356264590e+000dB,-1.43791330404738e+002°)
3.09029543251358e+001	(8.39103820222808e+000dB,-1.44236327681797e+002°)
3.16227766016837e+001	(8.60585184292188e+000dB,-1.44739505459485e+002°)
3.23593656929627e+001	(8.82240369199269e+000dB,-1.45304011573406e+002°)
3.31131121482590e+001	(9.04034230247266e+000dB,-1.45933102104056e+002°)
3.38844156139201e+001	(9.25925885485538e+000dB,-1.46630122104815e+002°)
3.46736850452530e+001	(9.47867995158289e+000dB,-1.47398478407790e+002°)
3.54813389233574e+001	(9.69806003852682e+000dB,-1.48241602828749e+002°)
3.63078054770100e+001	(9.91677363561916e+000dB,-1.49162903944906e+002°)
3.71535229097171e+001	(1.01341076451826e+001dB,-1.50165705544773e+002°)
3.80189396320559e+001	(1.03492541124172e+001dB,-1.51253169896172e+002°)
3.89045144994279e+001	(1.05613039369353e+001dB,-1.52428204209532e+002°)
3.98107170553495e+001	(1.07692421728692e+001dB,-1.53693349163625e+002°)
4.07380277804111e+001	(1.09719456986775e+001dB,-1.55050649192585e+002°)
4.16869383470333e+001	(1.11681841705439e+001dB,-1.56501505485007e+002°)
4.26579518801591e+001	(1.13566252715749e+001dB,-1.58046514374766e+002°)
4.36515832240164e+001	(1.15358453010657e+001dB,-1.59685296015407e+002°)
4.46683592150961e+001	(1.17043460756824e+001dB,-1.61416320848301e+002°)
4.57088189614873e+001	(1.18605788974728e+001dB,-1.63236744201225e+002°)
4.67735141287196e+001	(1.20029759488253e+001dB,-1.65142262043655e+002°)
4.78630092322636e+001	(1.21299888873124e+001dB,-1.67127002983977e+002°)
4.89778819368444e+001	(1.22401336520877e+001dB,-1.69183472422692e+002°)
5.01187233627270e+001	(1.23320396214320e+001dB,-1.71302563769885e+002°)
5.12861383991362e+001	(1.24045003907957e+001dB,-1.73473648342693e+002°)
5.24807460249770e+001	(1.24565227250574e+001dB,-1.75684749863637e+002°)
5.37031796370250e+001	(1.24873698444138e+001dB,-1.77922801762304e+002°)
5.49540873857622e+001	(1.24965952702653e+001dB,1.79826023331466e+002°)
5.62341325190346e+001	(1.24840640538584e+001dB,1.77575931052703e+002°)
5.75439937337154e+001	(1.24499592992325e+001dB,1.75341095595473e+002°)
5.88843655355586e+001	(1.23947733244392e+001dB,1.73135252285469e+002°)
6.02559586074355e+001	(1.23192843483752e+001dB,1.70971321576929e+002°)
6.16595001861479e+001	(1.22245209842028e+001dB,1.68861089497722e+002°)
6.30957344480190e+001	(1.21117178412427e+001dB,1.66814962473923e+002°)
6.45654229034652e+001	(1.19822660526732e+001dB,1.64841805785971e+002°)
6.60693448007593e+001	(1.18376625365556e+001dB,1.62948866180982e+002°)
6.76082975391978e+001	(1.16794613443429e+001dB,1.61141771708442e+002°)
6.91830970918933e+001	(1.15092297010840e+001dB,1.59424596506058e+002°)
7.07945784384134e+001	(1.13285104619436e+001dB,1.57799975335395e+002°)
7.24435960074986e+001	(1.11387918483645e+001dB,1.56269251975135e+002°)
7.41310241300914e+001	(1.09414845895322e+001dB,1.54832646635959e+002°)
7.58577575029180e+001	(1.07379060366609e+001dB,1.53489429752781e+002°)
7.76247116628688e+001	(1.05292704514220e+001dB,1.52238092248835e+002°)
7.94328234724277e+001	(1.03166844773091e+001dB,1.51076505179372e+002°)
8.12830516164095e+001	(1.01011467488085e+001dB,1.50002064228708e+002°)
8.31763771102667e+001	(9.88355063771776e+000dB,1.49011816675576e+002°)
8.51138038202372e+001	(9.66468924136206e+000dB,1.48102570096060e+002°)
8.70963589956076e+001	(9.44526185318965e+000dB,1.47270983256974e+002°)
8.91250938133741e+001	(9.22588129991270e+000dB,1.46513640426988e+002°)
9.12010839355905e+001	(9.00708166628836e+000dB,1.45827110778213e+002°)
9.33254300796986e+001	(8.78932605043298e+000dB,1.45207994749422e+002°)
9.54992586021431e+001	(8.57301409550200e+000dB,1.44652959266854e+002°)
9.77237220955805e+001	(8.35848912705407e+000dB,1.44158763630075e+002°)
9.99999999999995e+001	(8.14604479074073e+000dB,1.43722277715258e+002°)
1.02329299228075e+002	(7.93593113438422e+000dB,1.43340493960371e+002°)
1.04712854805089e+002	(7.72836011464150e+000dB,1.43010534399365e+002°)
1.07151930523760e+002	(7.52351053388621e+000dB,1.42729653820649e+002°)
1.09647819614318e+002	(7.32153243001950e+000dB,1.42495239947643e+002°)
1.12201845430196e+002	(7.12255095265579e+000dB,1.42304811380595e+002°)
1.14815362149688e+002	(6.92666976517743e+000dB,1.42156013900674e+002°)
1.17489755493952e+002	(6.73397401483418e+000dB,1.42046615619363e+002°)
1.20226443461741e+002	(6.54453291340513e+000dB,1.41974501356952e+002°)
1.23026877081237e+002	(6.35840196971911e+000dB,1.41937666551670e+002°)
1.25892541179416e+002	(6.17562491312404e+000dB,1.41934210933378e+002°)
1.28824955169313e+002	(5.99623534422154e+000dB,1.41962332140901e+002°)
1.31825673855640e+002	(5.82025814613903e+000dB,1.42020319417762e+002°)
1.34896288259165e+002	(5.64771068649875e+000dB,1.42106547485687e+002°)
1.38038426460288e+002	(5.47860383719770e+000dB,1.42219470667152e+002°)
1.41253754462275e+002	(5.31294283621802e+000dB,1.42357617306025e+002°)
1.44543977074592e+002	(5.15072801299255e+000dB,1.42519584518061e+002°)
1.47910838816820e+002	(4.99195539637883e+000dB,1.42704033289451e+002°)
1.51356124843620e+002	(4.83661722205314e+000dB,1.42909683931301e+002°)
1.54881661891247e+002	(4.68470235411977e+000dB,1.43135311889922e+002°)
1.58489319246110e+002	(4.53619663392663e+000dB,1.43379743906854e+002°)
1.62181009735892e+002	(4.39108316747345e+000dB,1.43641854518104e+002°)
1.65958690743755e+002	(4.24934256137211e+000dB,1.43920562878774e+002°)
1.69824365246173e+002	(4.11095311605602e+000dB,1.44214829896997e+002°)
1.73780082874936e+002	(3.97589098381526e+000dB,1.44523655659480e+002°)
1.77827941003891e+002	(3.84413029824380e+000dB,1.44846077129974e+002°)
1.81970085860997e+002	(3.71564328080575e+000dB,1.45181166101402e+002°)
1.86208713666286e+002	(3.59040032944895e+000dB,1.45528027382191e+002°)
1.90546071796323e+002	(3.46837009350084e+000dB,1.45885797197383e+002°)
1.94984459975803e+002	(3.34951953846598e+000dB,1.46253641785389e+002°)
1.99526231496887e+002	(3.23381400379533e+000dB,1.46630756171677e+002°)
2.04173794466952e+002	(3.12121725620753e+000dB,1.47016363101261e+002°)
2.08929613085403e+002	(3.01169154070577e+000dB,1.47409712112510e+002°)
2.13796208950222e+002	(2.90519763104320e+000dB,1.47810078735602e+002°)
2.18776162394954e+002	(2.80169488104237e+000dB,1.48216763799720e+002°)
2.23872113856832e+002	(2.70114127786371e+000dB,1.48629092834000e+002°)
2.29086765276776e+002	(2.60349349804391e+000dB,1.49046415548153e+002°)
2.34422881531991e+002	(2.50870696688106e+000dB,1.49468105379644e+002°)
2.39883291901947e+002	(2.41673592153021e+000dB,1.49893559095255e+002°)
2.45470891568501e+002	(2.32753347798627e+000dB,1.50322196435885e+002°)
2.51188643150956e+002	(2.24105170197028e+000dB,1.50753459794399e+002°)
2.57039578276885e+002	(2.15724168359731e+000dB,1.51186813917340e+002°)
2.63026799189536e+002	(2.07605361558911e+000dB,1.51621745622285e+002°)
2.69153480392690e+002	(1.99743687469928e+000dB,1.52057763523586e+002°)
2.75422870333815e+002	(1.92134010594306e+000dB,1.52494397760167e+002°)
2.81838293126443e+002	(1.84771130916508e+000dB,1.52931199719936e+002°)
2.88403150312659e+002	(1.77649792743611e+000dB,1.53367741756254e+002°)
2.95120922666637e+002	(1.70764693674232e+000dB,1.53803616892680e+002°)
3.01995172040200e+002	(1.64110493641551e+000dB,1.54238438513020e+002°)
3.09029543251357e+002	(1.57681823975039e+000dB,1.54671840034393e+002°)
3.16227766016836e+002	(1.51473296426256e+000dB,1.55103474561709e+002°)
3.23593656929626e+002	(1.45479512105695e+000dB,1.55533014522528e+002°)
3.31131121482589e+002	(1.39695070280116e+000dB,1.55960151281859e+002°)
3.38844156139200e+002	(1.34114576982829e+000dB,1.56384594736900e+002°)
3.46736850452529e+002	(1.28732653392930e+000dB,1.56806072892175e+002°)
3.54813389233573e+002	(1.23543943943462e+000dB,1.57224331415880e+002°)
3.63078054770099e+002	(1.18543124122679e+000dB,1.57639133178584e+002°)
3.71535229097170e+002	(1.13724907936982e+000dB,1.58050257775666e+002°)
3.80189396320558e+002	(1.09084055008608e+000dB,1.58457501035090e+002°)
3.89045144994278e+002	(1.04615377285614e+000dB,1.58860674512299e+002°)
3.98107170553494e+002	(1.00313745346175e+000dB,1.59259604974102e+002°)
4.07380277804110e+002	(9.61740942834826e-001dB,1.59654133873510e+002°)
4.16869383470332e+002	(9.21914291616490e-001dB,1.60044116817540e+002°)
4.26579518801589e+002	(8.83608300369733e-001dB,1.60429423029975e+002°)
4.36515832240163e+002	(8.46774565425356e-001dB,1.60809934811098e+002°)
4.46683592150960e+002	(8.11365520374637e-001dB,1.61185546996310e+002°)
4.57088189614872e+002	(7.77334473253077e-001dB,1.61556166415538e+002°)
4.67735141287195e+002	(7.44635639487235e-001dB,1.61921711355206e+002°)
4.78630092322635e+002	(7.13224170701031e-001dB,1.62282111024462e+002°)
4.89778819368443e+002	(6.83056179499585e-001dB,1.62637305027254e+002°)
5.01187233627268e+002	(6.54088760367148e-001dB,1.62987242841704e+002°)
5.12861383991361e+002	(6.26280006830862e-001dB,1.63331883308124e+002°)
5.24807460249769e+002	(5.99589025055192e-001dB,1.63671194126882e+002°)
5.37031796370249e+002	(5.73975944041559e-001dB,1.64005151367202e+002°)
5.49540873857620e+002	(5.49401922615452e-001dB,1.64333738987849e+002°)
5.62341325190345e+002	(5.25829153388613e-001dB,1.64656948370519e+002°)
5.75439937337152e+002	(5.03220863886712e-001dB,1.64974777866648e+002°)
5.88843655355584e+002	(4.81541315034716e-001dB,1.65287232358219e+002°)
