Freq.	V(vo)/V(Vi)
1.00000000000000e+000	(-7.97438701340992e-005dB,1.79999965740160e+002°)
1.02329299228075e+000	(-7.97438400487347e-005dB,1.79999964942146e+002°)
1.04712854805090e+000	(-7.97438085448314e-005dB,1.79999964125543e+002°)
1.07151930523761e+000	(-7.97437755645293e-005dB,1.79999963289919e+002°)
1.09647819614318e+000	(-7.97437410229667e-005dB,1.79999962434831e+002°)
1.12201845430196e+000	(-7.97437048574617e-005dB,1.79999961559826e+002°)
1.14815362149688e+000	(-7.97436669850814e-005dB,1.79999960664439e+002°)
1.17489755493953e+000	(-7.97436273257859e-005dB,1.79999959748196e+002°)
1.20226443461741e+000	(-7.97435857956779e-005dB,1.79999958810610e+002°)
1.23026877081238e+000	(-7.97435423205036e-005dB,1.79999957851186e+002°)
1.25892541179417e+000	(-7.97434967835782e-005dB,1.79999956869414e+002°)
1.28824955169313e+000	(-7.97434491145053e-005dB,1.79999955864773e+002°)
1.31825673855641e+000	(-7.97433991859923e-005dB,1.79999954836731e+002°)
1.34896288259165e+000	(-7.97433469044987e-005dB,1.79999953784743e+002°)
1.38038426460288e+000	(-7.97432921620188e-005dB,1.79999952708250e+002°)
1.41253754462275e+000	(-7.97432348360820e-005dB,1.79999951606683e+002°)
1.44543977074593e+000	(-7.97431748177181e-005dB,1.79999950479458e+002°)
1.47910838816821e+000	(-7.97431119603481e-005dB,1.79999949325975e+002°)
1.51356124843621e+000	(-7.97430461415013e-005dB,1.79999948145625e+002°)
1.54881661891248e+000	(-7.97429772271348e-005dB,1.79999946937781e+002°)
1.58489319246111e+000	(-7.97429050600620e-005dB,1.79999945701802e+002°)
1.62181009735893e+000	(-7.97428294994897e-005dB,1.79999944437034e+002°)
1.65958690743756e+000	(-7.97427503689443e-005dB,1.79999943142805e+002°)
1.69824365246174e+000	(-7.97426675112390e-005dB,1.79999941818430e+002°)
1.73780082874937e+000	(-7.97425807556863e-005dB,1.79999940463206e+002°)
1.77827941003892e+000	(-7.97424899045973e-005dB,1.79999939076415e+002°)
1.81970085860998e+000	(-7.97423947737837e-005dB,1.79999937657321e+002°)
1.86208713666287e+000	(-7.97422951607349e-005dB,1.79999936205172e+002°)
1.90546071796325e+000	(-7.97421908590829e-005dB,1.79999934719198e+002°)
1.94984459975804e+000	(-7.97420816103855e-005dB,1.79999933198612e+002°)
1.99526231496888e+000	(-7.97419672478127e-005dB,1.79999931642606e+002°)
2.04173794466953e+000	(-7.97418474868852e-005dB,1.79999930050356e+002°)
2.08929613085404e+000	(-7.97417220739825e-005dB,1.79999928421018e+002°)
2.13796208950223e+000	(-7.97415907622345e-005dB,1.79999926753727e+002°)
2.18776162394955e+000	(-7.97414532575187e-005dB,1.79999925047600e+002°)
2.23872113856834e+000	(-7.97413092618551e-005dB,1.79999923301732e+002°)
2.29086765276777e+000	(-7.97411584984792e-005dB,1.79999921515198e+002°)
2.34422881531992e+000	(-7.97410006163726e-005dB,1.79999919687049e+002°)
2.39883291901949e+000	(-7.97408353001973e-005dB,1.79999917816318e+002°)
2.45470891568503e+000	(-7.97406621892916e-005dB,1.79999915902011e+002°)
2.51188643150958e+000	(-7.97404809201006e-005dB,1.79999913943114e+002°)
2.57039578276886e+000	(-7.97402911097828e-005dB,1.79999911938588e+002°)
2.63026799189538e+000	(-7.97400923504240e-005dB,1.79999909887371e+002°)
2.69153480392691e+000	(-7.97398842244665e-005dB,1.79999907788374e+002°)
2.75422870333816e+000	(-7.97396662969947e-005dB,1.79999905640485e+002°)
2.81838293126445e+000	(-7.97394380974124e-005dB,1.79999903442565e+002°)
2.88403150312660e+000	(-7.97391991416228e-005dB,1.79999901193449e+002°)
2.95120922666638e+000	(-7.97389489175633e-005dB,1.79999898891943e+002°)
3.01995172040201e+000	(-7.97386869044923e-005dB,1.79999896536829e+002°)
3.09029543251359e+000	(-7.97384125508094e-005dB,1.79999894126856e+002°)
3.16227766016837e+000	(-7.97381252624835e-005dB,1.79999891660748e+002°)
3.23593656929628e+000	(-7.97378244358401e-005dB,1.79999889137195e+002°)
3.31131121482591e+000	(-7.97375094257380e-005dB,1.79999886554862e+002°)
3.38844156139202e+000	(-7.97371795745000e-005dB,1.79999883912377e+002°)
3.46736850452531e+000	(-7.97368341839466e-005dB,1.79999881208341e+002°)
3.54813389233575e+000	(-7.97364725038241e-005dB,1.79999878441319e+002°)
3.63078054770101e+000	(-7.97360938041299e-005dB,1.79999875609844e+002°)
3.71535229097172e+000	(-7.97356972314264e-005dB,1.79999872712415e+002°)
3.80189396320560e+000	(-7.97352819814571e-005dB,1.79999869747495e+002°)
3.89045144994280e+000	(-7.97348471448528e-005dB,1.79999866713513e+002°)
3.98107170553496e+000	(-7.97343918373172e-005dB,1.79999863608859e+002°)
4.07380277804112e+000	(-7.97339150607621e-005dB,1.79999860431888e+002°)
4.16869383470335e+000	(-7.97334158219212e-005dB,1.79999857180915e+002°)
4.26579518801592e+000	(-7.97328930523098e-005dB,1.79999853854215e+002°)
4.36515832240165e+000	(-7.97323456448698e-005dB,1.79999850450026e+002°)
4.46683592150962e+000	(-7.97317724423977e-005dB,1.79999846966542e+002°)
4.57088189614874e+000	(-7.97311722221149e-005dB,1.79999843401916e+002°)
4.67735141287197e+000	(-7.97305437313487e-005dB,1.79999839754258e+002°)
4.78630092322637e+000	(-7.97298856074918e-005dB,1.79999836021633e+002°)
4.89778819368445e+000	(-7.97291964638287e-005dB,1.79999832202063e+002°)
5.01187233627271e+000	(-7.97284748519260e-005dB,1.79999828293522e+002°)
5.12861383991364e+000	(-7.97277192384892e-005dB,1.79999824293937e+002°)
5.24807460249771e+000	(-7.97269280111479e-005dB,1.79999820201189e+002°)
5.37031796370252e+000	(-7.97260994948499e-005dB,1.79999816013105e+002°)
5.49540873857623e+000	(-7.97252319354675e-005dB,1.79999811727467e+002°)
5.62341325190348e+000	(-7.97243234911184e-005dB,1.79999807342001e+002°)
5.75439937337156e+000	(-7.97233722340941e-005dB,1.79999802854382e+002°)
5.88843655355588e+000	(-7.97223761566466e-005dB,1.79999798262230e+002°)
6.02559586074356e+000	(-7.97213331227709e-005dB,1.79999793563110e+002°)
6.16595001861481e+000	(-7.97202409540313e-005dB,1.79999788754531e+002°)
6.30957344480192e+000	(-7.97190973080549e-005dB,1.79999783833942e+002°)
6.45654229034654e+000	(-7.97178997730366e-005dB,1.79999778798734e+002°)
6.60693448007594e+000	(-7.97166458147005e-005dB,1.79999773646237e+002°)
6.76082975391980e+000	(-7.97153327570134e-005dB,1.79999768373720e+002°)
6.91830970918935e+000	(-7.97139578149721e-005dB,1.79999762978385e+002°)
7.07945784384136e+000	(-7.97125180820669e-005dB,1.79999757457372e+002°)
7.24435960074988e+000	(-7.97110105148524e-005dB,1.79999751807752e+002°)
7.41310241300916e+000	(-7.97094319020888e-005dB,1.79999746026531e+002°)
7.58577575029182e+000	(-7.97077788965647e-005dB,1.79999740110643e+002°)
7.76247116628690e+000	(-7.97060480025611e-005dB,1.79999734056949e+002°)
7.94328234724279e+000	(-7.97042355363132e-005dB,1.79999727862240e+002°)
8.12830516164097e+000	(-7.97023376674772e-005dB,1.79999721523230e+002°)
8.31763771102669e+000	(-7.97003503738065e-005dB,1.79999715036559e+002°)
8.51138038202374e+000	(-7.96982694411514e-005dB,1.79999708398785e+002°)
8.70963589956078e+000	(-7.96960904374223e-005dB,1.79999701606389e+002°)
8.91250938133743e+000	(-7.96938087694853e-005dB,1.79999694655768e+002°)
9.12010839355907e+000	(-7.96914195828716e-005dB,1.79999687543237e+002°)
9.33254300796988e+000	(-7.96889178157800e-005dB,1.79999680265022e+002°)
9.54992586021433e+000	(-7.96862981682181e-005dB,1.79999672817265e+002°)
9.77237220955808e+000	(-7.96835550991096e-005dB,1.79999665196015e+002°)
9.99999999999997e+000	(-7.96806827539688e-005dB,1.79999657397229e+002°)
1.02329299228075e+001	(-7.96776751018367e-005dB,1.79999649416773e+002°)
1.04712854805090e+001	(-7.96745257134831e-005dB,1.79999641250412e+002°)
1.07151930523760e+001	(-7.96712279455953e-005dB,1.79999632893816e+002°)
1.09647819614318e+001	(-7.96677747961276e-005dB,1.79999624342553e+002°)
1.12201845430196e+001	(-7.96641589496249e-005dB,1.79999615592087e+002°)
1.14815362149688e+001	(-7.96603727425067e-005dB,1.79999606637775e+002°)
1.17489755493953e+001	(-7.96564081534237e-005dB,1.79999597474870e+002°)
1.20226443461741e+001	(-7.96522567714351e-005dB,1.79999588098510e+002°)
1.23026877081238e+001	(-7.96479098037226e-005dB,1.79999578503722e+002°)
1.25892541179416e+001	(-7.96433580418390e-005dB,1.79999568685416e+002°)
1.28824955169313e+001	(-7.96385918424216e-005dB,1.79999558638384e+002°)
1.31825673855640e+001	(-7.96336010886185e-005dB,1.79999548357296e+002°)
1.34896288259165e+001	(-7.96283752344483e-005dB,1.79999537836699e+002°)
1.38038426460288e+001	(-7.96229031813648e-005dB,1.79999527071010e+002°)
1.41253754462275e+001	(-7.96171733708336e-005dB,1.79999516054519e+002°)
1.44543977074592e+001	(-7.96111736203946e-005dB,1.79999504781381e+002°)
1.47910838816820e+001	(-7.96048912596336e-005dB,1.79999493245615e+002°)
1.51356124843620e+001	(-7.95983129575663e-005dB,1.79999481441100e+002°)
1.54881661891248e+001	(-7.95914247795337e-005dB,1.79999469361574e+002°)
1.58489319246111e+001	(-7.95842121515220e-005dB,1.79999457000626e+002°)
1.62181009735892e+001	(-7.95766598023024e-005dB,1.79999444351699e+002°)
1.65958690743755e+001	(-7.95687517412511e-005dB,1.79999431408080e+002°)
1.69824365246174e+001	(-7.95604711985610e-005dB,1.79999418162900e+002°)
1.73780082874937e+001	(-7.95518006657432e-005dB,1.79999404609131e+002°)
1.77827941003892e+001	(-7.95427217828002e-005dB,1.79999390739579e+002°)
1.81970085860998e+001	(-7.95332153199031e-005dB,1.79999376546885e+002°)
1.86208713666286e+001	(-7.95232611725703e-005dB,1.79999362023514e+002°)
1.90546071796324e+001	(-7.95128382613762e-005dB,1.79999347161759e+002°)
1.94984459975804e+001	(-7.95019245454522e-005dB,1.79999331953731e+002°)
1.99526231496887e+001	(-7.94904969019446e-005dB,1.79999316391358e+002°)
2.04173794466952e+001	(-7.94785311829103e-005dB,1.79999300466377e+002°)
2.08929613085403e+001	(-7.94660020668093e-005dB,1.79999284170335e+002°)
2.13796208950222e+001	(-7.94528830507899e-005dB,1.79999267494581e+002°)
2.18776162394954e+001	(-7.94391463860780e-005dB,1.79999250430259e+002°)
2.23872113856833e+001	(-7.94247630326537e-005dB,1.79999232968310e+002°)
2.29086765276776e+001	(-7.94097025686035e-005dB,1.79999215099461e+002°)
2.34422881531991e+001	(-7.93939331708338e-005dB,1.79999196814222e+002°)
2.39883291901948e+001	(-7.93774214964570e-005dB,1.79999178102882e+002°)
2.45470891568502e+001	(-7.93601326606127e-005dB,1.79999158955504e+002°)
2.51188643150957e+001	(-7.93420301236396e-005dB,1.79999139361916e+002°)
2.57039578276885e+001	(-7.93230756553957e-005dB,1.79999119311710e+002°)
2.63026799189537e+001	(-7.93032292098942e-005dB,1.79999098794234e+002°)
2.69153480392690e+001	(-7.92824488954094e-005dB,1.79999077798587e+002°)
2.75422870333815e+001	(-7.92606908182540e-005dB,1.79999056313612e+002°)
2.81838293126444e+001	(-7.92379090721721e-005dB,1.79999034327891e+002°)
2.88403150312659e+001	(-7.92140555560789e-005dB,1.79999011829740e+002°)
2.95120922666637e+001	(-7.91890799653823e-005dB,1.79998988807200e+002°)
3.01995172040200e+001	(-7.91629296097233e-005dB,1.79998965248032e+002°)
3.09029543251358e+001	(-7.91355493580091e-005dB,1.79998941139711e+002°)
3.16227766016837e+001	(-7.91068814667610e-005dB,1.79998916469416e+002°)
3.23593656929627e+001	(-7.90768655473273e-005dB,1.79998891224029e+002°)
3.31131121482590e+001	(-7.90454383411931e-005dB,1.79998865390122e+002°)
3.38844156139201e+001	(-7.90125336486198e-005dB,1.79998838953951e+002°)
3.46736850452530e+001	(-7.89780822254607e-005dB,1.79998811901453e+002°)
3.54813389233574e+001	(-7.89420115266483e-005dB,1.79998784218231e+002°)
3.63078054770100e+001	(-7.89042456695493e-005dB,1.79998755889552e+002°)
3.71535229097171e+001	(-7.88647052295260e-005dB,1.79998726900337e+002°)
3.80189396320559e+001	(-7.88233070808206e-005dB,1.79998697235150e+002°)
3.89045144994279e+001	(-7.87799642239395e-005dB,1.79998666878197e+002°)
3.98107170553495e+001	(-7.87345856313599e-005dB,1.79998635813306e+002°)
4.07380277804111e+001	(-7.86870760025885e-005dB,1.79998604023930e+002°)
4.16869383470333e+001	(-7.86373356407267e-005dB,1.79998571493129e+002°)
4.26579518801591e+001	(-7.85852602489966e-005dB,1.79998538203566e+002°)
4.36515832240164e+001	(-7.85307406211887e-005dB,1.79998504137493e+002°)
4.46683592150961e+001	(-7.84736625384792e-005dB,1.79998469276746e+002°)
4.57088189614873e+001	(-7.84139065013442e-005dB,1.79998433602730e+002°)
4.67735141287196e+001	(-7.83513474238664e-005dB,1.79998397096413e+002°)
4.78630092322636e+001	(-7.82858545006569e-005dB,1.79998359738312e+002°)
4.89778819368444e+001	(-7.82172908404080e-005dB,1.79998321508484e+002°)
5.01187233627270e+001	(-7.81455132469901e-005dB,1.79998282386513e+002°)
5.12861383991362e+001	(-7.80703719272582e-005dB,1.79998242351502e+002°)
5.24807460249770e+001	(-7.79917101699287e-005dB,1.79998201382058e+002°)
5.37031796370250e+001	(-7.79093640842457e-005dB,1.79998159456279e+002°)
5.49540873857622e+001	(-7.78231622229262e-005dB,1.79998116551745e+002°)
5.62341325190346e+001	(-7.77329252687522e-005dB,1.79998072645503e+002°)
5.75439937337154e+001	(-7.76384656931969e-005dB,1.79998027714056e+002°)
5.88843655355586e+001	(-7.75395873919066e-005dB,1.79997981733346e+002°)
6.02559586074355e+001	(-7.74360852642523e-005dB,1.79997934678742e+002°)
6.16595001861479e+001	(-7.73277448700270e-005dB,1.79997886525028e+002°)
6.30957344480190e+001	(-7.72143420128548e-005dB,1.79997837246384e+002°)
6.45654229034652e+001	(-7.70956422300587e-005dB,1.79997786816376e+002°)
6.60693448007593e+001	(-7.69714004705744e-005dB,1.79997735207934e+002°)
6.76082975391978e+001	(-7.68413605462455e-005dB,1.79997682393344e+002°)
6.91830970918933e+001	(-7.67052546593015e-005dB,1.79997628344224e+002°)
7.07945784384134e+001	(-7.65628029211564e-005dB,1.79997573031516e+002°)
7.24435960074986e+001	(-7.64137128413142e-005dB,1.79997516425457e+002°)
7.41310241300914e+001	(-7.62576787516629e-005dB,1.79997458495574e+002°)
7.58577575029180e+001	(-7.60943812674150e-005dB,1.79997399210657e+002°)
7.76247116628688e+001	(-7.59234866805431e-005dB,1.79997338538741e+002°)
7.94328234724277e+001	(-7.57446464207215e-005dB,1.79997276447093e+002°)
8.12830516164095e+001	(-7.55574963484717e-005dB,1.79997212902185e+002°)
8.31763771102667e+001	(-7.53616561688514e-005dB,1.79997147869675e+002°)
8.51138038202372e+001	(-7.51567287149588e-005dB,1.79997081314390e+002°)
8.70963589956076e+001	(-7.49422992748321e-005dB,1.79997013200299e+002°)
8.91250938133741e+001	(-7.47179349115989e-005dB,1.79996943490495e+002°)
9.12010839355905e+001	(-7.44831836736928e-005dB,1.79996872147167e+002°)
9.33254300796986e+001	(-7.42375738224279e-005dB,1.79996799131581e+002°)
9.54992586021431e+001	(-7.39806131000769e-005dB,1.79996724404053e+002°)
9.77237220955805e+001	(-7.37117878619776e-005dB,1.79996647923925e+002°)
9.99999999999995e+001	(-7.34305622857884e-005dB,1.79996569649537e+002°)
1.02329299228075e+002	(-7.31363774843099e-005dB,1.79996489538202e+002°)
1.04712854805089e+002	(-7.28286506096294e-005dB,1.79996407546176e+002°)
1.07151930523760e+002	(-7.25067740141619e-005dB,1.79996323628632e+002°)
1.09647819614318e+002	(-7.21701142246113e-005dB,1.79996237739630e+002°)
1.12201845430196e+002	(-7.18180110692619e-005dB,1.79996149832084e+002°)
1.14815362149688e+002	(-7.14497766808727e-005dB,1.79996059857733e+002°)
1.17489755493952e+002	(-7.10646944899289e-005dB,1.79995967767107e+002°)
1.20226443461741e+002	(-7.06620182477905e-005dB,1.79995873509496e+002°)
1.23026877081237e+002	(-7.02409709611227e-005dB,1.79995777032911e+002°)
1.25892541179416e+002	(-6.98007438880465e-005dB,1.79995678284051e+002°)
1.28824955169313e+002	(-6.93404954397860e-005dB,1.79995577208266e+002°)
1.31825673855640e+002	(-6.88593501652509e-005dB,1.79995473749517e+002°)
1.34896288259165e+002	(-6.83563976237583e-005dB,1.79995367850338e+002°)
1.38038426460288e+002	(-6.78306913435834e-005dB,1.79995259451794e+002°)
1.41253754462275e+002	(-6.72812477245804e-005dB,1.79995148493441e+002°)
1.44543977074592e+002	(-6.67070449465937e-005dB,1.79995034913277e+002°)
1.47910838816820e+002	(-6.61070219241593e-005dB,1.79994918647704e+002°)
1.51356124843620e+002	(-6.54800772264934e-005dB,1.79994799631473e+002°)
1.54881661891247e+002	(-6.48250680177369e-005dB,1.79994677797645e+002°)
1.58489319246110e+002	(-6.41408090849564e-005dB,1.79994553077531e+002°)
1.62181009735892e+002	(-6.34260717562166e-005dB,1.79994425400649e+002°)
1.65958690743755e+002	(-6.26795830693831e-005dB,1.79994294694665e+002°)
1.69824365246173e+002	(-6.19000247278121e-005dB,1.79994160885340e+002°)
1.73780082874936e+002	(-6.10860323337738e-005dB,1.79994023896474e+002°)
1.77827941003891e+002	(-6.02361945514837e-005dB,1.79993883649843e+002°)
1.81970085860997e+002	(-5.93490523800740e-005dB,1.79993740065143e+002°)
1.86208713666286e+002	(-5.84230985365045e-005dB,1.79993593059924e+002°)
1.90546071796323e+002	(-5.74567768818751e-005dB,1.79993442549524e+002°)
1.94984459975803e+002	(-5.64484819981798e-005dB,1.79993288447005e+002°)
1.99526231496887e+002	(-5.53965588904316e-005dB,1.79993130663084e+002°)
2.04173794466952e+002	(-5.42993027804054e-005dB,1.79992969106056e+002°)
2.08929613085403e+002	(-5.31549590595027e-005dB,1.79992803681729e+002°)
2.13796208950222e+002	(-5.19617235106740e-005dB,1.79992634293341e+002°)
2.18776162394954e+002	(-5.07177425824209e-005dB,1.79992460841483e+002°)
2.23872113856832e+002	(-4.94211139048551e-005dB,1.79992283224024e+002°)
2.29086765276776e+002	(-4.80698871008504e-005dB,1.79992101336021e+002°)
2.34422881531991e+002	(-4.66620647862117e-005dB,1.79991915069639e+002°)
2.39883291901947e+002	(-4.51956038061140e-005dB,1.79991724314062e+002°)
2.45470891568501e+002	(-4.36684168370310e-005dB,1.79991528955405e+002°)
2.51188643150956e+002	(-4.20783742606129e-005dB,1.79991328876621e+002°)
2.57039578276885e+002	(-4.04233063635168e-005dB,1.79991123957407e+002°)
2.63026799189536e+002	(-3.87010059094758e-005dB,1.79990914074108e+002°)
2.69153480392690e+002	(-3.69092311270019e-005dB,1.79990699099623e+002°)
2.75422870333815e+002	(-3.50457090201461e-005dB,1.79990478903301e+002°)
2.81838293126443e+002	(-3.31081392626854e-005dB,1.79990253350838e+002°)
2.88403150312659e+002	(-3.10941983710039e-005dB,1.79990022304181e+002°)
2.95120922666637e+002	(-2.90015445057235e-005dB,1.79989785621417e+002°)
3.01995172040200e+002	(-2.68278226629241e-005dB,1.79989543156669e+002°)
3.09029543251357e+002	(-2.45706705375043e-005dB,1.79989294759989e+002°)
3.16227766016836e+002	(-2.22277247578071e-005dB,1.79989040277251e+002°)
3.23593656929626e+002	(-1.97966278116670e-005dB,1.79988779550041e+002°)
3.31131121482589e+002	(-1.72750355144051e-005dB,1.79988512415549e+002°)
3.38844156139200e+002	(-1.46606250554133e-005dB,1.79988238706460e+002°)
3.46736850452529e+002	(-1.19511036281471e-005dB,1.79987958250844e+002°)
3.54813389233573e+002	(-9.14421775249119e-006dB,1.79987670872049e+002°)
3.63078054770099e+002	(-6.23776306577239e-006dB,1.79987376388597e+002°)
3.71535229097170e+002	(-3.22959481963786e-006dB,1.79987074614071e+002°)
3.80189396320558e+002	(-1.17638921753736e-007dB,1.79986765357019e+002°)
3.89045144994278e+002	(3.10009647382434e-006dB,1.79986448420845e+002°)
3.98107170553494e+002	(6.42550879579036e-006dB,1.79986123603718e+002°)
4.07380277804110e+002	(9.86038841224675e-006dB,1.79985790698467e+002°)
4.16869383470332e+002	(1.34064054772793e-005dB,1.79985449492495e+002°)
4.26579518801589e+002	(1.70650964632118e-005dB,1.79985099767690e+002°)
4.36515832240163e+002	(2.08378502088250e-005dB,1.79984741300336e+002°)
4.46683592150960e+002	(2.47258937747712e-005dB,1.79984373861038e+002°)
4.57088189614872e+002	(2.87302780560453e-005dB,1.79983997214647e+002°)
4.67735141287195e+002	(3.28518633058104e-005dB,1.79983611120189e+002°)
4.78630092322635e+002	(3.70913046457985e-005dB,1.79983215330806e+002°)
4.89778819368443e+002	(4.14490376288670e-005dB,1.79982809593695e+002°)
5.01187233627268e+002	(4.59252640716510e-005dB,1.79982393650058e+002°)
5.12861383991361e+002	(5.05199382093890e-005dB,1.79981967235062e+002°)
5.24807460249769e+002	(5.52327533195014e-005dB,1.79981530077794e+002°)
5.37031796370249e+002	(6.00631289740017e-005dB,1.79981081901239e+002°)
5.49540873857620e+002	(6.50101990557454e-005dB,1.79980622422243e+002°)
5.62341325190345e+002	(7.00728007487388e-005dB,1.79980151351507e+002°)
5.75439937337152e+002	(7.52494644755051e-005dB,1.79979668393562e+002°)
