Freq.	V(Vo,Vi)
1.00000000000000e+000	(6.02056170640166e+000dB,1.79999983227786e+002°)
1.02329299228075e+000	(6.02056170641180e+000dB,1.79999982837110e+002°)
1.04712854805090e+000	(6.02056170642242e+000dB,1.79999982437334e+002°)
1.07151930523761e+000	(6.02056170643354e+000dB,1.79999982028246e+002°)
1.09647819614318e+000	(6.02056170644518e+000dB,1.79999981609629e+002°)
1.12201845430196e+000	(6.02056170645737e+000dB,1.79999981181261e+002°)
1.14815362149688e+000	(6.02056170647015e+000dB,1.79999980742915e+002°)
1.17489755493953e+000	(6.02056170648351e+000dB,1.79999980294358e+002°)
1.20226443461741e+000	(6.02056170649751e+000dB,1.79999979835354e+002°)
1.23026877081238e+000	(6.02056170651217e+000dB,1.79999979365657e+002°)
1.25892541179417e+000	(6.02056170652752e+000dB,1.79999978885020e+002°)
1.28824955169313e+000	(6.02056170654358e+000dB,1.79999978393187e+002°)
1.31825673855641e+000	(6.02056170656041e+000dB,1.79999977889898e+002°)
1.34896288259165e+000	(6.02056170657804e+000dB,1.79999977374885e+002°)
1.38038426460288e+000	(6.02056170659648e+000dB,1.79999976847876e+002°)
1.41253754462275e+000	(6.02056170661580e+000dB,1.79999976308591e+002°)
1.44543977074593e+000	(6.02056170663603e+000dB,1.79999975756745e+002°)
1.47910838816821e+000	(6.02056170665722e+000dB,1.79999975192044e+002°)
1.51356124843621e+000	(6.02056170667939e+000dB,1.79999974614190e+002°)
1.54881661891248e+000	(6.02056170670262e+000dB,1.79999974022875e+002°)
1.58489319246111e+000	(6.02056170672693e+000dB,1.79999973417787e+002°)
1.62181009735893e+000	(6.02056170675239e+000dB,1.79999972798604e+002°)
1.65958690743756e+000	(6.02056170677906e+000dB,1.79999972164998e+002°)
1.69824365246174e+000	(6.02056170680697e+000dB,1.79999971516633e+002°)
1.73780082874937e+000	(6.02056170683620e+000dB,1.79999970853166e+002°)
1.77827941003892e+000	(6.02056170686681e+000dB,1.79999970174244e+002°)
1.81970085860998e+000	(6.02056170689885e+000dB,1.79999969479508e+002°)
1.86208713666287e+000	(6.02056170693241e+000dB,1.79999968768588e+002°)
1.90546071796325e+000	(6.02056170696754e+000dB,1.79999968041109e+002°)
1.94984459975804e+000	(6.02056170700434e+000dB,1.79999967296685e+002°)
1.99526231496888e+000	(6.02056170704285e+000dB,1.79999966534920e+002°)
2.04173794466953e+000	(6.02056170708318e+000dB,1.79999965755411e+002°)
2.08929613085404e+000	(6.02056170712541e+000dB,1.79999964957744e+002°)
2.13796208950223e+000	(6.02056170716963e+000dB,1.79999964141496e+002°)
2.18776162394955e+000	(6.02056170721593e+000dB,1.79999963306236e+002°)
2.23872113856834e+000	(6.02056170726440e+000dB,1.79999962451518e+002°)
2.29086765276777e+000	(6.02056170731516e+000dB,1.79999961576892e+002°)
2.34422881531992e+000	(6.02056170736830e+000dB,1.79999960681891e+002°)
2.39883291901949e+000	(6.02056170742395e+000dB,1.79999959766043e+002°)
2.45470891568503e+000	(6.02056170748221e+000dB,1.79999958828861e+002°)
2.51188643150958e+000	(6.02056170754321e+000dB,1.79999957869848e+002°)
2.57039578276886e+000	(6.02056170760707e+000dB,1.79999956888496e+002°)
2.63026799189538e+000	(6.02056170767393e+000dB,1.79999955884285e+002°)
2.69153480392691e+000	(6.02056170774395e+000dB,1.79999954856681e+002°)
2.75422870333816e+000	(6.02056170781726e+000dB,1.79999953805140e+002°)
2.81838293126445e+000	(6.02056170789400e+000dB,1.79999952729104e+002°)
2.88403150312660e+000	(6.02056170797435e+000dB,1.79999951628003e+002°)
2.95120922666638e+000	(6.02056170805849e+000dB,1.79999950501252e+002°)
3.01995172040201e+000	(6.02056170814657e+000dB,1.79999949348255e+002°)
3.09029543251359e+000	(6.02056170823879e+000dB,1.79999948168399e+002°)
3.16227766016837e+000	(6.02056170833534e+000dB,1.79999946961058e+002°)
3.23593656929628e+000	(6.02056170843642e+000dB,1.79999945725593e+002°)
3.31131121482591e+000	(6.02056170854225e+000dB,1.79999944461349e+002°)
3.38844156139202e+000	(6.02056170865305e+000dB,1.79999943167654e+002°)
3.46736850452531e+000	(6.02056170876905e+000dB,1.79999941843823e+002°)
3.54813389233575e+000	(6.02056170889048e+000dB,1.79999940489153e+002°)
3.63078054770101e+000	(6.02056170901761e+000dB,1.79999939102926e+002°)
3.71535229097172e+000	(6.02056170915071e+000dB,1.79999937684407e+002°)
3.80189396320560e+000	(6.02056170929005e+000dB,1.79999936232843e+002°)
3.89045144994280e+000	(6.02056170943591e+000dB,1.79999934747465e+002°)
3.98107170553496e+000	(6.02056170958862e+000dB,1.79999933227484e+002°)
4.07380277804112e+000	(6.02056170974848e+000dB,1.79999931672094e+002°)
4.16869383470335e+000	(6.02056170991582e+000dB,1.79999930080471e+002°)
4.26579518801592e+000	(6.02056171009101e+000dB,1.79999928451769e+002°)
4.36515832240165e+000	(6.02056171027439e+000dB,1.79999926785125e+002°)
4.46683592150962e+000	(6.02056171046635e+000dB,1.79999925079655e+002°)
4.57088189614874e+000	(6.02056171066729e+000dB,1.79999923334454e+002°)
4.67735141287197e+000	(6.02056171087764e+000dB,1.79999921548597e+002°)
4.78630092322637e+000	(6.02056171109781e+000dB,1.79999919721135e+002°)
4.89778819368445e+000	(6.02056171132827e+000dB,1.79999917851099e+002°)
5.01187233627271e+000	(6.02056171156950e+000dB,1.79999915937498e+002°)
5.12861383991364e+000	(6.02056171182198e+000dB,1.79999913979315e+002°)
5.24807460249771e+000	(6.02056171208626e+000dB,1.79999911975513e+002°)
5.37031796370252e+000	(6.02056171236286e+000dB,1.79999909925026e+002°)
5.49540873857623e+000	(6.02056171265236e+000dB,1.79999907826769e+002°)
5.62341325190348e+000	(6.02056171295535e+000dB,1.79999905679627e+002°)
5.75439937337156e+000	(6.02056171327245e+000dB,1.79999903482461e+002°)
5.88843655355588e+000	(6.02056171360431e+000dB,1.79999901234104e+002°)
6.02559586074356e+000	(6.02056171395161e+000dB,1.79999898933364e+002°)
6.16595001861481e+000	(6.02056171431506e+000dB,1.79999896579020e+002°)
6.30957344480192e+000	(6.02056171469539e+000dB,1.79999894169822e+002°)
6.45654229034654e+000	(6.02056171509340e+000dB,1.79999891704492e+002°)
6.60693448007594e+000	(6.02056171550986e+000dB,1.79999889181720e+002°)
6.76082975391980e+000	(6.02056171594565e+000dB,1.79999886600168e+002°)
6.91830970918935e+000	(6.02056171640161e+000dB,1.79999883958466e+002°)
7.07945784384136e+000	(6.02056171687869e+000dB,1.79999881255210e+002°)
7.24435960074988e+000	(6.02056171737784e+000dB,1.79999878488967e+002°)
7.41310241300916e+000	(6.02056171790005e+000dB,1.79999875658266e+002°)
7.58577575029182e+000	(6.02056171844638e+000dB,1.79999872761606e+002°)
7.76247116628690e+000	(6.02056171901792e+000dB,1.79999869797448e+002°)
7.94328234724279e+000	(6.02056171961579e+000dB,1.79999866764217e+002°)
8.12830516164097e+000	(6.02056172024118e+000dB,1.79999863660304e+002°)
8.31763771102669e+000	(6.02056172089533e+000dB,1.79999860484060e+002°)
8.51138038202374e+000	(6.02056172157953e+000dB,1.79999857233797e+002°)
8.70963589956078e+000	(6.02056172229511e+000dB,1.79999853907790e+002°)
8.91250938133743e+000	(6.02056172304347e+000dB,1.79999850504271e+002°)
9.12010839355907e+000	(6.02056172382608e+000dB,1.79999847021432e+002°)
9.33254300796988e+000	(6.02056172464446e+000dB,1.79999843457423e+002°)
9.54992586021433e+000	(6.02056172550017e+000dB,1.79999839810349e+002°)
9.77237220955808e+000	(6.02056172639485e+000dB,1.79999836078274e+002°)
9.99999999999997e+000	(6.02056172733024e+000dB,1.79999832259213e+002°)
1.02329299228075e+001	(6.02056172830810e+000dB,1.79999828351136e+002°)
1.04712854805090e+001	(6.02056172933027e+000dB,1.79999824351967e+002°)
1.07151930523760e+001	(6.02056173039870e+000dB,1.79999820259578e+002°)
1.09647819614318e+001	(6.02056173151537e+000dB,1.79999816071795e+002°)
1.12201845430196e+001	(6.02056173268237e+000dB,1.79999811786389e+002°)
1.14815362149688e+001	(6.02056173390184e+000dB,1.79999807401083e+002°)
1.17489755493953e+001	(6.02056173517603e+000dB,1.79999802913544e+002°)
1.20226443461741e+001	(6.02056173650728e+000dB,1.79999798321384e+002°)
1.23026877081238e+001	(6.02056173789797e+000dB,1.79999793622161e+002°)
1.25892541179416e+001	(6.02056173935062e+000dB,1.79999788813374e+002°)
1.28824955169313e+001	(6.02056174086780e+000dB,1.79999783892464e+002°)
1.31825673855640e+001	(6.02056174245220e+000dB,1.79999778856811e+002°)
1.34896288259165e+001	(6.02056174410660e+000dB,1.79999773703735e+002°)
1.38038426460288e+001	(6.02056174583386e+000dB,1.79999768430493e+002°)
1.41253754462275e+001	(6.02056174763695e+000dB,1.79999763034276e+002°)
1.44543977074592e+001	(6.02056174951893e+000dB,1.79999757512211e+002°)
1.47910838816820e+001	(6.02056175148296e+000dB,1.79999751861356e+002°)
1.51356124843620e+001	(6.02056175353233e+000dB,1.79999746078699e+002°)
1.54881661891248e+001	(6.02056175567037e+000dB,1.79999740161161e+002°)
1.58489319246111e+001	(6.02056175790058e+000dB,1.79999734105586e+002°)
1.62181009735892e+001	(6.02056176022650e+000dB,1.79999727908748e+002°)
1.65958690743755e+001	(6.02056176265181e+000dB,1.79999721567340e+002°)
1.69824365246174e+001	(6.02056176518029e+000dB,1.79999715077983e+002°)
1.73780082874937e+001	(6.02056176781579e+000dB,1.79999708437214e+002°)
1.77827941003892e+001	(6.02056177056229e+000dB,1.79999701641491e+002°)
1.81970085860998e+001	(6.02056177342384e+000dB,1.79999694687186e+002°)
1.86208713666286e+001	(6.02056177640461e+000dB,1.79999687570590e+002°)
1.90546071796324e+001	(6.02056177950883e+000dB,1.79999680287901e+002°)
1.94984459975804e+001	(6.02056178274085e+000dB,1.79999672835231e+002°)
1.99526231496887e+001	(6.02056178610507e+000dB,1.79999665208601e+002°)
2.04173794466952e+001	(6.02056178960598e+000dB,1.79999657403935e+002°)
2.08929613085403e+001	(6.02056179324813e+000dB,1.79999649417063e+002°)
2.13796208950222e+001	(6.02056179703617e+000dB,1.79999641243717e+002°)
2.18776162394954e+001	(6.02056180097476e+000dB,1.79999632879527e+002°)
2.23872113856833e+001	(6.02056180506863e+000dB,1.79999624320021e+002°)
2.29086765276776e+001	(6.02056180932254e+000dB,1.79999615560620e+002°)
2.34422881531991e+001	(6.02056181374129e+000dB,1.79999606596640e+002°)
2.39883291901948e+001	(6.02056181832968e+000dB,1.79999597423284e+002°)
2.45470891568502e+001	(6.02056182309251e+000dB,1.79999588035642e+002°)
2.51188643150957e+001	(6.02056182803460e+000dB,1.79999578428689e+002°)
2.57039578276885e+001	(6.02056183316069e+000dB,1.79999568597281e+002°)
2.63026799189537e+001	(6.02056183847553e+000dB,1.79999558536153e+002°)
2.69153480392690e+001	(6.02056184398376e+000dB,1.79999548239916e+002°)
2.75422870333815e+001	(6.02056184968998e+000dB,1.79999537703054e+002°)
2.81838293126444e+001	(6.02056185559867e+000dB,1.79999526919921e+002°)
2.88403150312659e+001	(6.02056186171420e+000dB,1.79999515884738e+002°)
2.95120922666637e+001	(6.02056186804077e+000dB,1.79999504591589e+002°)
3.01995172040200e+001	(6.02056187458244e+000dB,1.79999493034420e+002°)
3.09029543251358e+001	(6.02056188134308e+000dB,1.79999481207035e+002°)
3.16227766016837e+001	(6.02056188832631e+000dB,1.79999469103091e+002°)
3.23593656929627e+001	(6.02056189553553e+000dB,1.79999456716098e+002°)
3.31131121482590e+001	(6.02056190297387e+000dB,1.79999444039411e+002°)
3.38844156139201e+001	(6.02056191064414e+000dB,1.79999431066231e+002°)
3.46736850452530e+001	(6.02056191854883e+000dB,1.79999417789599e+002°)
3.54813389233574e+001	(6.02056192669006e+000dB,1.79999404202394e+002°)
3.63078054770100e+001	(6.02056193506959e+000dB,1.79999390297327e+002°)
3.71535229097171e+001	(6.02056194368872e+000dB,1.79999376066939e+002°)
3.80189396320559e+001	(6.02056195254833e+000dB,1.79999361503598e+002°)
3.89045144994279e+001	(6.02056196164880e+000dB,1.79999346599493e+002°)
3.98107170553495e+001	(6.02056197099004e+000dB,1.79999331346631e+002°)
4.07380277804111e+001	(6.02056198057137e+000dB,1.79999315736833e+002°)
4.16869383470333e+001	(6.02056199039161e+000dB,1.79999299761730e+002°)
4.26579518801591e+001	(6.02056200044894e+000dB,1.79999283412759e+002°)
4.36515832240164e+001	(6.02056201074097e+000dB,1.79999266681159e+002°)
4.46683592150961e+001	(6.02056202126465e+000dB,1.79999249557963e+002°)
4.57088189614873e+001	(6.02056203201633e+000dB,1.79999232034001e+002°)
4.67735141287196e+001	(6.02056204299164e+000dB,1.79999214099888e+002°)
4.78630092322636e+001	(6.02056205418556e+000dB,1.79999195746024e+002°)
4.89778819368444e+001	(6.02056206559241e+000dB,1.79999176962586e+002°)
5.01187233627270e+001	(6.02056207720577e+000dB,1.79999157739526e+002°)
5.12861383991362e+001	(6.02056208901856e+000dB,1.79999138066565e+002°)
5.24807460249770e+001	(6.02056210102302e+000dB,1.79999117933187e+002°)
5.37031796370250e+001	(6.02056211321068e+000dB,1.79999097328636e+002°)
5.49540873857622e+001	(6.02056212557243e+000dB,1.79999076241908e+002°)
5.62341325190346e+001	(6.02056213809846e+000dB,1.79999054661747e+002°)
5.75439937337154e+001	(6.02056215077839e+000dB,1.79999032576638e+002°)
5.88843655355586e+001	(6.02056216360118e+000dB,1.79999009974806e+002°)
6.02559586074355e+001	(6.02056217655523e+000dB,1.79998986844202e+002°)
6.16595001861479e+001	(6.02056218962840e+000dB,1.79998963172506e+002°)
6.30957344480190e+001	(6.02056220280802e+000dB,1.79998938947112e+002°)
6.45654229034652e+001	(6.02056221608100e+000dB,1.79998914155129e+002°)
6.60693448007593e+001	(6.02056222943378e+000dB,1.79998888783370e+002°)
6.76082975391978e+001	(6.02056224285246e+000dB,1.79998862818347e+002°)
6.91830970918933e+001	(6.02056225632284e+000dB,1.79998836246262e+002°)
7.07945784384134e+001	(6.02056226983044e+000dB,1.79998809053003e+002°)
7.24435960074986e+001	(6.02056228336056e+000dB,1.79998781224136e+002°)
7.41310241300914e+001	(6.02056229689839e+000dB,1.79998752744894e+002°)
7.58577575029180e+001	(6.02056231042902e+000dB,1.79998723600174e+002°)
7.76247116628688e+001	(6.02056232393752e+000dB,1.79998693774526e+002°)
7.94328234724277e+001	(6.02056233740899e+000dB,1.79998663252144e+002°)
8.12830516164095e+001	(6.02056235082863e+000dB,1.79998632016861e+002°)
8.31763771102667e+001	(6.02056236418182e+000dB,1.79998600052139e+002°)
8.51138038202372e+001	(6.02056237745412e+000dB,1.79998567341059e+002°)
8.70963589956076e+001	(6.02056239063137e+000dB,1.79998533866310e+002°)
8.91250938133741e+001	(6.02056240369976e+000dB,1.79998499610185e+002°)
9.12010839355905e+001	(6.02056241664582e+000dB,1.79998464554568e+002°)
9.33254300796986e+001	(6.02056242945651e+000dB,1.79998428680924e+002°)
9.54992586021431e+001	(6.02056244211923e+000dB,1.79998391970289e+002°)
9.77237220955805e+001	(6.02056245462193e+000dB,1.79998354403261e+002°)
9.99999999999995e+001	(6.02056246695303e+000dB,1.79998315959988e+002°)
1.02329299228075e+002	(6.02056247910157e+000dB,1.79998276620159e+002°)
1.04712854805089e+002	(6.02056249105712e+000dB,1.79998236362989e+002°)
1.07151930523760e+002	(6.02056250280993e+000dB,1.79998195167212e+002°)
1.09647819614318e+002	(6.02056251435080e+000dB,1.79998153011067e+002°)
1.12201845430196e+002	(6.02056252567121e+000dB,1.79998109872287e+002°)
1.14815362149688e+002	(6.02056253676326e+000dB,1.79998065728084e+002°)
1.17489755493952e+002	(6.02056254761971e+000dB,1.79998020555143e+002°)
1.20226443461741e+002	(6.02056255823395e+000dB,1.79997974329602e+002°)
1.23026877081237e+002	(6.02056256859998e+000dB,1.79997927027043e+002°)
1.25892541179416e+002	(6.02056257871249e+000dB,1.79997878622478e+002°)
1.28824955169313e+002	(6.02056258856670e+000dB,1.79997829090336e+002°)
1.31825673855640e+002	(6.02056259815847e+000dB,1.79997778404448e+002°)
1.34896288259165e+002	(6.02056260748423e+000dB,1.79997726538033e+002°)
1.38038426460288e+002	(6.02056261654094e+000dB,1.79997673463683e+002°)
1.41253754462275e+002	(6.02056262532611e+000dB,1.79997619153350e+002°)
1.44543977074592e+002	(6.02056263383772e+000dB,1.79997563578330e+002°)
1.47910838816820e+002	(6.02056264207425e+000dB,1.79997506709248e+002°)
1.51356124843620e+002	(6.02056265003458e+000dB,1.79997448516039e+002°)
1.54881661891247e+002	(6.02056265771805e+000dB,1.79997388967937e+002°)
1.58489319246110e+002	(6.02056266512432e+000dB,1.79997328033455e+002°)
1.62181009735892e+002	(6.02056267225344e+000dB,1.79997265680370e+002°)
1.65958690743755e+002	(6.02056267910573e+000dB,1.79997201875702e+002°)
1.69824365246173e+002	(6.02056268568181e+000dB,1.79997136585704e+002°)
1.73780082874936e+002	(6.02056269198254e+000dB,1.79997069775836e+002°)
1.77827941003891e+002	(6.02056269800898e+000dB,1.79997001410750e+002°)
1.81970085860997e+002	(6.02056270376237e+000dB,1.79996931454273e+002°)
1.86208713666286e+002	(6.02056270924409e+000dB,1.79996859869384e+002°)
1.90546071796323e+002	(6.02056271445565e+000dB,1.79996786618197e+002°)
1.94984459975803e+002	(6.02056271939863e+000dB,1.79996711661941e+002°)
1.99526231496887e+002	(6.02056272407465e+000dB,1.79996634960936e+002°)
2.04173794466952e+002	(6.02056272848537e+000dB,1.79996556474579e+002°)
2.08929613085403e+002	(6.02056273263243e+000dB,1.79996476161312e+002°)
2.13796208950222e+002	(6.02056273651744e+000dB,1.79996393978612e+002°)
2.18776162394954e+002	(6.02056274014197e+000dB,1.79996309882958e+002°)
2.23872113856832e+002	(6.02056274350747e+000dB,1.79996223829814e+002°)
2.29086765276776e+002	(6.02056274661529e+000dB,1.79996135773605e+002°)
2.34422881531991e+002	(6.02056274946666e+000dB,1.79996045667689e+002°)
2.39883291901947e+002	(6.02056275206264e+000dB,1.79995953464339e+002°)
2.45470891568501e+002	(6.02056275440410e+000dB,1.79995859114709e+002°)
2.51188643150956e+002	(6.02056275649174e+000dB,1.79995762568817e+002°)
2.57039578276885e+002	(6.02056275832600e+000dB,1.79995663775513e+002°)
2.63026799189536e+002	(6.02056275990709e+000dB,1.79995562682452e+002°)
2.69153480392690e+002	(6.02056276123498e+000dB,1.79995459236070e+002°)
2.75422870333815e+002	(6.02056276230934e+000dB,1.79995353381554e+002°)
2.81838293126443e+002	(6.02056276312954e+000dB,1.79995245062808e+002°)
2.88403150312659e+002	(6.02056276369465e+000dB,1.79995134222433e+002°)
2.95120922666637e+002	(6.02056276400336e+000dB,1.79995020801689e+002°)
3.01995172040200e+002	(6.02056276405408e+000dB,1.79994904740466e+002°)
3.09029543251357e+002	(6.02056276384479e+000dB,1.79994785977253e+002°)
3.16227766016836e+002	(6.02056276337312e+000dB,1.79994664449105e+002°)
3.23593656929626e+002	(6.02056276263626e+000dB,1.79994540091609e+002°)
3.31131121482589e+002	(6.02056276163102e+000dB,1.79994412838853e+002°)
3.38844156139200e+002	(6.02056276035374e+000dB,1.79994282623384e+002°)
3.46736850452529e+002	(6.02056275880032e+000dB,1.79994149376182e+002°)
3.54813389233573e+002	(6.02056275696619e+000dB,1.79994013026616e+002°)
3.63078054770099e+002	(6.02056275484627e+000dB,1.79993873502408e+002°)
3.71535229097170e+002	(6.02056275243498e+000dB,1.79993730729598e+002°)
3.80189396320558e+002	(6.02056274972622e+000dB,1.79993584632501e+002°)
3.89045144994278e+002	(6.02056274671331e+000dB,1.79993435133669e+002°)
3.98107170553494e+002	(6.02056274338904e+000dB,1.79993282153850e+002°)
4.07380277804110e+002	(6.02056273974558e+000dB,1.79993125611945e+002°)
4.16869383470332e+002	(6.02056273577449e+000dB,1.79992965424966e+002°)
4.26579518801589e+002	(6.02056273146671e+000dB,1.79992801507990e+002°)
4.36515832240163e+002	(6.02056272681249e+000dB,1.79992633774118e+002°)
4.46683592150960e+002	(6.02056272180143e+000dB,1.79992462134425e+002°)
4.57088189614872e+002	(6.02056271642238e+000dB,1.79992286497915e+002°)
4.67735141287195e+002	(6.02056271066349e+000dB,1.79992106771472e+002°)
4.78630092322635e+002	(6.02056270451211e+000dB,1.79991922859811e+002°)
4.89778819368443e+002	(6.02056269795482e+000dB,1.79991734665429e+002°)
5.01187233627268e+002	(6.02056269097736e+000dB,1.79991542088548e+002°)
5.12861383991361e+002	(6.02056268356459e+000dB,1.79991345027070e+002°)
5.24807460249769e+002	(6.02056267570050e+000dB,1.79991143376515e+002°)
5.37031796370249e+002	(6.02056266736814e+000dB,1.79990937029974e+002°)
5.49540873857620e+002	(6.02056265854959e+000dB,1.79990725878043e+002°)
5.62341325190345e+002	(6.02056264922591e+000dB,1.79990509808772e+002°)
5.75439937337152e+002	(6.02056263937713e+000dB,1.79990288707605e+002°)
5.88843655355584e+002	(6.02056262898214e+000dB,1.79990062457314e+002°)
6.02559586074353e+002	(6.02056261801875e+000dB,1.79989830937944e+002°)
6.16595001861477e+002	(6.02056260646353e+000dB,1.79989594026743e+002°)
6.30957344480188e+002	(6.02056259429183e+000dB,1.79989351598103e+002°)
