Freq.	V(vout)
Step Information: Run=1  (Run: 1/100)
3.00000000000000e+003	(7.75360923732273e-001dB,1.66776715915917e+002°)
3.06987897684226e+003	(7.70556409733675e-001dB,1.66446273871488e+002°)
3.14138564415270e+003	(7.65488855723309e-001dB,1.66106450574343e+002°)
3.21455791571282e+003	(7.60141997336161e-001dB,1.65756896886661e+002°)
3.28943458842955e+003	(7.54498377024324e-001dB,1.65397244882244e+002°)
3.36605536290589e+003	(7.48539237909025e-001dB,1.65027106472940e+002°)
3.44446086449065e+003	(7.42244406338114e-001dB,1.64646071912408e+002°)
3.52469266481859e+003	(7.35592161749009e-001dB,1.64253708164546e+002°)
3.60679330385224e+003	(7.28559092242810e-001dB,1.63849557122375e+002°)
3.69080631243714e+003	(7.21119934043652e-001dB,1.63433133661481e+002°)
3.77677623538250e+003	(7.13247392754703e-001dB,1.63003923510189e+002°)
3.86474865507940e+003	(7.04911944012559e-001dB,1.62561380916449e+002°)
3.95477021566922e+003	(6.96081610781933e-001dB,1.62104926088933e+002°)
4.04688864777496e+003	(6.86721714112675e-001dB,1.61633942386986e+002°)
4.14115279380865e+003	(6.76794593688708e-001dB,1.61147773230838e+002°)
4.23761263386826e+003	(6.66259293919623e-001dB,1.60645718699777e+002°)
4.33631931223778e+003	(6.55071210646808e-001dB,1.60127031781727e+002°)
4.43732516450462e+003	(6.43181692730242e-001dB,1.59590914232797e+002°)
4.54068374530862e+003	(6.30537591834931e-001dB,1.59036511999793e+002°)
4.64644985673744e+003	(6.17080752606275e-001dB,1.58462910152190e+002°)
4.75467957738334e+003	(6.02747434083278e-001dB,1.57869127262697e+002°)
4.86543029207679e+003	(5.87467651598665e-001dB,1.57254109166900e+002°)
4.97876072231268e+003	(5.71164426499412e-001dB,1.56616722022616e+002°)
5.09473095738523e+003	(5.53752928722688e-001dB,1.55955744578060e+002°)
5.21340248624812e+003	(5.35139494495602e-001dB,1.55269859544638e+002°)
5.33483823011676e+003	(5.15220498082175e-001dB,1.54557643954721e+002°)
5.45910257582995e+003	(4.93881052452558e-001dB,1.53817558366763e+002°)
5.58626140998860e+003	(4.70993508818464e-001dB,1.53047934759227e+002°)
5.71638215388974e+003	(4.46415718969778e-001dB,1.52246962930439e+002°)
5.84953379927413e+003	(4.19989016979019e-001dB,1.51412675193049e+002°)
5.98578694490663e+003	(3.91535867789482e-001dB,1.50542929118727e+002°)
6.12521383400858e+003	(3.60857119026656e-001dB,1.49635388050064e+002°)
6.26788839256211e+003	(3.27728778529622e-001dB,1.48687499051701e+002°)
6.41388626850669e+003	(2.91898222877794e-001dB,1.47696467920263e+002°)
6.56328487184865e+003	(2.53079720671114e-001dB,1.46659230811836e+002°)
6.71616341570501e+003	(2.10949127334687e-001dB,1.45572421975121e+002°)
6.87260295830331e+003	(1.65137574203588e-001dB,1.44432336996985e+002°)
7.03268644595976e+003	(1.15223931593659e-001dB,1.43234890873699e+002°)
7.19649875705846e+003	(6.07257708165762e-002dB,1.41975570114940e+002°)
7.36412674705508e+003	(1.08848015122535e-003dB,1.40649377968346e+002°)
7.53565929452873e+003	(-6.43279000222467e-002dB,1.39250771720819e+002°)
7.71118734830658e+003	(-1.36264673581456e-001dB,1.37773590891602e+002°)
7.89080397568614e+003	(-2.15584017414928e-001dB,1.36210974987025e+002°)
8.07460441178074e+003	(-3.03292939301394e-001dB,1.34555269348393e+002°)
8.26268611001449e+003	(-4.00572818240228e-001dB,1.32797917511520e+002°)
8.45514879379335e+003	(-5.08816018593374e-001dB,1.30929338439601e+002°)
8.65209450937981e+003	(-6.29671517200542e-001dB,1.28938787040962e+002°)
8.85362767999915e+003	(-7.65102079315149e-001dB,1.26814196619136e+002°)
9.05985516120604e+003	(-9.17456319196719e-001dB,1.24542002449302e+002°)
9.27088629754076e+003	(-1.08956006102372e+000dB,1.22106946723671e+002°)
9.48683298050513e+003	(-1.28483288455148e+000dB,1.19491866950135e+002°)
9.70780970788884e+003	(-1.50743775595107e+000dB,1.16677472959442e+002°)
9.93393364447772e+003	(-1.76247444298747e+000dB,1.13642122621678e+002°)
1.01653246841761e+004	(-2.05623135692284e+000dB,1.10361614132357e+002°)
1.04021055135759e+004	(-2.39651613109210e+000dB,1.06809024652407e+002°)
1.06444016770073e+004	(-2.79309361600055e+000dB,1.02954643100575e+002°)
1.08923416431030e+004	(-3.25827279034838e+000dB,9.87660717844946e+001°)
1.11460568729152e+004	(-3.80770467005725e+000dB,9.42086115918681e+001°)
1.14056818896168e+004	(-4.46148829824880e+000dB,8.92461061869525e+001°)
1.16713543498284e+004	(-5.24574542171188e+000dB,8.38425183483604e+001°)
1.19432151166049e+004	(-6.19494798135035e+000dB,7.79646885705682e+001°)
1.22214083341234e+004	(-7.35554034315826e+000dB,7.15871065665024e+001°)
1.25060815041100e+004	(-8.79197793119035e+000dB,6.47005047576671e+001°)
1.27973855640478e+004	(-1.05977251399889e+001dB,5.73290168324409e+001°)
1.30954749672050e+004	(-1.29176495976464e+001dB,4.95708073210308e+001°)
1.34005077645289e+004	(-1.60007044048003e+001dB,4.17192991559662e+001°)
1.37126456884462e+004	(-2.03515236274851e+001dB,3.47553508464736e+001°)
1.40320542386159e+004	(-2.73148030906782e+001dB,3.36649115440000e+001°)
1.43589027696791e+004	(-3.76149938529779e+001dB,9.56356053878468e+001°)
1.46933645810534e+004	(-3.07791776973274e+001dB,1.42439144802841e+002°)
1.50356170088181e+004	(-2.90283982845153e+001dB,1.28639427727524e+002°)
1.53858415197409e+004	(-3.05278590863369e+001dB,8.47017177220185e+001°)
1.57442238074931e+004	(-2.66042326638729e+001dB,1.14464560890783e+001°)
1.61109538911075e+004	(-1.96747912889846e+001dB,-2.59071254029925e+001°)
1.64862262157287e+004	(-1.45625293816103e+001dB,-4.86494883178966e+001°)
1.68702397557104e+004	(-1.07227844148977e+001dB,-6.89151475463843e+001°)
1.72631981201147e+004	(-7.77239258769463e+000dB,-9.13524350833769e+001°)
1.76653096606676e+004	(-5.88176891023333e+000dB,-1.20740256095511e+002°)
1.80767875822307e+004	(-6.53120435432156e+000dB,-1.61579706078500e+002°)
1.84978500558444e+004	(-1.27224260796423e+001dB,1.49644391156701e+002°)
1.89287203344058e+004	(-2.23573113534532e+001dB,1.92464771190785e+001°)
1.93696268710396e+004	(-1.26648567636464e+001dB,-4.36765544848128e+001°)
1.98208034402278e+004	(-8.80979797280432e+000dB,-6.28764885844193e+001°)
2.02824892617594e+004	(-6.69186174127529e+000dB,-7.52781030332568e+001°)
2.07549291275680e+004	(-5.30622722339847e+000dB,-8.46968788297453e+001°)
2.12383735315241e+004	(-4.31195463123628e+000dB,-9.23599932386074e+001°)
2.17330788022496e+004	(-3.55759124439587e+000dB,-9.88378763496540e+001°)
2.22393072390275e+004	(-2.96378677595260e+000dB,-1.04448505475580e+002°)
2.27573272508755e+004	(-2.48404350091460e+000dB,-1.09390386521916e+002°)
2.32874134988607e+004	(-2.08884604639627e+000dB,-1.13797603054362e+002°)
2.38298470417284e+004	(-1.75832046586518e+000dB,-1.17766101698950e+002°)
2.43849154849229e+004	(-1.47847439325464e+000dB,-1.21367580421613e+002°)
2.49529131330801e+004	(-1.23911062235212e+000dB,-1.24657422609621e+002°)
2.55341411460712e+004	(-1.03259224994395e+000dB,-1.27679525681446e+002°)
2.61289076986823e+004	(-8.53072451112703e-001dB,-1.30469398477462e+002°)
2.67375281440123e+004	(-6.95992897004272e-001dB,-1.33056238066704e+002°)
2.73603251806772e+004	(-5.57745241944869e-001dB,-1.35464375330597e+002°)
2.79976290239096e+004	(-4.35435749935023e-001dB,-1.37714313527404e+002°)
2.86497775806430e+004	(-3.26717473347454e-001dB,-1.39823494688619e+002°)
2.93171166286742e+004	(-2.29668013934466e-001dB,-1.41806878151760e+002°)
2.99999999999999e+004	(-1.42698838246283e-001dB,-1.43677385782430e+002°)
3.06987897684225e+004	(-6.44869243908524e-002dB,-1.45446250290568e+002°)
3.14138564415269e+004	(6.07748076761558e-003dB,-1.47123291612163e+002°)
3.21455791571281e+004	(6.99312848709502e-002dB,-1.48717138909599e+002°)
3.28943458842954e+004	(1.27870172309142e-001dB,-1.50235410800973e+002°)
3.36605536290588e+004	(1.80573586172339e-001dB,-1.51684863054426e+002°)
3.44446086449064e+004	(2.28624640745246e-001dB,-1.53071510629201e+002°)
3.52469266481858e+004	(2.72526122446516e-001dB,-1.54400729269510e+002°)
3.60679330385222e+004	(3.12713443423726e-001dB,-1.55677340643342e+002°)
3.69080631243713e+004	(3.49565200121282e-001dB,-1.56905684124619e+002°)
3.77677623538249e+004	(3.83411834261762e-001dB,-1.58089677649508e+002°)
3.86474865507939e+004	(4.14542779148547e-001dB,-1.59232869572561e+002°)
3.95477021566921e+004	(4.43212388575080e-001dB,-1.60338483061528e+002°)
4.04688864777495e+004	(4.69644880991059e-001dB,-1.61409454270389e+002°)
4.14115279380864e+004	(4.94038482337267e-001dB,-1.62448465296258e+002°)
4.23761263386825e+004	(5.16568913133231e-001dB,-1.63457972741481e+002°)
4.33631931223777e+004	(5.37392336119314e-001dB,-1.64440232555780e+002°)
4.43732516450461e+004	(5.56647857916821e-001dB,-1.65397321716059e+002°)
4.54068374530861e+004	(5.74459660241507e-001dB,-1.66331157207025e+002°)
4.64644985673743e+004	(5.90938822039069e-001dB,-1.67243512689187e+002°)
4.75467957738332e+004	(6.06184882653668e-001dB,-1.68136033178326e+002°)
4.86543029207677e+004	(6.20287187137229e-001dB,-1.69010248009314e+002°)
4.97876072231266e+004	(6.33326047580363e-001dB,-1.69867582314980e+002°)
5.09473095738521e+004	(6.45373748500356e-001dB,-1.70709367215733e+002°)
5.21340248624810e+004	(6.56495419585509e-001dB,-1.71536848886668e+002°)
5.33483823011675e+004	(6.66749795230795e-001dB,-1.72351196644559e+002°)
5.45910257582993e+004	(6.76189877135629e-001dB,-1.73153510176840e+002°)
5.58626140998858e+004	(6.84863513636223e-001dB,-1.73944826017562e+002°)
5.71638215388972e+004	(6.92813907297208e-001dB,-1.74726123360845e+002°)
5.84953379927411e+004	(7.00080060509677e-001dB,-1.75498329290124e+002°)
5.98578694490661e+004	(7.06697167365556e-001dB,-1.76262323491064e+002°)
6.12521383400856e+004	(7.12696958842181e-001dB,-1.77018942507161e+002°)
6.26788839256209e+004	(7.18108007301366e-001dB,-1.77768983589442e+002°)
6.41388626850667e+004	(7.22955995437336e-001dB,-1.78513208185181e+002°)
6.56328487184863e+004	(7.27263954079511e-001dB,-1.79252345104960e+002°)
6.71616341570499e+004	(7.31052472636420e-001dB,-1.79987093402555e+002°)
6.87260295830329e+004	(7.34339885446096e-001dB,1.79281875002020e+002°)
7.03268644595973e+004	(7.37142436852304e-001dB,1.78553912929599e+002°)
7.19649875705844e+004	(7.39474427447944e-001dB,1.77828395755517e+002°)
7.36412674705506e+004	(7.41348343602212e-001dB,1.77104719408976e+002°)
7.53565929452870e+004	(7.42774972113478e-001dB,1.76382298539692e+002°)
7.71118734830655e+004	(7.43763501588348e-001dB,1.75660564835424e+002°)
7.89080397568611e+004	(7.44321611946509e-001dB,1.74938965475880e+002°)
8.07460441178071e+004	(7.44455553270903e-001dB,1.74216961710036e+002°)
8.26268611001446e+004	(7.44170215073560e-001dB,1.73494027545360e+002°)
8.45514879379332e+004	(7.43469186911840e-001dB,1.72769648538663e+002°)
8.65209450937978e+004	(7.42354811178739e-001dB,1.72043320679412e+002°)
8.85362767999911e+004	(7.40828228787885e-001dB,1.71314549357289e+002°)
9.05985516120600e+004	(7.38889418389409e-001dB,1.70582848406682e+002°)
9.27088629754072e+004	(7.36537229675976e-001dB,1.69847739221550e+002°)
9.48683298050509e+004	(7.33769411272546e-001dB,1.69108749934762e+002°)
9.70780970788880e+004	(7.30582633645131e-001dB,1.68365414656685e+002°)
9.93393364447768e+004	(7.26972507413005e-001dB,1.67617272768281e+002°)
1.00000000000000e+005	(7.25854024334205e-001dB,1.67400946187499e+002°)
Step Information: Run=2  (Run: 2/100)
3.00000000000000e+003	(9.03149390223858e-001dB,1.68366339892114e+002°)
3.06987897684226e+003	(9.00969895399076e-001dB,1.68077580950827e+002°)
3.14138564415270e+003	(8.98668924379047e-001dB,1.67780767355895e+002°)
3.21455791571282e+003	(8.96238783470746e-001dB,1.67475609213456e+002°)
3.28943458842955e+003	(8.93671201353679e-001dB,1.67161801627936e+002°)
3.36605536290589e+003	(8.90957277055723e-001dB,1.66839023639669e+002°)
3.44446086449065e+003	(8.88087422410683e-001dB,1.66506937070113e+002°)
3.52469266481859e+003	(8.85051298325624e-001dB,1.66165185265334e+002°)
3.60679330385224e+003	(8.81837744093335e-001dB,1.65813391727345e+002°)
3.69080631243714e+003	(8.78434698880086e-001dB,1.65451158621672e+002°)
3.77677623538250e+003	(8.74829114394821e-001dB,1.65078065148123e+002°)
3.86474865507940e+003	(8.71006857604366e-001dB,1.64693665760209e+002°)
3.95477021566922e+003	(8.66952602194086e-001dB,1.64297488216848e+002°)
4.04688864777496e+003	(8.62649707281653e-001dB,1.63889031447989e+002°)
4.14115279380865e+003	(8.58080081668238e-001dB,1.63467763213479e+002°)
4.23761263386826e+003	(8.53224031651416e-001dB,1.63033117531866e+002°)
4.33631931223778e+003	(8.48060090117985e-001dB,1.62584491852822e+002°)
4.43732516450462e+003	(8.42564824279198e-001dB,1.62121243943421e+002°)
4.54068374530862e+003	(8.36712618989642e-001dB,1.61642688454551e+002°)
4.64644985673744e+003	(8.30475432096572e-001dB,1.61148093129172e+002°)
4.75467957738334e+003	(8.23822517683223e-001dB,1.60636674608908e+002°)
4.86543029207679e+003	(8.16720112376477e-001dB,1.60107593789366e+002°)
4.97876072231268e+003	(8.09131079070602e-001dB,1.59559950667598e+002°)
5.09473095738523e+003	(8.01014501440089e-001dB,1.58992778616955e+002°)
5.21340248624812e+003	(7.92325221450071e-001dB,1.58405038015159e+002°)
5.33483823011676e+003	(7.83013310677250e-001dB,1.57795609140407e+002°)
5.45910257582995e+003	(7.73023464580450e-001dB,1.57163284237463e+002°)
5.58626140998860e+003	(7.62294306843675e-001dB,1.56506758640720e+002°)
5.71638215388974e+003	(7.50757588481374e-001dB,1.55824620823562e+002°)
5.84953379927413e+003	(7.38337263445933e-001dB,1.55115341222703e+002°)
5.98578694490663e+003	(7.24948418895620e-001dB,1.54377259661818e+002°)
6.12521383400858e+003	(7.10496033910681e-001dB,1.53608571170043e+002°)
6.26788839256211e+003	(6.94873535099062e-001dB,1.52807309956864e+002°)
6.41388626850669e+003	(6.77961110968569e-001dB,1.51971331264630e+002°)
6.56328487184865e+003	(6.59623738850929e-001dB,1.51098290771890e+002°)
6.71616341570501e+003	(6.39708868155319e-001dB,1.50185621163609e+002°)
6.87260295830331e+003	(6.18043691301323e-001dB,1.49230505415981e+002°)
7.03268644595976e+003	(5.94431918188353e-001dB,1.48229846261668e+002°)
7.19649875705846e+003	(5.68649950669332e-001dB,1.47180231203044e+002°)
7.36412674705508e+003	(5.40442329123935e-001dB,1.46077892322563e+002°)
7.53565929452873e+003	(5.09516292472813e-001dB,1.44918659996521e+002°)
7.71118734830658e+003	(4.75535253990210e-001dB,1.43697909445420e+002°)
7.89080397568614e+003	(4.38110945647274e-001dB,1.42410498844162e+002°)
8.07460441178074e+003	(3.96793920264297e-001dB,1.41050697459577e+002°)
8.26268611001449e+003	(3.51062019255903e-001dB,1.39612101970525e+002°)
8.45514879379335e+003	(3.00306308602144e-001dB,1.38087538742974e+002°)
8.65209450937981e+003	(2.43813849407806e-001dB,1.36468949361284e+002°)
8.85362767999915e+003	(1.80746491987527e-001dB,1.34747256133836e+002°)
9.05985516120604e+003	(1.10114650372149e-001dB,1.32912203564902e+002°)
9.27088629754076e+003	(3.07447092892871e-002dB,1.30952170871814e+002°)
9.48683298050513e+003	(-5.87616866019500e-002dB,1.28853949465090e+002°)
9.70780970788884e+003	(-1.60078744633780e-001dB,1.26602477806134e+002°)
9.93393364447772e+003	(-2.75221030476837e-001dB,1.24180524065893e+002°)
1.01653246841761e+004	(-4.06625311560878e-001dB,1.21568304285349e+002°)
1.04021055135759e+004	(-5.57254956219017e-001dB,1.18743019862142e+002°)
1.06444016770073e+004	(-7.30733832190921e-001dB,1.15678292388184e+002°)
1.08923416431030e+004	(-9.31518997814330e-001dB,1.12343464690478e+002°)
1.11460568729152e+004	(-1.16512471547510e+000dB,1.08702721553247e+002°)
1.14056818896168e+004	(-1.43841485278089e+000dB,1.04713956345010e+002°)
1.16713543498284e+004	(-1.75998728041437e+000dB,1.00327258907564e+002°)
1.19432151166049e+004	(-2.14068377450079e+000dB,9.54828006157031e+001°)
1.22214083341234e+004	(-2.59427507083026e+000dB,9.01076895283277e+001°)
1.25060815041100e+004	(-3.13840004113805e+000dB,8.41109361234593e+001°)
1.27973855640478e+004	(-3.79589915944228e+000dB,7.73747054487363e+001°)
1.30954749672050e+004	(-4.59683183215847e+000dB,6.97377622244241e+001°)
1.34005077645289e+004	(-5.58189676436576e+000dB,6.09613322985161e+001°)
1.37126456884462e+004	(-6.80943774811119e+000dB,5.06523377381604e+001°)
1.40320542386159e+004	(-8.37418903956180e+000dB,3.80754823762383e+001°)
1.43589027696791e+004	(-1.04753343885498e+001dB,2.16690189346575e+001°)
1.46933645810534e+004	(-1.37343506288545e+001dB,-1.93810503566512e+000°)
1.50356170088181e+004	(-2.04850528162965e+001dB,-3.48132653499809e+001°)
1.53858415197409e+004	(-3.41552002390452e+001dB,-4.76306031657428e+001°)
1.57442238074931e+004	(-4.86019230172785e+001dB,-7.78646193923560e+001°)
1.61109538911075e+004	(-3.87358092539445e+001dB,-1.72571721707237e+002°)
1.64862262157287e+004	(-3.70282741068986e+001dB,1.56891364098729e+002°)
1.68702397557104e+004	(-4.01519572942907e+001dB,6.76872467195653e+001°)
1.72631981201147e+004	(-2.90117784555155e+001dB,-2.93587235288918e+000°)
1.76653096606676e+004	(-2.19518498007799e+001dB,-2.47744169726266e+001°)
1.80767875822307e+004	(-1.73884109991045e+001dB,-3.93716499505413e+001°)
1.84978500558444e+004	(-1.41344569332821e+001dB,-5.12743345540243e+001°)
1.89287203344058e+004	(-1.16938282855252e+001dB,-6.15599755963857e+001°)
1.93696268710396e+004	(-9.80639468808357e+000dB,-7.06373050484725e+001°)
1.98208034402278e+004	(-8.31552565529036e+000dB,-7.87220562275135e+001°)
2.02824892617594e+004	(-7.11860424065439e+000dB,-8.59590764325022e+001°)
2.07549291275680e+004	(-6.14471228629484e+000dB,-9.24607859945001e+001°)
2.12383735315241e+004	(-5.34306913578882e+000dB,-9.83208270919580e+001°)
2.17330788022496e+004	(-4.67639205281191e+000dB,-1.03619488264183e+002°)
2.22393072390275e+004	(-4.11678642849830e+000dB,-1.08426277035777e+002°)
2.27573272508755e+004	(-3.64306221321744e+000dB,-1.12801487033692e+002°)
2.32874134988607e+004	(-3.23891372012868e+000dB,-1.16797393352860e+002°)
2.38298470417284e+004	(-2.89165049130370e+000dB,-1.20459281223150e+002°)
2.43849154849229e+004	(-2.59129378106384e+000dB,-1.23826365844015e+002°)
2.49529131330801e+004	(-2.32992264015188e+000dB,-1.26932615933999e+002°)
2.55341411460712e+004	(-2.10119412132958e+000dB,-1.29807483452837e+002°)
2.61289076986823e+004	(-1.89998704074627e+000dB,-1.32476542504301e+002°)
2.67375281440123e+004	(-1.72213465554950e+000dB,-1.34962043017314e+002°)
2.73603251806772e+004	(-1.56422210751125e+000dB,-1.37283386828846e+002°)
2.79976290239096e+004	(-1.42343155100054e+000dB,-1.39457534779293e+002°)
2.86497775806430e+004	(-1.29742273379534e+000dB,-1.41499353556372e+002°)
2.93171166286742e+004	(-1.18424017667517e+000dB,-1.43421910586789e+002°)
2.99999999999999e+004	(-1.08224047923700e+000dB,-1.45236724532569e+002°)
3.06987897684225e+004	(-9.90034977147054e-001dB,-1.46953978080812e+002°)
3.14138564415269e+004	(-9.06444198399317e-001dB,-1.48582698834054e+002°)
3.21455791571281e+004	(-8.30461454267794e-001dB,-1.50130913276648e+002°)
3.28943458842954e+004	(-7.61223551416546e-001dB,-1.51605778041427e+002°)
3.36605536290588e+004	(-6.97987092335619e-001dB,-1.53013692041387e+002°)
3.44446086449064e+004	(-6.40109189059071e-001dB,-1.54360392462783e+002°)
3.52469266481858e+004	(-5.87031683377638e-001dB,-1.55651037132363e+002°)
3.60679330385222e+004	(-5.38268169282072e-001dB,-1.56890275363462e+002°)
3.69080631243713e+004	(-4.93393267301158e-001dB,-1.58082309043484e+002°)
3.77677623538249e+004	(-4.52033718148605e-001dB,-1.59230945439294e+002°)
3.86474865507939e+004	(-4.13860953715394e-001dB,-1.60339642958649e+002°)
3.95477021566921e+004	(-3.78584873615363e-001dB,-1.61411550907230e+002°)
4.04688864777495e+004	(-3.45948610131184e-001dB,-1.62449544115513e+002°)
4.14115279380864e+004	(-3.15724107190662e-001dB,-1.63456253172063e+002°)
4.23761263386825e+004	(-2.87708372680826e-001dB,-1.64434090885038e+002°)
4.33631931223777e+004	(-2.61720290051169e-001dB,-1.65385275497973e+002°)
4.43732516450461e+004	(-2.37597896343386e-001dB,-1.66311851105800e+002°)
4.54068374530861e+004	(-2.15196050708801e-001dB,-1.67215705650115e+002°)
4.64644985673743e+004	(-1.94384431057416e-001dB,-1.68098586816442e+002°)
4.75467957738332e+004	(-1.75045807429153e-001dB,-1.68962116109041e+002°)
4.86543029207677e+004	(-1.57074549545161e-001dB,-1.69807801338981e+002°)
