Freq.	V(vo)
Step Information: Run=1  (Run: 1/100)
3.00000000000000e+003	(7.55387392498032e-001dB,1.78781724834373e+002°)
3.06987897684226e+003	(7.56238343385903e-001dB,1.78752062885486e+002°)
3.14138564415270e+003	(7.57131606443942e-001dB,1.78721614442914e+002°)
3.21455791571282e+003	(7.58069397955962e-001dB,1.78690353882708e+002°)
3.28943458842955e+003	(7.59054061498761e-001dB,1.78658254401399e+002°)
3.36605536290589e+003	(7.60088076364750e-001dB,1.78625287938934e+002°)
3.44446086449065e+003	(7.61174066650650e-001dB,1.78591425095181e+002°)
3.52469266481859e+003	(7.62314811074750e-001dB,1.78556635039407e+002°)
3.60679330385224e+003	(7.63513253592915e-001dB,1.78520885411985e+002°)
3.69080631243714e+003	(7.64772514891310e-001dB,1.78484142217589e+002°)
3.77677623538250e+003	(7.66095904842216e-001dB,1.78446369708968e+002°)
3.86474865507940e+003	(7.67486936019994e-001dB,1.78407530260341e+002°)
3.95477021566922e+003	(7.68949338385109e-001dB,1.78367584229306e+002°)
4.04688864777496e+003	(7.70487075257075e-001dB,1.78326489806047e+002°)
4.14115279380865e+003	(7.72104360712185e-001dB,1.78284202848439e+002°)
4.23761263386826e+003	(7.73805678557455e-001dB,1.78240676701518e+002°)
4.33631931223778e+003	(7.75595803052845e-001dB,1.78195861999532e+002°)
4.43732516450462e+003	(7.77479821573781e-001dB,1.78149706448628e+002°)
4.54068374530862e+003	(7.79463159431429e-001dB,1.78102154587895e+002°)
4.64644985673744e+003	(7.81551607097268e-001dB,1.78053147526243e+002°)
4.75467957738334e+003	(7.83751350109550e-001dB,1.78002622652212e+002°)
4.86543029207679e+003	(7.86069001978442e-001dB,1.77950513313414e+002°)
4.97876072231268e+003	(7.88511640448508e-001dB,1.77896748461865e+002°)
5.09473095738523e+003	(7.91086847528934e-001dB,1.77841252260867e+002°)
5.21340248624812e+003	(7.93802753758070e-001dB,1.77783943648548e+002°)
5.33483823011676e+003	(7.96668087238183e-001dB,1.77724735852353e+002°)
5.45910257582995e+003	(7.99692228054102e-001dB,1.77663535847960e+002°)
5.58626140998860e+003	(8.02885268781303e-001dB,1.77600243755082e+002°)
5.71638215388974e+003	(8.06258081897222e-001dB,1.77534752161377e+002°)
5.84953379927413e+003	(8.09822395035243e-001dB,1.77466945364338e+002°)
5.98578694490663e+003	(8.13590875170836e-001dB,1.77396698519293e+002°)
6.12521383400858e+003	(8.17577223004294e-001dB,1.77323876679702e+002°)
6.26788839256211e+003	(8.21796279013520e-001dB,1.77248333713543e+002°)
6.41388626850669e+003	(8.26264142898831e-001dB,1.77169911076697e+002°)
6.56328487184865e+003	(8.30998308436496e-001dB,1.77088436420883e+002°)
6.71616341570501e+003	(8.36017816112815e-001dB,1.77003722009478e+002°)
6.87260295830331e+003	(8.41343426335552e-001dB,1.76915562909623e+002°)
7.03268644595976e+003	(8.46997816532808e-001dB,1.76823734922852e+002°)
7.19649875705846e+003	(8.53005806069679e-001dB,1.76727992209072e+002°)
7.36412674705508e+003	(8.59394613669419e-001dB,1.76628064549559e+002°)
7.53565929452873e+003	(8.66194152944844e-001dB,1.76523654183343e+002°)
7.71118734830658e+003	(8.73437372778080e-001dB,1.76414432137371e+002°)
7.89080397568614e+003	(8.81160650674552e-001dB,1.76300033953377e+002°)
8.07460441178074e+003	(8.89404248941189e-001dB,1.76180054692570e+002°)
8.26268611001449e+003	(8.98212845677407e-001dB,1.76054043071647e+002°)
8.45514879379335e+003	(9.07636155244898e-001dB,1.75921494548738e+002°)
8.65209450937981e+003	(9.17729656244781e-001dB,1.75781843133262e+002°)
8.85362767999915e+003	(9.28555449282627e-001dB,1.75634451636377e+002°)
9.05985516120604e+003	(9.40183272209095e-001dB,1.75478600004483e+002°)
9.27088629754076e+003	(9.52691707440269e-001dB,1.75313471281509e+002°)
9.48683298050513e+003	(9.66169624872380e-001dB,1.75138134618465e+002°)
9.70780970788884e+003	(9.80717915455363e-001dB,1.74951524580028e+002°)
9.93393364447772e+003	(9.96451585574478e-001dB,1.74752415772190e+002°)
1.01653246841761e+004	(1.01350230223141e+000dB,1.74539391509877e+002°)
1.04021055135759e+004	(1.03202150532149e+000dB,1.74310804826991e+002°)
1.06444016770073e+004	(1.05218423845270e+000dB,1.74064729556272e+002°)
1.08923416431030e+004	(1.07419389711515e+000dB,1.73798898403087e+002°)
1.11460568729152e+004	(1.09828815736996e+000dB,1.73510623800571e+002°)
1.14056818896168e+004	(1.12474643645154e+000dB,1.73196695702696e+002°)
1.16713543498284e+004	(1.15389935867729e+000dB,1.72853248097013e+002°)
1.19432151166049e+004	(1.18614087020657e+000dB,1.72475582503717e+002°)
1.22214083341234e+004	(1.22194388538056e+000dB,1.72057931432348e+002°)
1.25060815041100e+004	(1.26188068583912e+000dB,1.71593136634133e+002°)
1.27973855640478e+004	(1.30664977444125e+000dB,1.71072204227954e+002°)
1.30954749672050e+004	(1.35711156836647e+000dB,1.70483678286281e+002°)
1.34005077645289e+004	(1.41433627384045e+000dB,1.69812740701232e+002°)
1.37126456884462e+004	(1.47966858989997e+000dB,1.69039887902767e+002°)
1.40320542386159e+004	(1.55481553349815e+000dB,1.68138934816638e+002°)
1.43589027696791e+004	(1.64196532065209e+000dB,1.67073914807443e+002°)
1.46933645810534e+004	(1.74394536367593e+000dB,1.65794101685586e+002°)
1.50356170088181e+004	(1.86442063973113e+000dB,1.64225704037617e+002°)
1.53858415197409e+004	(2.00810147630651e+000dB,1.62257381778233e+002°)
1.57442238074931e+004	(2.18080818677103e+000dB,1.59713673125965e+002°)
1.61109538911075e+004	(2.38879608471084e+000dB,1.56303349622713e+002°)
1.64862262157287e+004	(2.63506719088918e+000dB,1.51512650357925e+002°)
1.68702397557104e+004	(2.90361782664536e+000dB,1.44372568066124e+002°)
1.72631981201147e+004	(3.09350716392656e+000dB,1.32957778605019e+002°)
1.76653096606676e+004	(2.75100513305185e+000dB,1.13669942490593e+002°)
1.80767875822307e+004	(3.28389302655074e-001dB,8.30776184236298e+001°)
1.84978500558444e+004	(-7.06833475789407e+000dB,4.38719723393665e+001°)
1.89287203344058e+004	(-1.75956259360465e+001dB,-7.89194480677491e+001°)
1.93696268710396e+004	(-8.66856983232980e+000dB,-1.35396681873602e+002°)
1.98208034402278e+004	(-5.47045562788885e+000dB,-1.48797902751621e+002°)
2.02824892617594e+004	(-3.90857509940287e+000dB,-1.55904019745712e+002°)
2.07549291275680e+004	(-2.99130058631536e+000dB,-1.60474033755358e+002°)
2.12383735315241e+004	(-2.39177345379347e+000dB,-1.63694263470353e+002°)
2.17330788022496e+004	(-1.97119349348713e+000dB,-1.66097377146136e+002°)
2.22393072390275e+004	(-1.66087802210846e+000dB,-1.67965479534210e+002°)
2.27573272508755e+004	(-1.42309630676661e+000dB,-1.69463573140285e+002°)
2.32874134988607e+004	(-1.23546644856159e+000dB,-1.70695030055858e+002°)
2.38298470417284e+004	(-1.08390270693779e+000dB,-1.71728033222465e+002°)
2.43849154849229e+004	(-9.59113324929032e-001dB,-1.72609416055811e+002°)
2.49529131330801e+004	(-8.54729101340358e-001dB,-1.73372426697226e+002°)
2.55341411460712e+004	(-7.66242529095356e-001dB,-1.74041327018478e+002°)
2.61289076986823e+004	(-6.90376403265095e-001dB,-1.74634239601523e+002°)
2.67375281440123e+004	(-6.24692338400245e-001dB,-1.75164976141505e+002°)
2.73603251806772e+004	(-5.67339416207159e-001dB,-1.75644248960461e+002°)
2.79976290239096e+004	(-5.16887867379564e-001dB,-1.76080495695452e+002°)
2.86497775806430e+004	(-4.72216088414989e-001dB,-1.76480454037063e+002°)
2.93171166286742e+004	(-4.32432092972674e-001dB,-1.76849570671225e+002°)
2.99999999999999e+004	(-3.96817770133544e-001dB,-1.77192297669905e+002°)
3.06987897684225e+004	(-3.64788595277873e-001dB,-1.77512310885998e+002°)
3.14138564415269e+004	(-3.35864025845444e-001dB,-1.77812673290957e+002°)
3.21455791571281e+004	(-3.09645421851390e-001dB,-1.78095958794320e+002°)
3.28943458842954e+004	(-2.85799354284036e-001dB,-1.78364347266486e+002°)
3.36605536290588e+004	(-2.64044829993781e-001dB,-1.78619698286153e+002°)
3.44446086449064e+004	(-2.44143403032538e-001dB,-1.78863608969714e+002°)
3.52469266481858e+004	(-2.25891440382809e-001dB,-1.79097459751974e+002°)
3.60679330385222e+004	(-2.09114014513388e-001dB,-1.79322450948869e+002°)
3.69080631243713e+004	(-1.93660037671635e-001dB,-1.79539632197703e+002°)
3.77677623538249e+004	(-1.79398353470907e-001dB,-1.79749926343210e+002°)
3.86474865507939e+004	(-1.66214573352332e-001dB,-1.79954148955239e+002°)
3.95477021566921e+004	(-1.54008497656761e-001dB,1.79846975616840e+002°)
4.04688864777495e+004	(-1.42691999236559e-001dB,1.79652800956003e+002°)
4.14115279380864e+004	(-1.32187275794922e-001dB,1.79462747514496e+002°)
4.23761263386825e+004	(-1.22425398254569e-001dB,1.79276293352297e+002°)
4.33631931223777e+004	(-1.13345098376763e-001dB,1.79092966343217e+002°)
4.43732516450461e+004	(-1.04891750956592e-001dB,1.78912337583665e+002°)
4.54068374530861e+004	(-9.70165152005097e-002dB,1.78734015792331e+002°)
4.64644985673743e+004	(-8.96756070602149e-002dB,1.78557642530599e+002°)
4.75467957738332e+004	(-8.28296798738326e-002dB,1.78382888106097e+002°)
4.86543029207677e+004	(-7.64432950332453e-002dB,1.78209448047495e+002°)
4.97876072231266e+004	(-7.04844678402701e-002dB,1.78037040059126e+002°)
5.09473095738521e+004	(-6.49242764456572e-002dB,1.77865401380337e+002°)
5.21340248624810e+004	(-5.97365239438254e-002dB,1.77694286487593e+002°)
5.33483823011675e+004	(-5.48974454446573e-002dB,1.77523465087953e+002°)
5.45910257582993e+004	(-5.03854533523329e-002dB,1.77352720361165e+002°)
5.58626140998858e+004	(-4.61809152248927e-002dB,1.77181847414601e+002°)
5.71638215388972e+004	(-4.22659595173824e-002dB,1.77010651921042e+002°)
5.84953379927411e+004	(-3.86243052732295e-002dB,1.76838948914015e+002°)
5.98578694490661e+004	(-3.52411124537812e-002dB,1.76666561719320e+002°)
6.12521383400856e+004	(-3.21028501116215e-002dB,1.76493321004608e+002°)
6.26788839256209e+004	(-2.91971800413759e-002dB,1.76319063931565e+002°)
6.41388626850667e+004	(-2.65128538963589e-002dB,1.76143633397543e+002°)
6.56328487184863e+004	(-2.40396220574942e-002dB,1.75966877355322e+002°)
6.71616341570499e+004	(-2.17681527880322e-002dB,1.75788648201322e+002°)
6.87260295830329e+004	(-1.96899604180225e-002dB,1.75608802223908e+002°)
7.03268644595973e+004	(-1.77973414776762e-002dB,1.75427199104560e+002°)
7.19649875705844e+004	(-1.60833178487685e-002dB,1.75243701465685e+002°)
7.36412674705506e+004	(-1.45415861288527e-002dB,1.75058174459611e+002°)
7.53565929452870e+004	(-1.31664725122183e-002dB,1.74870485394073e+002°)
7.71118734830655e+004	(-1.19528925816852e-002dB,1.74680503390060e+002°)
7.89080397568611e+004	(-1.08963154860368e-002dB,1.74488099068427e+002°)
8.07460441178071e+004	(-9.99273204394117e-003dB,1.74293144262122e+002°)
8.26268611001446e+004	(-9.23862637432564e-003dB,1.74095511751261e+002°)
8.45514879379332e+004	(-8.63095070294815e-003dB,1.73895075018628e+002°)
8.65209450937978e+004	(-8.16710303875482e-003dB,1.73691708023449e+002°)
8.85362767999911e+004	(-7.84490745079266e-003dB,1.73485284991567e+002°)
9.05985516120600e+004	(-7.66259670961741e-003dB,1.73275680220341e+002°)
9.27088629754072e+004	(-7.61879708539270e-003dB,1.73062767896801e+002°)
9.48683298050509e+004	(-7.71251512001223e-003dB,1.72846421927761e+002°)
9.70780970788880e+004	(-7.94312621219528e-003dB,1.72626515780722e+002°)
9.93393364447768e+004	(-8.31036487367401e-003dB,1.72402922334565e+002°)
1.00000000000000e+005	(-8.44141397428683e-003dB,1.72337853896956e+002°)
Step Information: Run=2  (Run: 2/100)
3.00000000000000e+003	(5.40307600263491e-001dB,1.78739648893532e+002°)
3.06987897684226e+003	(5.41758617712145e-001dB,1.78708322568893e+002°)
3.14138564415270e+003	(5.43283610723581e-001dB,1.78676117446596e+002°)
3.21455791571282e+003	(5.44886639626538e-001dB,1.78643001324027e+002°)
3.28943458842955e+003	(5.46572016903548e-001dB,1.78608940268624e+002°)
3.36605536290589e+003	(5.48344325808352e-001dB,1.78573898488380e+002°)
3.44446086449065e+003	(5.50208440653346e-001dB,1.78537838190251e+002°)
3.52469266481859e+003	(5.52169548945941e-001dB,1.78500719425115e+002°)
3.60679330385224e+003	(5.54233175576555e-001dB,1.78462499917796e+002°)
3.69080631243714e+003	(5.56405209285245e-001dB,1.78423134880435e+002°)
3.77677623538250e+003	(5.58691931664315e-001dB,1.78382576807295e+002°)
3.86474865507940e+003	(5.61100048987765e-001dB,1.78340775248802e+002°)
3.95477021566922e+003	(5.63636727197039e-001dB,1.78297676562343e+002°)
4.04688864777496e+003	(5.66309630418062e-001dB,1.78253223636998e+002°)
4.14115279380865e+003	(5.69126963435471e-001dB,1.78207355588969e+002°)
4.23761263386826e+003	(5.72097518609971e-001dB,1.78160007424005e+002°)
4.33631931223778e+003	(5.75230727795428e-001dB,1.78111109662608e+002°)
4.43732516450462e+003	(5.78536719891348e-001dB,1.78060587923128e+002°)
4.54068374530862e+003	(5.82026384762612e-001dB,1.78008362457143e+002°)
4.64644985673744e+003	(5.85711444367460e-001dB,1.77954347630647e+002°)
4.75467957738334e+003	(5.89604532065257e-001dB,1.77898451343531e+002°)
4.86543029207679e+003	(5.93719281227396e-001dB,1.77840574378629e+002°)
4.97876072231268e+003	(5.98070424454537e-001dB,1.77780609670179e+002°)
5.09473095738523e+003	(6.02673904916373e-001dB,1.77718441479815e+002°)
5.21340248624812e+003	(6.07547001582872e-001dB,1.77653944466181e+002°)
5.33483823011676e+003	(6.12708470416391e-001dB,1.77586982631808e+002°)
5.45910257582995e+003	(6.18178703954276e-001dB,1.77517408127933e+002°)
5.58626140998860e+003	(6.23979912142638e-001dB,1.77445059894431e+002°)
5.71638215388974e+003	(6.30136327801864e-001dB,1.77369762107685e+002°)
5.84953379927413e+003	(6.36674440732165e-001dB,1.77291322404011e+002°)
5.98578694490663e+003	(6.43623265229385e-001dB,1.77209529839845e+002°)
6.12521383400858e+003	(6.51014646710445e-001dB,1.77124152542047e+002°)
6.26788839256211e+003	(6.58883614284296e-001dB,1.77034934991988e+002°)
6.41388626850669e+003	(6.67268787502593e-001dB,1.76941594875053e+002°)
6.56328487184865e+003	(6.76212847251413e-001dB,1.76843819412228e+002°)
6.71616341570501e+003	(6.85763082891703e-001dB,1.76741261071658e+002°)
6.87260295830331e+003	(6.95972030432780e-001dB,1.76633532534382e+002°)
7.03268644595976e+003	(7.06898219888091e-001dB,1.76520200758425e+002°)
7.19649875705846e+003	(7.18607054205530e-001dB,1.76400779947101e+002°)
7.36412674705508e+003	(7.31171847560000e-001dB,1.76274723178069e+002°)
7.53565929452873e+003	(7.44675057691598e-001dB,1.76141412385914e+002°)
7.71118734830658e+003	(7.59209755848883e-001dB,1.76000146307741e+002°)
7.89080397568614e+003	(7.74881389406237e-001dB,1.75850125891790e+002°)
8.07460441178074e+003	(7.91809907254953e-001dB,1.75690436523816e+002°)
8.26268611001449e+003	(8.10132337860034e-001dB,1.75520026231449e+002°)
8.45514879379335e+003	(8.30005936150968e-001dB,1.75337678763822e+002°)
8.65209450937981e+003	(8.51612050614531e-001dB,1.75141980084393e+002°)
8.85362767999915e+003	(8.75160909554249e-001dB,1.74931276318480e+002°)
9.05985516120604e+003	(9.00897590490556e-001dB,1.74703620502753e+002°)
9.27088629754076e+003	(9.29109526404424e-001dB,1.74456704500333e+002°)
9.48683298050513e+003	(9.60136027784831e-001dB,1.74187771032049e+002°)
9.70780970788884e+003	(9.94380476376191e-001dB,1.73893498713018e+002°)
9.93393364447772e+003	(1.03232609962818e+000dB,1.73569849926716e+002°)
1.01653246841761e+004	(1.07455660176250e+000dB,1.73211866752682e+002°)
1.04021055135759e+004	(1.12178346670844e+000dB,1.72813393055153e+002°)
1.06444016770073e+004	(1.17488255250696e+000dB,1.72366689651752e+002°)
1.08923416431030e+004	(1.23494381416573e+000dB,1.71861891446377e+002°)
1.11460568729152e+004	(1.30333986144761e+000dB,1.71286225555119e+002°)
1.14056818896168e+004	(1.38182196762432e+000dB,1.70622858544116e+002°)
1.16713543498284e+004	(1.47265672006974e+000dB,1.69849151150112e+002°)
1.19432151166049e+004	(1.57882371839013e+000dB,1.68933934593062e+002°)
1.22214083341234e+004	(1.70430594599355e+000dB,1.67833108887389e+002°)
1.25060815041100e+004	(1.85452090136410e+000dB,1.66482234693174e+002°)
1.27973855640478e+004	(2.03696008176409e+000dB,1.64783457734101e+002°)
1.30954749672050e+004	(2.26210539366868e+000dB,1.62581096977814e+002°)
1.34005077645289e+004	(2.54455784137021e+000dB,1.59612938844282e+002°)
1.37126456884462e+004	(2.90346915138513e+000dB,1.55405241579485e+002°)
1.40320542386159e+004	(3.35679717822879e+000dB,1.49026634731214e+002°)
1.43589027696791e+004	(3.87855707414001e+000dB,1.38476321881303e+002°)
1.46933645810534e+004	(4.14836338904173e+000dB,1.19384607572936e+002°)
1.50356170088181e+004	(2.53820755329069e+000dB,8.61396804792497e+001°)
1.53858415197409e+004	(-4.09411536258912e+000dB,4.59312059021548e+001°)
1.57442238074931e+004	(-1.87440791121273e+001dB,-3.51195454782307e+001°)
1.61109538911075e+004	(-1.05295132715304e+001dB,-1.36346348130587e+002°)
1.64862262157287e+004	(-6.54250298440715e+000dB,-1.51279970762386e+002°)
1.68702397557104e+004	(-4.71785166246991e+000dB,-1.58257223105511e+002°)
1.72631981201147e+004	(-3.67301415241774e+000dB,-1.62544358732790e+002°)
1.76653096606676e+004	(-2.99798760656644e+000dB,-1.65495723906137e+002°)
1.80767875822307e+004	(-2.52715345099334e+000dB,-1.67667394947942e+002°)
1.84978500558444e+004	(-2.18076074056216e+000dB,-1.69339726922141e+002°)
1.89287203344058e+004	(-1.91570147548994e+000dB,-1.70671750106085e+002°)
1.93696268710396e+004	(-1.70666161499902e+000dB,-1.71761058331890e+002°)
1.98208034402278e+004	(-1.53781415097723e+000dB,-1.72671082313368e+002°)
2.02824892617594e+004	(-1.39876370321996e+000dB,-1.73444916830280e+002°)
2.07549291275680e+004	(-1.28240500554069e+000dB,-1.74112899590193e+002°)
2.12383735315241e+004	(-1.18371918113875e+000dB,-1.74697022211773e+002°)
2.17330788022496e+004	(-1.09906172765851e+000dB,-1.75213623789511e+002°)
2.22393072390275e+004	(-1.02572304912018e+000dB,-1.75675102103621e+002°)
2.27573272508755e+004	(-9.61647247528757e-001dB,-1.76091037558483e+002°)
2.32874134988607e+004	(-9.05246519101032e-001dB,-1.76468952740106e+002°)
2.38298470417284e+004	(-8.55275308257881e-001dB,-1.76814838574195e+002°)
2.43849154849229e+004	(-8.10742939682268e-001dB,-1.77133526793683e+002°)
2.49529131330801e+004	(-7.70851682510426e-001dB,-1.77428958717624e+002°)
2.55341411460712e+004	(-7.34952018091512e-001dB,-1.77704382555768e+002°)
2.61289076986823e+004	(-7.02509788522972e-001dB,-1.77962500489809e+002°)
2.67375281440123e+004	(-6.73081704131294e-001dB,-1.78205579849612e+002°)
2.73603251806772e+004	(-6.46296831776866e-001dB,-1.78435538216854e+002°)
2.79976290239096e+004	(-6.21842428301071e-001dB,-1.78654009325389e+002°)
2.86497775806430e+004	(-5.99452975074974e-001dB,-1.78862394633233e+002°)
2.93171166286742e+004	(-5.78901601129837e-001dB,-1.79061904075684e+002°)
2.99999999999999e+004	(-5.59993309638109e-001dB,-1.79253588559551e+002°)
3.06987897684225e+004	(-5.42559580734391e-001dB,-1.79438366088614e+002°)
3.14138564415269e+004	(-5.26454035365442e-001dB,-1.79617042931618e+002°)
3.21455791571281e+004	(-5.11548924745443e-001dB,-1.79790330897576e+002°)
3.28943458842954e+004	(-4.97732267822271e-001dB,-1.79958861529537e+002°)
3.36605536290588e+004	(-4.84905501493760e-001dB,1.79876802159639e+002°)
3.44446086449064e+004	(-4.72981539627308e-001dB,1.79716155926098e+002°)
3.52469266481858e+004	(-4.61883160330481e-001dB,1.79558746130704e+002°)
3.60679330385222e+004	(-4.51541658553777e-001dB,1.79404162874285e+002°)
3.69080631243713e+004	(-4.41895714518288e-001dB,1.79252034196715e+002°)
3.77677623538249e+004	(-4.32890438738661e-001dB,1.79102021151722e+002°)
3.86474865507939e+004	(-4.24476562354025e-001dB,1.78953813606404e+002°)
3.95477021566921e+004	(-4.16609747655473e-001dB,1.78807126643449e+002°)
4.04688864777495e+004	(-4.09249998539498e-001dB,1.78661697466980e+002°)
4.14115279380864e+004	(-4.02361154431144e-001dB,1.78517282731110e+002°)
4.23761263386825e+004	(-3.95910454247476e-001dB,1.78373656224827e+002°)
4.33631931223777e+004	(-3.89868159387103e-001dB,1.78230606858429e+002°)
4.43732516450461e+004	(-3.84207226667996e-001dB,1.78087936906181e+002°)
4.54068374530861e+004	(-3.78903023699518e-001dB,1.77945460467440e+002°)
4.64644985673743e+004	(-3.73933080439774e-001dB,1.77803002114730e+002°)
4.75467957738332e+004	(-3.69276871722529e-001dB,1.77660395702321e+002°)
4.86543029207677e+004	(-3.64915626380722e-001dB,1.77517483313052e+002°)
4.97876072231266e+004	(-3.60832159287722e-001dB,1.77374114324567e+002°)
